# HZ S RI R 50
10000 0.9689123333333332 -0.12523499999999999
1495879 0.8211863333333334 1.4707376666666665
2981758 0.7784083333333333 0.8688513333333333
4467637 0.749317 0.4721553333333333
5953516 0.755457 0.31090966666666664
7439395 0.7416063333333334 0.22750366666666666
8925274 0.7167926666666666 1.5900409999999998
10411153 0.5469956666666667 1.2771466666666669
11897032 0.4517983333333333 1.0642003333333334
13382911 0.39468166666666665 0.9097953333333333
14868790 0.3612043333333333 0.7921703333333332
16354669 0.341228 0.699497
17840548 0.3378913333333333 0.6259386666666666
19326427 0.325777 0.5687486666666667
20812306 0.3275916666666666 0.5193343333333333
22298185 0.331141 0.480186
23784064 0.33632433333333334 0.44783166666666663
25269943 0.3429406666666666 0.42204833333333336
26755822 0.35069566666666663 0.40110433333333334
28241701 0.3582156666666666 0.3844573333333333
29727580 0.3657706666666667 0.3713226666666667
31213459 0.3975606666666667 0.34215433333333334
32699338 0.43426466666666663 0.3082503333333333
34185217 0.47198666666666667 0.2734633333333333
35671096 0.5070196666666666 0.23847633333333332
37156975 0.5397079999999999 0.20345566666666665
38642854 0.5746673333333333 0.16817633333333332
40128733 0.603723 0.135019
41614612 0.6439223333333333 0.096669
43100491 0.673018 0.064866
44586370 0.7098633333333333 0.029541333333333336
46072249 0.7408933333333333 -0.0010236666666666666
47558128 0.7790093333333333 -0.03183866666666667
49044007 0.8181239999999999 -0.05862799999999999
50529886 0.8600859999999999 -0.079631
52015765 0.8852726666666666 -0.094189
53501644 0.9180806666666665 -0.099383
54987523 0.935904 -0.09944900000000001
56473402 0.9329353333333332 -0.10776999999999999
57959281 0.9297466666666666 -0.09838933333333333
59445160 0.9114929999999999 -0.07365333333333333
60931039 0.9007126666666665 -0.06473666666666666
62416918 0.9036723333333333 -0.074216
63902797 0.9060506666666666 -0.08314633333333332
65388676 0.9072726666666666 -0.09193166666666666
66874555 0.910087 -0.088424
68360434 0.9017656666666666 -0.16513266666666665
69846313 0.9146776666666666 -0.06986066666666665
71332192 0.91703 -0.06629266666666667
72818071 0.9138183333333332 -0.10656433333333333
74303950 0.914481 -0.09988999999999999
75789829 0.9184950000000001 -0.03952666666666667
77275708 0.9188419999999999 -0.04754833333333334
78761587 0.9179506666666667 -0.04333933333333333
80247466 0.9052236666666668 -0.14847866666666665
81733345 0.9102039999999999 -0.10666266666666666
83219224 0.9069006666666667 -0.11644499999999998
84705103 0.901567 -0.14071633333333333
86190982 0.9084946666666666 -0.028487
87676861 0.8968013333333333 -0.133245
89162740 0.8961113333333333 -0.11180399999999999
90648619 0.8929090000000001 -0.12853599999999998
92134498 0.8959886666666665 -0.12762066666666666
93620377 0.902713 -0.10067033333333332
95106256 0.9021453333333334 -0.12524433333333332
96592135 0.9043463333333334 -0.12507466666666667
98078014 0.906391 -0.12076966666666666
99563893 0.908874 -0.118921
101049772 0.9088166666666666 -0.13186699999999998
102535651 0.9087679999999999 -0.13312400000000002
104021530 0.9090889999999999 -0.13487666666666664
105507409 0.908744 -0.13633366666666663
106993288 0.9076446666666667 -0.137343
108479167 0.9070859999999998 -0.13849599999999998
109965046 0.9055306666666666 -0.13985266666666668
111450925 0.9043326666666666 -0.141243
112936804 0.9020616666666667 -0.1424893333333333
114422683 0.8989499999999999 -0.14286066666666666
115908562 0.8964486666666667 -0.14512966666666666
117394441 0.8939836666666667 -0.14503599999999997
118880320 0.8898176666666666 -0.14644133333333334
120366199 0.8883903333333333 -0.14785733333333334
121852078 0.8916899999999999 -0.15132299999999999
123337957 0.895412 -0.15343566666666666
124823836 0.8976623333333333 -0.15604199999999996
126309715 0.9006459999999998 -0.15747633333333333
127795594 0.9037636666666666 -0.16002566666666668
129281473 0.904978 -0.16245266666666663
130767352 0.9073876666666667 -0.16271433333333332
132253231 0.908525 -0.16499266666666668
133739110 0.9101809999999999 -0.16670733333333332
135224989 0.894914 -0.17520899999999998
136710868 0.8949603333333332 -0.17679899999999998
138196747 0.895107 -0.17809066666666665
139682626 0.8943243333333333 -0.17815666666666666
141168505 0.8929839999999999 -0.179634
142654384 0.8917623333333333 -0.18027966666666664
144140263 0.8902503333333334 -0.181587
145626142 0.8869556666666667 -0.18227699999999997
147112021 0.8854283333333333 -0.182726
148597900 0.8819563333333333 -0.18318066666666666
150083779 0.8793106666666667 -0.18386766666666668
151569658 0.8819576666666666 -0.1867193333333333
153055537 0.8845259999999999 -0.18943066666666666
154541416 0.8865936666666667 -0.1920926666666667
156027295 0.8883586666666666 -0.1947556666666667
157513174 0.8903983333333333 -0.196098
158999053 0.8913926666666666 -0.19878533333333331
160484932 0.8928046666666667 -0.19988199999999995
161970811 0.8930826666666667 -0.20178633333333332
163456690 0.893046 -0.20354300000000003
164942569 0.8933636666666667 -0.20506933333333333
166428448 0.8928119999999999 -0.20646466666666666
167914327 0.8909023333333332 -0.20744533333333331
169400206 0.890507 -0.20919999999999997
170886085 0.8881113333333334 -0.21109
172371964 0.8859076666666665 -0.21219233333333332
173857843 0.8838146666666666 -0.21427599999999997
175343722 0.8811579999999999 -0.21520766666666663
176829601 0.8778193333333333 -0.21625033333333332
178315480 0.8746993333333333 -0.21843233333333334
179801359 0.8678373333333333 -0.22485533333333332
181287238 0.872992 -0.22250999999999999
182773117 0.8754326666666667 -0.22499466666666668
184258996 0.8782973333333334 -0.22695533333333331
185744875 0.8801796666666666 -0.22887766666666667
187230754 0.8825106666666667 -0.23060599999999998
188716633 0.883286 -0.23230633333333334
190202512 0.8842233333333334 -0.23414266666666667
191688391 0.885334 -0.235966
193174270 0.8854883333333332 -0.23831666666666665
194660149 0.8855216666666667 -0.23936866666666667
196146028 0.8848793333333332 -0.2407706666666667
197631907 0.8842793333333333 -0.24193966666666666
199117786 0.8824569999999998 -0.24320566666666668
200603665 0.8805756666666666 -0.24414499999999997
202089544 0.8787349999999999 -0.245274
203575423 0.87608 -0.24713
205061302 0.8729996666666666 -0.24883833333333333
206547181 0.8693053333333333 -0.25024899999999994
208033060 0.8661466666666666 -0.25165766666666667
209518939 0.8616599999999999 -0.253442
211004818 0.862316 -0.25571699999999997
212490697 0.8657663333333333 -0.25824699999999995
213976576 0.8680683333333332 -0.26006866666666667
215462455 0.8709576666666666 -0.262724
216948334 0.8721686666666667 -0.26487333333333335
218434213 0.8732966666666666 -0.26698866666666665
219920092 0.8752283333333333 -0.26911766666666664
221405971 0.8757906666666666 -0.27070833333333333
222891850 0.8762406666666666 -0.272216
224377729 0.8750920000000001 -0.27304700000000004
225863608 0.875886 -0.27470833333333333
227349487 0.87418 -0.275586
228835366 0.8726306666666666 -0.2784876666666667
230321245 0.8711766666666666 -0.27904666666666667
231807124 0.8676899999999999 -0.28079733333333334
233293003 0.8687986666666667 -0.2762163333333333
234778882 0.8624563333333333 -0.28257
236264761 0.8585416666666666 -0.2842483333333333
237750640 0.854266 -0.28549066666666667
239236519 0.8500966666666666 -0.2875083333333333
240722398 0.8493186666666667 -0.2895753333333333
242208277 0.8529226666666667 -0.2926053333333333
243694156 0.8556666666666667 -0.29500233333333337
245180035 0.8584416666666665 -0.29769599999999996
246665914 0.8602970000000001 -0.2998733333333333
248151793 0.8619763333333332 -0.302651
249637672 0.86318 -0.304483
251123551 0.8613836666666668 -0.31042533333333333
252609430 0.8641956666666666 -0.30757066666666666
254095309 0.8645496666666667 -0.30872166666666667
255581188 0.8638756666666666 -0.3101723333333333
257067067 0.8618723333333334 -0.31305733333333335
258552946 0.8608936666666667 -0.313492
260038825 0.8593323333333334 -0.3143176666666666
261524704 0.8567583333333333 -0.31551366666666664
263010583 0.8541296666666667 -0.3162893333333333
264496462 0.8512580000000001 -0.3172063333333333
265982341 0.8477573333333333 -0.31843533333333335
267468220 0.8427349999999999 -0.31950066666666666
268954099 0.8381293333333334 -0.32061633333333334
270439978 0.8351799999999999 -0.322299
271925857 0.8389336666666667 -0.3251803333333333
273411736 0.8419793333333333 -0.32940766666666665
274897615 0.8451963333333332 -0.331237
276383494 0.846317 -0.334364
277869373 0.848277 -0.3370473333333333
279355252 0.8502056666666666 -0.338171
280841131 0.8507979999999999 -0.34015266666666666
282327010 0.8514383333333333 -0.34117966666666666
283812889 0.8512126666666666 -0.343186
285298768 0.8510039999999999 -0.34460566666666664
286784647 0.8497490000000001 -0.34621199999999996
288270526 0.8478693333333333 -0.34759666666666666
289756405 0.8458826666666666 -0.347533
291242284 0.8434626666666666 -0.348342
292728163 0.8407676666666666 -0.3487786666666666
294214042 0.8376606666666666 -0.3498549999999999
295699921 0.8339703333333333 -0.3506563333333333
297185800 0.829663 -0.350728
298671679 0.8246276666666665 -0.35217600000000004
300157558 0.8206603333333333 -0.353138
301643437 0.8242123333333332 -0.3554406666666666
303129316 0.8269626666666665 -0.359757
304615195 0.8291206666666666 -0.3629536666666667
306101074 0.8312976666666666 -0.36581633333333335
307586953 0.8323593333333333 -0.36820866666666663
309072832 0.8339209999999999 -0.3700713333333333
310558711 0.8349799999999999 -0.37224066666666666
312044590 0.8345206666666665 -0.37447299999999994
313530469 0.8357383333333332 -0.37647566666666665
315016348 0.8349573333333332 -0.37699400000000005
316502227 0.833761 -0.37924066666666667
317988106 0.878533 -0.383681
319473985 0.830189 -0.37924566666666665
320959864 0.8284373333333332 -0.3792606666666667
322445743 0.8257163333333333 -0.38083500000000003
323931622 0.8219399999999999 -0.3819
325417501 0.8185583333333334 -0.3806053333333333
326903380 0.8146126666666667 -0.381359
328389259 0.810565 -0.38167033333333333
329875138 0.8050803333333333 -0.38243666666666665
331361017 0.8066943333333333 -0.38649266666666665
332846896 0.809393 -0.38997966666666667
334332775 0.8110583333333332 -0.39342599999999994
335818654 0.8120183333333333 -0.39597899999999997
337304533 0.8146126666666667 -0.4004106666666667
338790412 0.8158443333333333 -0.401458
340276291 0.8157826666666665 -0.4043903333333333
341762170 0.8163156666666667 -0.40680499999999997
343248049 0.8168826666666666 -0.40908700000000003
344733928 0.816436 -0.4096863333333334
346219807 0.8160103333333333 -0.41052866666666665
347705686 0.8135576666666666 -0.41198266666666666
349191565 0.8119623333333333 -0.412726
350677444 0.8096746666666667 -0.41304333333333326
352163323 0.8079746666666666 -0.4148343333333333
353649202 0.8046876666666667 -0.4148463333333333
355135081 0.8005873333333333 -0.41405000000000003
356620960 0.7969203333333332 -0.4143916666666666
358106839 0.792331 -0.41442199999999996
359592718 0.7868963333333332 -0.4143303333333333
361078597 0.7869616666666667 -0.4174343333333333
362564476 0.7898290000000001 -0.4221443333333333
364050355 0.7920176666666667 -0.42541199999999996
365536234 0.7937063333333333 -0.4283123333333333
367022113 0.7954906666666666 -0.43131966666666666
368507992 0.7965733333333334 -0.4328863333333333
369993871 0.7975706666666667 -0.4357873333333333
371479750 0.7974546666666666 -0.4370463333333333
372965629 0.7983849999999999 -0.43904699999999997
374451508 0.7973629999999999 -0.4396933333333333
375937387 0.796954 -0.4409153333333333
377423266 0.7954643333333333 -0.44158533333333333
378909145 0.7943309999999999 -0.44183
380395024 0.7921990000000001 -0.4426656666666666
381880903 0.7900229999999999 -0.44208566666666665
383366782 0.788071 -0.4428733333333333
384852661 0.7835943333333333 -0.4415243333333333
386338540 0.7804583333333333 -0.44214266666666663
387824419 0.776995 -0.4410833333333333
389310298 0.772369 -0.4400523333333333
390796177 0.7706879999999999 -0.44229033333333334
392282056 0.7724436666666668 -0.44620799999999994
393767935 0.7746073333333332 -0.449498
395253814 0.775438 -0.4530596666666667
396739693 0.7762083333333334 -0.4554616666666667
398225572 0.7775443333333334 -0.45860599999999996
399711451 0.7773993333333333 -0.4608463333333333
401197330 0.7782296666666666 -0.4627116666666667
402683209 0.7781006666666667 -0.46475133333333335
404169088 0.7778663333333333 -0.46578733333333333
405654967 0.7760376666666666 -0.46790200000000004
407140846 0.775486 -0.46833933333333333
408626725 0.7731886666666666 -0.4695459999999999
410112604 0.7720859999999999 -0.46959433333333334
411598483 0.7696613333333333 -0.469654
413084362 0.7665553333333333 -0.4707596666666667
414570241 0.7638306666666665 -0.47078933333333334
416056120 0.7606326666666666 -0.46979966666666667
417541999 0.7567286666666666 -0.4688566666666666
419027878 0.7524403333333334 -0.4691346666666667
420513757 0.749967 -0.4702173333333333
421999636 0.7512633333333334 -0.4732733333333333
423485515 0.753195 -0.4777003333333333
424971394 0.7550376666666666 -0.4803286666666666
426457273 0.7552086666666666 -0.4829366666666666
427943152 0.7565559999999999 -0.485294
429429031 0.7561549999999999 -0.48914799999999997
430914910 0.7565200000000001 -0.48988699999999996
432400789 0.7565350000000001 -0.49158666666666667
433886668 0.7563230000000001 -0.49237166666666665
435372547 0.7561626666666666 -0.4944286666666667
436858426 0.7546146666666665 -0.4953526666666666
438344305 0.7534640000000001 -0.49658633333333324
439830184 0.7516769999999999 -0.4964223333333333
441316063 0.7494613333333333 -0.4961873333333333
442801942 0.7462606666666667 -0.49573866666666666
444287821 0.7436273333333332 -0.49663999999999997
445773700 0.7407033333333333 -0.4969843333333333
447259579 0.7371019999999998 -0.497253
448745458 0.7330003333333333 -0.49547966666666665
450231337 0.7280653333333333 -0.495081
451717216 0.7319383333333334 -0.4989026666666666
453203095 0.7334333333333333 -0.5016913333333333
454688974 0.734393 -0.5055763333333334
456174853 0.7341926666666666 -0.509398
457660732 0.7357386666666665 -0.511497
459146611 0.736046 -0.5145763333333333
460632490 0.7367416666666666 -0.5155346666666666
462118369 0.735466 -0.5169739999999999
463604248 0.7351856666666667 -0.519596
465090127 0.7348443333333333 -0.5199736666666667
466576006 0.7346716666666666 -0.5199893333333333
468061885 0.7329289999999999 -0.521873
469547764 0.7270606666666667 -0.5257383333333332
471033643 0.728436 -0.5223436666666667
472519522 0.7265523333333334 -0.5223173333333333
474005401 0.7236119999999999 -0.522275
475491280 0.7206009999999999 -0.5211633333333333
476977159 0.7167256666666667 -0.521883
478463038 0.712828 -0.5210763333333333
479948917 0.708885 -0.520265
481434796 0.7102186666666667 -0.523519
482920675 0.7121196666666667 -0.5271053333333333
484406554 0.7133759999999999 -0.5300116666666665
485892433 0.7142473333333333 -0.5332183333333332
487378312 0.7147123333333332 -0.5363306666666666
488864191 0.7156263333333333 -0.5372996666666665
490350070 0.7152653333333332 -0.5395636666666667
491835949 0.7163166666666667 -0.5410096666666666
493321828 0.7157626666666665 -0.5419433333333332
494807707 0.7150753333333333 -0.5432859999999999
496293586 0.7134926666666666 -0.5445236666666666
497779465 0.7126416666666666 -0.546186
499265344 0.710763 -0.5452633333333332
500751223 0.7086123333333332 -0.5461183333333333
502237102 0.7059669999999999 -0.5468036666666666
503722981 0.704269 -0.5453196666666666
505208860 0.7004766666666666 -0.54561
506694739 0.6967873333333332 -0.544532
508180618 0.693307 -0.5438326666666666
509666497 0.6885663333333333 -0.5440883333333333
511152376 0.6891449999999999 -0.546073
512638255 0.6904790000000001 -0.5496973333333333
514124134 0.6917519999999999 -0.553553
515610013 0.6929793333333333 -0.5559146666666666
517095892 0.6939563333333334 -0.5586886666666666
518581771 0.695443 -0.5606783333333334
520067650 0.6941353333333333 -0.5630933333333333
521553529 0.6959153333333333 -0.5634056666666667
523039408 0.6816739999999999 -0.5761916666666667
524525287 0.6936183333333333 -0.5662253333333332
526011166 0.6935246666666666 -0.5669733333333333
527497045 0.678032 -0.5746393333333333
528982924 0.6906543333333333 -0.5680540000000001
530468803 0.6886203333333333 -0.568253
531954682 0.687095 -0.5672223333333333
533440561 0.6839953333333333 -0.567861
534926440 0.680024 -0.5661183333333333
536412319 0.6758503333333332 -0.5667043333333333
537898198 0.6733659999999999 -0.565401
539384077 0.6683939999999999 -0.56457
540869956 0.66692 -0.567091
542355835 0.6674149999999999 -0.5712623333333333
543841714 0.6693749999999998 -0.5751793333333334
545327593 0.6710013333333333 -0.5789169999999999
546813472 0.670609 -0.5827993333333332
548299351 0.670394 -0.5856383333333333
549785230 0.6707719999999999 -0.5896903333333333
551271109 0.6700633333333333 -0.5920456666666666
552756988 0.670655 -0.5932679999999999
554242867 0.6704383333333332 -0.5956076666666666
555728746 0.668995 -0.5971746666666666
557214625 0.6674083333333334 -0.5991983333333333
558700504 0.6643416666666666 -0.6004689999999999
560186383 0.6637323333333333 -0.6011293333333333
561672262 0.6609773333333333 -0.6021493333333333
563158141 0.6623870000000001 -0.5987886666666667
564644020 0.6519413333333333 -0.605618
566129899 0.6558963333333333 -0.5982913333333333
567615778 0.6439969999999999 -0.6051306666666667
569101657 0.648802 -0.5978006666666666
570587536 0.6386646666666667 -0.6063149999999999
572073415 0.6471896666666667 -0.602916
573559294 0.64069 -0.6117263333333333
575045173 0.649708 -0.607386
576531052 0.6430466666666665 -0.6162699999999999
578016931 0.651099 -0.6107873333333333
579502810 0.6442906666666667 -0.6184786666666666
580988689 0.6524629999999999 -0.6139283333333332
582474568 0.6434690000000001 -0.621159
583960447 0.6510776666666667 -0.6131666666666666
585446326 0.6412626666666666 -0.6197243333333333
586932205 0.6489516666666666 -0.613694
588418084 0.6391776666666666 -0.6192686666666667
589903963 0.6456439999999999 -0.6109013333333333
591389842 0.6348159999999999 -0.6171256666666667
592875721 0.6392729999999999 -0.6092133333333332
594361600 0.6285726666666667 -0.6131456666666666
595847479 0.632166 -0.604798
597333358 0.6208893333333333 -0.6096889999999999
598819237 0.6237699999999999 -0.6010393333333333
600305116 0.616155 -0.6031426666666666
601790995 0.6176806666666665 -0.607164
603276874 0.6191126666666666 -0.6118256666666666
604762753 0.6210863333333333 -0.6145216666666666
606248632 0.6224729999999999 -0.6185363333333332
607734511 0.6229906666666667 -0.6209199999999999
609220390 0.6235493333333333 -0.624332
610706269 0.6246363333333333 -0.6257706666666667
612192148 0.6251043333333333 -0.627678
613678027 0.624563 -0.6299716666666667
615163906 0.6243843333333333 -0.6301833333333333
616649785 0.660614 -0.638155
618135664 0.6228796666666666 -0.632109
619621543 0.6221856666666665 -0.6308956666666666
621107422 0.6199303333333332 -0.6313506666666666
622593301 0.618887 -0.6300986666666666
624079180 0.6160896666666666 -0.6290373333333333
625565059 0.6134993333333334 -0.6287739999999999
627050938 0.6412833333333332 -0.6624059999999999
628536817 0.6076783333333333 -0.625378
630022696 0.6032109999999999 -0.6231556666666667
631508575 0.6039733333333334 -0.627952
632994454 0.606144 -0.6325836666666667
634480333 0.6059519999999999 -0.6350953333333333
635966212 0.6064849999999999 -0.6387129999999999
637452091 0.6070326666666667 -0.6403573333333332
638937970 0.6053206666666666 -0.6428313333333333
640423849 0.6070916666666666 -0.644948
641909728 0.6060829999999999 -0.6479483333333333
643395607 0.605537 -0.6491386666666666
644881486 0.6045729999999999 -0.6505719999999999
646367365 0.603494 -0.6502903333333333
647853244 0.6026983333333333 -0.6502589999999999
649339123 0.6043616666666666 -0.647373
650825002 0.5987623333333333 -0.6493123333333333
652310881 0.5972333333333333 -0.6484633333333333
