# HZ S RI R 50
10000 0.8241593333333334 -0.17101066666666664
1495879 1.6698620000000002 1.1390386666666665
2981758 0.7783646666666667 0.872372
4467637 0.7489503333333333 0.47524333333333335
5953516 0.7545569999999999 0.3136013333333333
7439395 0.7402333333333333 0.2302123333333333
8925274 0.715985 1.5809786666666668
10411153 0.5473306666666666 1.2706443333333333
11897032 0.45274099999999995 1.0581166666666664
13382911 0.39654733333333336 0.9053070000000001
14868790 0.3617846666666667 0.7884013333333334
16354669 0.342787 0.6973873333333334
17840548 0.33221100000000003 0.6239633333333333
19326427 0.328212 0.5651523333333333
20812306 0.3287136666666667 0.5171956666666666
22298185 0.332511 0.4776306666666666
23784064 0.33812766666666666 0.4463703333333333
25269943 0.347039 0.42159066666666667
26755822 0.35241566666666657 0.3989263333333333
28241701 0.360512 0.38267333333333325
29727580 0.3676406666666666 0.36947599999999997
31213459 0.39921166666666663 0.3400053333333333
32699338 0.4357933333333333 0.3061993333333333
34185217 0.47332799999999997 0.27115166666666657
35671096 0.508732 0.23626466666666668
37156975 0.540921 0.20142433333333334
38642854 0.575374 0.16588233333333333
40128733 0.6047786666666666 0.13226
41614612 0.6451273333333333 0.09450499999999998
43100491 0.675983 0.06115833333333333
44586370 0.7111776666666666 0.027071
46072249 0.7422223333333333 -0.003686333333333333
47558128 0.7811283333333333 -0.034463999999999995
49044007 0.8207176666666666 -0.061363666666666664
50529886 0.8631979999999999 -0.08125666666666666
52015765 0.8886346666666667 -0.09547433333333333
53501644 0.9225173333333334 -0.099867
54987523 0.9415786666666667 -0.09835566666666665
56473402 0.9387323333333333 -0.104962
57959281 0.9359023333333332 -0.09377533333333332
59445160 0.916669 -0.066879
60931039 0.9049553333333333 -0.057671
62416918 0.9075553333333333 -0.066131
63902797 0.9091926666666665 -0.07627266666666667
65388676 0.9127256666666668 -0.08388233333333331
66874555 0.9145110000000001 -0.07980499999999999
68360434 0.9065793333333333 -0.15772333333333333
69846313 0.9199493333333333 -0.061068
71332192 0.9216176666666667 -0.057450333333333325
72818071 0.918609 -0.09753533333333333
74303950 0.9198313333333333 -0.09065833333333334
75789829 0.9230879999999999 -0.029096333333333328
77275708 0.9226133333333333 -0.03934033333333334
78761587 0.9218419999999999 -0.03252966666666666
80247466 0.9120679999999999 -0.13954333333333335
81733345 0.9155663333333333 -0.09645033333333333
83219224 0.9123106666666667 -0.10661233333333332
84705103 0.907272 -0.13007433333333332
86190982 0.9126833333333333 -0.017848666666666665
87676861 0.9018093333333332 -0.12345799999999998
89162740 0.9013976666666667 -0.10147999999999999
90648619 0.8978636666666666 -0.11797366666666666
92134498 0.901887 -0.11706233333333334
93620377 0.9078096666666666 -0.08831033333333334
95106256 0.9073876666666667 -0.11344533333333331
96592135 0.9088163333333333 -0.11331733333333333
98078014 0.9125889999999999 -0.10978966666666667
99563893 0.913929 -0.10722633333333333
101049772 0.9140699999999999 -0.11863766666666667
102535651 0.914409 -0.12095333333333332
104021530 0.9148069999999999 -0.122385
105507409 0.9150906666666666 -0.12335066666666666
106993288 0.9136633333333333 -0.12506466666666666
108479167 0.9130543333333333 -0.12541
109965046 0.9118203333333332 -0.12632466666666667
111450925 0.9103796666666666 -0.12815933333333332
112936804 0.9078163333333333 -0.12864699999999998
114422683 0.9048616666666667 -0.12917666666666666
115908562 0.9032736666666665 -0.13066499999999998
117394441 0.8998423333333334 -0.13099633333333333
118880320 0.8965326666666666 -0.13158266666666665
120366199 0.894948 -0.13387933333333332
121852078 0.8976163333333332 -0.13588999999999998
123337957 0.9017623333333333 -0.138563
124823836 0.9044796666666667 -0.139606
126309715 0.9075099999999999 -0.14268266666666668
127795594 0.9092636666666666 -0.14453866666666665
129281473 0.9115943333333334 -0.14584966666666666
130767352 0.9144043333333333 -0.14676499999999998
132253231 0.9153933333333333 -0.14959233333333333
133739110 0.9173613333333333 -0.14920999999999998
135224989 0.9018039999999999 -0.15886899999999998
136710868 0.902067 -0.15996666666666665
138196747 0.9017489999999999 -0.16145333333333334
139682626 0.9012636666666666 -0.161738
141168505 0.8997153333333332 -0.1625083333333333
142654384 0.8987856666666666 -0.163205
144140263 0.8969613333333333 -0.16399066666666665
145626142 0.8946923333333332 -0.1644503333333333
147112021 0.8926293333333333 -0.16512433333333332
148597900 0.889624 -0.16612466666666664
150083779 0.8862043333333333 -0.1664783333333333
151569658 0.8894143333333333 -0.16830033333333333
153055537 0.8919413333333333 -0.171488
154541416 0.8941979999999999 -0.17371833333333334
156027295 0.8961383333333333 -0.17533833333333332
157513174 0.898402 -0.17764133333333332
158999053 0.8995123333333332 -0.17903633333333335
160484932 0.9003006666666666 -0.1806823333333333
161970811 0.9006620000000001 -0.182624
163456690 0.9012169999999999 -0.1843533333333333
164942569 0.9007453333333333 -0.18569433333333332
166428448 0.9003876666666667 -0.1867623333333333
167914327 0.899206 -0.1875663333333333
169400206 0.8980099999999999 -0.18920466666666663
170886085 0.8988816666666667 -0.18516766666666665
172371964 0.894441 -0.19179033333333334
173857843 0.892258 -0.19267266666666666
175343722 0.8891836666666666 -0.19446133333333332
176829601 0.8868596666666667 -0.19527699999999998
178315480 0.8835606666666667 -0.19711299999999998
179801359 0.8789126666666667 -0.19874766666666666
181287238 0.880991 -0.20112466666666665
182773117 0.884235 -0.20281533333333335
184258996 0.886849 -0.2051063333333333
185744875 0.8892 -0.20670533333333332
187230754 0.8907406666666666 -0.20845799999999998
188716633 0.8928976666666666 -0.21073666666666663
190202512 0.8933249999999999 -0.21166666666666667
191688391 0.8939306666666665 -0.213549
193174270 0.8948586666666667 -0.214596
194660149 0.8940196666666667 -0.21600133333333332
196146028 0.8937756666666666 -0.21682700000000002
197631907 0.8936356666666666 -0.21848566666666663
199117786 0.891549 -0.21945399999999998
200603665 0.8899983333333333 -0.22042366666666663
202089544 0.8857046666666666 -0.23318933333333336
203575423 0.8860016666666667 -0.22309666666666664
205061302 0.8826183333333333 -0.2249543333333333
206547181 0.8791343333333332 -0.225722
208033060 0.875553 -0.2266333333333333
209518939 0.8712716666666666 -0.22838133333333333
211004818 0.8727973333333333 -0.23035333333333333
212490697 0.8759233333333333 -0.23233099999999998
213976576 0.8781826666666666 -0.23568
215462455 0.8810396666666667 -0.2371353333333333
216948334 0.8831053333333332 -0.23989033333333332
218434213 0.8847073333333333 -0.24138199999999999
219920092 0.8857136666666667 -0.243425
221405971 0.8868436666666666 -0.24330699999999997
222891850 0.8870853333333333 -0.24583299999999997
224377729 0.8865966666666667 -0.247182
225863608 0.8857293333333334 -0.247739
227349487 0.8853566666666667 -0.24944233333333332
228835366 0.883216 -0.25046599999999997
230321245 0.8822236666666666 -0.25146633333333335
231807124 0.8805513333333332 -0.25223833333333334
233293003 0.87679 -0.25459133333333334
234778882 0.8738509999999999 -0.2551406666666667
236264761 0.8705576666666667 -0.257165
237750640 0.8668353333333334 -0.2576213333333333
239236519 0.8620276666666667 -0.2593506666666666
240722398 0.8614996666666667 -0.26230933333333334
242208277 0.8647800000000001 -0.26460599999999995
243694156 0.8682316666666666 -0.26710799999999996
245180035 0.8709013333333333 -0.268908
246665914 0.8728633333333332 -0.2709953333333333
248151793 0.8722279999999999 -0.277952
249637672 0.8759686666666667 -0.27515999999999996
251123551 0.8744293333333333 -0.2822336666666666
252609430 0.877691 -0.278128
254095309 0.874528 -0.2845643333333333
255581188 0.8775046666666666 -0.28078766666666666
257067067 0.87304 -0.2871763333333333
258552946 0.8751736666666666 -0.283748
260038825 0.8707276666666666 -0.2885013333333333
261524704 0.869882 -0.28556999999999994
263010583 0.865829 -0.2905756666666667
264496462 0.8648306666666665 -0.2869033333333333
265982341 0.8589803333333333 -0.2931706666666667
267468220 0.8567183333333334 -0.289248
268954099 0.8498843333333334 -0.2945413333333333
270439978 0.8503173333333334 -0.29206833333333326
271925857 0.8515759999999999 -0.29889066666666664
273411736 0.856973 -0.297885
274897615 0.8570846666666667 -0.30505199999999993
276383494 0.8615813333333333 -0.3035636666666667
277869373 0.8605993333333333 -0.30844066666666664
279355252 0.8651016666666665 -0.306606
280841131 0.8637463333333333 -0.3135536666666666
282327010 0.8671029999999998 -0.309124
283812889 0.864519 -0.31509466666666663
285298768 0.866526 -0.31264699999999995
286784647 0.863683 -0.3174883333333333
288270526 0.8643476666666665 -0.31392866666666663
289756405 0.8596043333333334 -0.3197093333333333
291242284 0.85992 -0.3154376666666667
292728163 0.8570666666666666 -0.31655666666666665
294214042 0.8536590000000001 -0.3171293333333333
295699921 0.8511013333333333 -0.3164933333333333
297185800 0.8462846666666667 -0.3177823333333333
298671679 0.8415886666666667 -0.31836333333333333
300157558 0.8368849999999999 -0.31969633333333336
301643437 0.839866 -0.32288133333333335
303129316 0.8431436666666665 -0.3263196666666667
304615195 0.8457573333333334 -0.33003399999999994
306101074 0.8475116666666667 -0.33214599999999994
307586953 0.8499270000000001 -0.33413733333333334
309072832 0.8516076666666665 -0.3369513333333334
310558711 0.851793 -0.3389146666666667
312044590 0.8543390000000001 -0.3396763333333333
313530469 0.852957 -0.341443
315016348 0.853178 -0.3423346666666667
316502227 0.8528886666666666 -0.3430753333333333
317988106 0.8509646666666667 -0.3428883333333333
319473985 0.8487196666666668 -0.3443946666666666
320959864 0.8468366666666666 -0.3453503333333333
322445743 0.8438893333333333 -0.3452816666666667
323931622 0.840784 -0.3455216666666666
325417501 0.8372733333333333 -0.3453523333333333
326903380 0.832965 -0.34572366666666665
328389259 0.8285896666666666 -0.3461943333333333
329875138 0.8236596666666666 -0.34661966666666666
331361017 0.8259599999999999 -0.3512316666666666
332846896 0.828163 -0.353265
334332775 0.8300806666666666 -0.3571613333333333
335818654 0.8324406666666666 -0.3603693333333333
337304533 0.8336556666666667 -0.36305566666666667
338790412 0.8360893333333334 -0.3649426666666667
340276291 0.836702 -0.368109
341762170 0.837178 -0.3694756666666666
343248049 0.837088 -0.3708826666666667
344733928 0.8369533333333333 -0.3722243333333333
346219807 0.8362263333333333 -0.3742283333333334
347705686 0.8339339999999998 -0.3747583333333333
349191565 0.8335813333333333 -0.375084
350677444 0.827936 -0.379895
352163323 0.8281453333333333 -0.37700066666666665
353649202 0.8256743333333333 -0.376355
355135081 0.8215326666666665 -0.37514499999999995
356620960 0.8174889999999999 -0.37757833333333324
358106839 0.8145476666666666 -0.37679833333333335
359592718 0.808122 -0.3776633333333333
361078597 0.8098306666666666 -0.38055400000000006
362564476 0.8124853333333333 -0.3825603333333333
364050355 0.814406 -0.38691600000000004
365536234 0.817319 -0.3899776666666666
367022113 0.8178013333333333 -0.3926773333333333
368507992 0.8089836666666665 -0.40518733333333334
369993871 0.8207806666666666 -0.39625
371479750 0.8216193333333333 -0.39731866666666665
372965629 0.821611 -0.39952299999999996
374451508 0.8209623333333332 -0.40004766666666663
375937387 0.8202086666666666 -0.40149599999999996
377423266 0.8194143333333332 -0.4019866666666666
378909145 0.8639510000000001 -0.407478
380395024 0.817291 -0.40266466666666656
381880903 0.8144800000000001 -0.40232
383366782 0.8117029999999998 -0.40300566666666665
384852661 0.807326 -0.40285
386338540 0.8044653333333331 -0.40182166666666663
387824419 0.800654 -0.4014123333333333
389310298 0.7961736666666666 -0.40134499999999995
390796177 0.7951256666666666 -0.4030543333333333
392282056 0.7972156666666665 -0.40668266666666664
393767935 0.799115 -0.4098653333333333
395253814 0.8006549999999999 -0.4130893333333333
396739693 0.8014963333333333 -0.416548
398225572 0.80295 -0.4184326666666667
399711451 0.8043496666666666 -0.41998366666666664
401197330 0.803222 -0.4222486666666666
402683209 0.803759 -0.42408766666666664
404169088 0.8033763333333332 -0.425346
405654967 0.802956 -0.4259846666666667
407140846 0.8023629999999999 -0.42719266666666666
408626725 0.8006616666666666 -0.42764199999999997
410112604 0.7987033333333333 -0.42822499999999997
411598483 0.797051 -0.42741566666666664
413084362 0.7937376666666667 -0.4287876666666667
414570241 0.7909163333333332 -0.429106
416056120 0.7877456666666666 -0.427756
417541999 0.784036 -0.4280426666666666
419027878 0.7789456666666666 -0.4274866666666666
420513757 0.7778453333333332 -0.42868466666666666
421999636 0.7794973333333333 -0.43164533333333327
423485515 0.7815513333333333 -0.435867
424971394 0.7834263333333333 -0.43801566666666664
426457273 0.7833026666666667 -0.4418026666666666
427943152 0.7854846666666666 -0.4443596666666666
429429031 0.7863436666666666 -0.4451673333333333
430914910 0.7853596666666667 -0.44767466666666667
432400789 0.7864389999999999 -0.4497793333333333
433886668 0.7856526666666667 -0.45065999999999995
435372547 0.7844850000000001 -0.4523786666666667
436858426 0.7840563333333332 -0.452872
438344305 0.7833553333333333 -0.45356599999999997
439830184 0.7817696666666666 -0.4539793333333333
441316063 0.779652 -0.45365866666666665
442801942 0.7768933333333333 -0.4533193333333333
444287821 0.7735070000000001 -0.4537766666666666
445773700 0.7711523333333333 -0.453392
447259579 0.7669403333333333 -0.4535146666666666
448745458 0.7636283333333332 -0.45261033333333334
450231337 0.7594876666666668 -0.4532586666666666
451717216 0.7613059999999999 -0.456314
453203095 0.764168 -0.45961133333333326
454688974 0.7652043333333333 -0.46351533333333333
456174853 0.7665043333333333 -0.4651243333333333
457660732 0.7675466666666666 -0.46879633333333326
459146611 0.7681060000000001 -0.4708076666666666
460632490 0.7679533333333333 -0.4722373333333333
462118369 0.7690286666666666 -0.47399100000000005
463604248 0.7677263333333333 -0.47525399999999995
465090127 0.767471 -0.47663466666666665
466576006 0.7674626666666665 -0.47709499999999994
468061885 0.6933769999999999 -0.46572099999999994
469547764 0.7597946666666666 -0.48233599999999993
471033643 0.7611753333333333 -0.4782693333333333
472519522 0.75922 -0.47874633333333333
474005401 0.7562526666666667 -0.4777903333333333
475491280 0.7540156666666666 -0.47740499999999997
476977159 0.7499383333333333 -0.477093
478463038 0.7467739999999999 -0.4773506666666667
479948917 0.7422253333333334 -0.47622733333333334
481434796 0.743214 -0.48041
482920675 0.7460596666666667 -0.4830756666666667
484406554 0.747108 -0.486249
485892433 0.749007 -0.488221
487378312 0.7501203333333333 -0.490591
488864191 0.749784 -0.49284
490350070 0.7515919999999998 -0.4949226666666667
491835949 0.7512663333333333 -0.49599466666666664
493321828 0.7507226666666666 -0.497933
494807707 0.7499356666666666 -0.49956199999999995
496293586 0.7490253333333332 -0.4997906666666667
497779465 0.748399 -0.5001203333333333
499265344 0.7464453333333334 -0.5003223333333333
500751223 0.7440279999999999 -0.5014626666666666
502237102 0.7456703333333332 -0.49639866666666665
503722981 0.7397313333333333 -0.49973066666666666
505208860 0.736284 -0.49993066666666663
506694739 0.7334923333333334 -0.499345
508180618 0.7291323333333334 -0.49970666666666663
509666497 0.724974 -0.4987153333333333
511152376 0.725617 -0.501722
512638255 0.7268923333333334 -0.504797
514124134 0.7286336666666666 -0.5077459999999998
515610013 0.7309233333333333 -0.5108076666666667
517095892 0.7315313333333333 -0.5129029999999999
518581771 0.7315683333333333 -0.5153993333333333
520067650 0.7328383333333333 -0.5174693333333333
521553529 0.7338936666666666 -0.5181263333333334
523039408 0.7334989999999999 -0.5190963333333333
524525287 0.7330346666666667 -0.5202346666666666
526011166 0.7319816666666666 -0.5205403333333333
527497045 0.7312856666666667 -0.5206083333333333
528982924 0.7302896666666665 -0.5213913333333333
530468803 0.7274056666666666 -0.5209623333333333
531954682 0.7260599999999999 -0.520572
533440561 0.7226266666666668 -0.5192246666666667
534926440 0.7195113333333333 -0.5207356666666667
536412319 0.7161609999999998 -0.5199256666666666
537898198 0.7113716666666666 -0.5204873333333333
539384077 0.707483 -0.518608
540869956 0.7075389999999999 -0.520068
542355835 0.7081933333333332 -0.525093
543841714 0.7100213333333333 -0.5290870000000001
545327593 0.7113096666666667 -0.5330813333333333
546813472 0.7110783333333333 -0.5359193333333333
548299351 0.7120553333333334 -0.5399213333333333
549785230 0.7135253333333332 -0.542176
551271109 0.7134063333333334 -0.544148
552756988 0.712447 -0.547234
554242867 0.7125786666666666 -0.5490816666666666
555728746 0.711217 -0.5508593333333334
557214625 0.7103536666666666 -0.552248
558700504 0.7091466666666666 -0.5533416666666666
560186383 0.7080086666666665 -0.5546233333333334
561672262 0.70594 -0.555084
563158141 0.702588 -0.5560253333333333
564644020 0.7000576666666666 -0.555426
566129899 0.6970583333333332 -0.5554546666666665
567615778 0.6922826666666666 -0.5562779999999999
569101657 0.6884636666666666 -0.5555019999999999
570587536 0.6875583333333333 -0.5561493333333333
572073415 0.6882413333333333 -0.5597866666666667
573559294 0.6905723333333333 -0.5614143333333332
575045173 0.6919843333333332 -0.5647896666666666
576531052 0.6919476666666666 -0.5673843333333333
578016931 0.6937173333333333 -0.5669626666666666
579502810 0.6942606666666666 -0.5679886666666667
580988689 0.6949903333333333 -0.5689273333333332
582474568 0.6938353333333334 -0.5704273333333333
583960447 0.6935659999999999 -0.5698610000000001
585446326 0.6926383333333332 -0.569689
586932205 0.6905060000000001 -0.5693153333333332
588418084 0.6881486666666665 -0.5699353333333332
589903963 0.686383 -0.568209
591389842 0.6843079999999999 -0.5663396666666666
592875721 0.6810913333333334 -0.5650036666666667
594361600 0.6769236666666667 -0.5638006666666666
595847479 0.6742679999999999 -0.5614483333333333
597333358 0.669746 -0.5606800000000001
598819237 0.6642523333333332 -0.557661
600305116 0.6601299999999999 -0.5579346666666667
601790995 0.6632210000000001 -0.5623606666666667
603276874 0.6648936666666666 -0.565743
604762753 0.6657513333333333 -0.5698956666666666
606248632 0.6680226666666667 -0.5732323333333333
607734511 0.6694413333333333 -0.5751906666666666
609220390 0.6707603333333332 -0.5776733333333333
610706269 0.6717183333333333 -0.5791336666666667
612192148 0.6726743333333334 -0.5807613333333332
613678027 0.6726173333333333 -0.5824626666666666
615163906 0.6710879999999999 -0.583726
616649785 0.6716789999999999 -0.58434
618135664 0.6715286666666667 -0.5837033333333334
619621543 0.6705826666666665 -0.5847229999999999
621107422 0.6694766666666665 -0.5835093333333332
622593301 0.6652416666666666 -0.5832896666666666
624079180 0.6639459999999999 -0.581996
625565059 0.6617913333333334 -0.5810353333333333
627050938 0.6584699999999999 -0.580329
628536817 0.6558449999999999 -0.577726
630022696 0.6507176666666666 -0.5760646666666667
631508575 0.652635 -0.5815853333333333
632994454 0.6535016666666666 -0.5834113333333333
634480333 0.65501 -0.5868846666666667
635966212 0.6562919999999999 -0.5903609999999999
637452091 0.6568263333333333 -0.5938289999999999
638937970 0.6568459999999999 -0.5972993333333333
640423849 0.6586086666666665 -0.5983109999999999
641909728 0.6568826666666667 -0.6001056666666666
643395607 0.6566246666666666 -0.601472
644881486 0.6555593333333333 -0.6015033333333333
646367365 0.6547086666666666 -0.6020823333333333
647853244 0.6532853333333333 -0.6031846666666666
649339123 0.6522853333333334 -0.6032423333333332
650825002 0.6509510000000001 -0.6032359999999999
652310881 0.6476763333333333 -0.6028896666666667
