# HZ S RI R 50
10000 0.733738 -0.151956
1495879 1.3146636666666665 1.6396479999999998
2981758 0.7783183333333332 0.8724006666666666
4467637 0.7496353333333332 0.474434
5953516 0.7550526666666666 0.31352266666666667
7439395 0.7405433333333332 0.22941866666666666
8925274 0.7139099999999999 1.583656
10411153 0.5458436666666666 1.2710133333333333
11897032 0.45063666666666663 1.0600036666666668
13382911 0.39460999999999996 0.9061876666666666
14868790 0.36099366666666666 0.7896056666666667
16354669 0.3407213333333333 0.6976333333333333
17840548 0.33100999999999997 0.6244763333333332
19326427 0.32676 0.5657976666666666
20812306 0.327522 0.5174353333333334
22298185 0.33092299999999997 0.4783413333333333
23784064 0.3366976666666666 0.4464123333333333
25269943 0.3437016666666666 0.420574
26755822 0.3581526666666666 0.39727599999999996
28241701 0.3584773333333333 0.382717
29727580 0.365938 0.36958
31213459 0.39753299999999997 0.3405533333333333
32699338 0.4343626666666667 0.30670866666666663
34185217 0.47195600000000004 0.2720083333333333
35671096 0.5065426666666666 0.23686566666666667
37156975 0.5393073333333334 0.20242833333333335
38642854 0.5740949999999999 0.16681133333333334
40128733 0.6032353333333333 0.13381333333333334
41614612 0.6467513333333332 0.093124
43100491 0.674023 0.062351000000000004
44586370 0.7093889999999999 0.028079999999999997
46072249 0.7404086666666665 -0.002539333333333333
47558128 0.7788416666666667 -0.03349833333333333
49044007 0.8178976666666667 -0.06027866666666666
50529886 0.860684 -0.08057766666666667
52015765 0.8857243333333332 -0.09575966666666666
53501644 0.9192013333333333 -0.10066033333333332
54987523 0.9373413333333334 -0.10042666666666666
56473402 0.9348933333333334 -0.10901133333333332
57959281 0.9331073333333333 -0.09912366666666667
59445160 0.9151603333333332 -0.07455333333333333
60931039 0.9038296666666665 -0.06551466666666667
62416918 0.9065943333333333 -0.073373
63902797 0.9090893333333332 -0.08276166666666666
65388676 0.910938 -0.09206499999999998
66874555 0.9137203333333332 -0.089313
68360434 0.9044829999999999 -0.165769
69846313 0.918512 -0.07040933333333332
71332192 0.9192566666666666 -0.06583866666666666
72818071 0.916845 -0.10636966666666667
74303950 0.9181126666666666 -0.09937966666666666
75789829 0.921851 -0.038524
77275708 0.9212940000000001 -0.04804599999999999
78761587 0.921163 -0.043463
80247466 0.9091186666666666 -0.14927
81733345 0.9143063333333333 -0.10643933333333333
83219224 0.9108883333333333 -0.11641266666666666
84705103 0.9047236666666666 -0.14006666666666664
86190982 0.9121589999999999 -0.028461666666666666
87676861 0.8994966666666666 -0.13432833333333333
89162740 0.8989739999999999 -0.11258333333333333
90648619 0.8964773333333333 -0.12884433333333334
92134498 0.8991493333333334 -0.12861366666666665
93620377 0.9059059999999999 -0.09987299999999999
95106256 0.9048466666666668 -0.12465466666666665
96592135 0.9077163333333332 -0.124612
98078014 0.9098223333333333 -0.12198733333333334
99563893 0.9121716666666666 -0.11947466666666665
101049772 0.9129873333333334 -0.13188499999999997
102535651 0.9123993333333333 -0.133659
104021530 0.9124816666666666 -0.1347573333333333
105507409 0.912188 -0.13663466666666668
106993288 0.9117906666666666 -0.13815033333333332
108479167 0.9113793333333332 -0.13970033333333332
109965046 0.9093296666666666 -0.14055399999999998
111450925 0.907949 -0.141369
112936804 0.9051026666666666 -0.1428263333333333
114422683 0.9026869999999999 -0.1439433333333333
115908562 0.8993956666666666 -0.14447633333333332
117394441 0.8966619999999998 -0.14499733333333334
118880320 0.8934886666666666 -0.14579333333333333
120366199 0.8911473333333333 -0.14896466666666663
121852078 0.895139 -0.151333
123337957 0.898062 -0.154019
124823836 0.9008879999999999 -0.1549893333333333
126309715 0.9039599999999999 -0.15805166666666665
127795594 0.90657 -0.16048999999999997
129281473 0.9085286666666665 -0.1614463333333333
130767352 0.9101619999999999 -0.16321766666666665
132253231 0.9119446666666666 -0.165535
133739110 0.913245 -0.16659533333333332
135224989 0.8984086666666666 -0.175512
136710868 0.8988250000000001 -0.176619
138196747 0.8981933333333332 -0.177913
139682626 0.8971733333333334 -0.17885299999999998
141168505 0.895786 -0.17960266666666663
142654384 0.894458 -0.180565
144140263 0.8934916666666666 -0.18123199999999998
145626142 0.890605 -0.1821533333333333
147112021 0.8891503333333333 -0.18291833333333332
148597900 0.8854113333333333 -0.183664
150083779 0.8821136666666667 -0.184441
151569658 0.8855933333333332 -0.18773566666666666
153055537 0.8876736666666665 -0.19017399999999998
154541416 0.8899633333333333 -0.19223933333333335
156027295 0.8918046666666666 -0.19417633333333334
157513174 0.893163 -0.19691466666666668
158999053 0.8944043333333334 -0.19756266666666666
160484932 0.8951439999999999 -0.20046766666666663
161970811 0.8958236666666666 -0.20239533333333332
163456690 0.8961546666666667 -0.20430700000000002
164942569 0.8958063333333334 -0.20518966666666666
166428448 0.8960619999999999 -0.207206
167914327 0.8946253333333334 -0.20794566666666664
169400206 0.893148 -0.209613
170886085 0.8916496666666666 -0.2111323333333333
172371964 0.8887246666666666 -0.21324766666666664
173857843 0.908075 -0.19336366666666663
175343722 0.8843573333333332 -0.21534866666666666
176829601 0.881419 -0.21649399999999996
178315480 0.8829103333333332 -0.207814
179801359 0.8790576666666665 -0.20887266666666662
181287238 0.8762793333333333 -0.21618266666666666
182773117 0.8838726666666666 -0.21425166666666665
184258996 0.8865196666666666 -0.21683666666666668
185744875 0.8836823333333333 -0.22268633333333332
187230754 0.8901049999999999 -0.22113799999999997
188716633 0.899701 -0.21389333333333332
190202512 0.8970276666666666 -0.21990866666666667
191688391 0.9024163333333333 -0.2171163333333333
193174270 0.8982276666666666 -0.22310299999999997
194660149 0.8936599999999999 -0.22882833333333333
196146028 0.8886266666666667 -0.23507566666666668
197631907 0.8922839999999999 -0.23205366666666666
199117786 0.8949933333333333 -0.228652
200603665 0.893356 -0.23060199999999997
202089544 0.8873763333333333 -0.23587066666666662
203575423 0.8792306666666666 -0.24738266666666667
205061302 0.8759406666666667 -0.2485183333333333
206547181 0.8732816666666667 -0.25001799999999996
208033060 0.8690556666666667 -0.2512953333333333
209518939 0.8645186666666667 -0.2531063333333333
211004818 0.8656883333333332 -0.2557503333333333
212490697 0.8692196666666666 -0.2581753333333333
213976576 0.8711813333333334 -0.2604753333333333
215462455 0.8735306666666666 -0.26397499999999996
216948334 0.8762439999999999 -0.2651866666666667
218434213 0.8768086666666666 -0.2676753333333333
219920092 0.87859 -0.26994433333333334
221405971 0.8787696666666666 -0.270889
222891850 0.8790923333333334 -0.27270666666666665
224377729 0.8785806666666667 -0.2740366666666667
225863608 0.8788523333333332 -0.2749683333333333
227349487 0.876601 -0.2759043333333333
228835366 0.8756176666666666 -0.27866766666666665
230321245 0.8849946666666666 -0.25993066666666664
231807124 0.8716523333333333 -0.280641
233293003 0.8690549999999999 -0.282652
234778882 0.8654433333333333 -0.28367533333333333
236264761 0.8620983333333334 -0.2853009999999999
237750640 0.8575666666666667 -0.2862336666666666
239236519 0.8531406666666665 -0.28811666666666663
240722398 0.85225 -0.2900566666666667
242208277 0.8557206666666667 -0.2929386666666667
243694156 0.8587046666666667 -0.29562599999999994
245180035 0.860932 -0.29885066666666665
246665914 0.8635093333333332 -0.3010723333333333
248151793 0.8650293333333332 -0.3033323333333333
249637672 0.8662243333333334 -0.30472333333333335
251123551 0.8675656666666667 -0.30706066666666665
252609430 0.8676543333333333 -0.30866166666666667
254095309 0.867389 -0.30998899999999996
255581188 0.8670683333333333 -0.3110966666666667
257067067 0.8656573333333333 -0.3128763333333333
258552946 0.8643906666666666 -0.31365
260038825 0.8627516666666667 -0.31499
261524704 0.8596900000000001 -0.3159923333333333
263010583 0.857275 -0.31754566666666667
264496462 0.8538663333333334 -0.317673
265982341 0.8494596666666667 -0.31885066666666667
267468220 0.8456093333333332 -0.3200943333333333
268954099 0.8409283333333333 -0.321605
270439978 0.8393516666666666 -0.32309866666666665
271925857 0.8420403333333333 -0.326201
273411736 0.8449006666666667 -0.33021766666666663
274897615 0.8471756666666668 -0.3329563333333333
276383494 0.8494626666666665 -0.335356
277869373 0.8514849999999999 -0.33827266666666667
279355252 0.853281 -0.3391766666666667
280841131 0.8536713333333333 -0.3420323333333333
282327010 0.8540823333333334 -0.3434703333333333
283812889 0.8550566666666667 -0.34464066666666665
285298768 0.8539386666666666 -0.34602199999999994
286784647 0.8524016666666665 -0.34678966666666666
288270526 0.8516326666666667 -0.3478463333333333
289756405 0.8495163333333333 -0.348387
291242284 0.8462863333333333 -0.3505573333333333
292728163 0.8439376666666667 -0.3503333333333333
294214042 0.8429566666666666 -0.345697
295699921 0.8365556666666666 -0.35231733333333337
297185800 0.8319859999999999 -0.3519186666666667
298671679 0.827956 -0.3529326666666666
300157558 0.8241266666666666 -0.35290999999999995
301643437 0.8265936666666667 -0.358253
303129316 0.8301163333333333 -0.36072299999999996
304615195 0.8317033333333332 -0.3640553333333333
306101074 0.8341113333333332 -0.3667463333333333
307586953 0.8360306666666666 -0.3697586666666666
309072832 0.8370186666666666 -0.3726286666666666
310558711 0.837284 -0.37410066666666664
312044590 0.8386733333333334 -0.37494866666666665
313530469 0.8381383333333332 -0.37718366666666664
315016348 0.8375913333333334 -0.37867133333333325
316502227 0.837113 -0.37944399999999995
317988106 0.8360916666666667 -0.379768
319473985 0.8333736666666667 -0.38085899999999995
320959864 0.8325693333333333 -0.38038399999999994
322445743 0.8291529999999999 -0.3817973333333333
323931622 0.8262313333333333 -0.3827623333333333
325417501 0.8219793333333333 -0.382729
326903380 0.8175096666666667 -0.38337
328389259 0.8124823333333332 -0.38306266666666666
329875138 0.8082826666666666 -0.38314499999999996
331361017 0.809526 -0.38654499999999997
332846896 0.8121666666666667 -0.39114366666666667
334332775 0.8140366666666666 -0.39545366666666665
335818654 0.816258 -0.39736399999999994
337304533 0.817145 -0.40057366666666666
338790412 0.8188573333333333 -0.40240366666666666
340276291 0.8200566666666665 -0.40499666666666667
341762170 0.8194269999999999 -0.4071796666666666
343248049 0.8199273333333332 -0.4087586666666666
344733928 0.8184283333333333 -0.4113353333333333
346219807 0.8181036666666667 -0.41229933333333335
347705686 0.8161466666666667 -0.4134343333333333
349191565 0.8155936666666667 -0.414043
350677444 0.8123706666666666 -0.4145063333333333
352163323 0.809788 -0.41534266666666664
353649202 0.807706 -0.41460633333333324
355135081 0.8034103333333333 -0.4159916666666666
356620960 0.7995163333333333 -0.41703
358106839 0.794956 -0.4167023333333333
359592718 0.7907316666666666 -0.41609366666666664
361078597 0.7904433333333333 -0.41883699999999996
362564476 0.7927366666666666 -0.4227993333333333
364050355 0.7947050000000001 -0.42654
365536234 0.7966786666666668 -0.429334
367022113 0.7980946666666666 -0.431598
368507992 0.799654 -0.43480399999999997
369993871 0.80003 -0.436593
371479750 0.8444136666666666 -0.43862766666666664
372965629 0.8008656666666667 -0.439589
374451508 0.8006486666666667 -0.4415426666666667
375937387 0.7996863333333333 -0.442073
377423266 0.7987866666666666 -0.44280299999999995
378909145 0.7976713333333333 -0.44316866666666666
380395024 0.795936 -0.44326266666666664
381880903 0.7932463333333333 -0.4434013333333333
383366782 0.7900649999999999 -0.4436146666666666
384852661 0.7871963333333333 -0.44270866666666664
386338540 0.7838943333333332 -0.44330500000000006
387824419 0.7797443333333334 -0.44253566666666666
389310298 0.7747546666666666 -0.44216599999999995
390796177 0.7735406666666667 -0.443477
392282056 0.776006 -0.44683966666666664
393767935 0.7773543333333333 -0.4511143333333334
395253814 0.7786523333333333 -0.45501400000000003
396739693 0.7793303333333333 -0.45750499999999994
398225572 0.7802043333333334 -0.460175
399711451 0.7809336666666666 -0.46232366666666663
401197330 0.7806573333333333 -0.46420266666666665
402683209 0.7812926666666666 -0.46629966666666667
404169088 0.7802476666666666 -0.46716399999999997
405654967 0.7794456666666667 -0.468686
407140846 0.7783133333333333 -0.46912933333333334
408626725 0.7770776666666667 -0.4708216666666667
410112604 0.7747323333333332 -0.47231200000000007
411598483 0.7719336666666666 -0.4720006666666666
413084362 0.7703116666666667 -0.47124299999999997
414570241 0.766969 -0.4702303333333333
416056120 0.7641353333333332 -0.47045866666666664
417541999 0.7590853333333333 -0.46924433333333326
419027878 0.7555043333333332 -0.47015499999999993
420513757 0.752433 -0.4717
421999636 0.7544176666666665 -0.4750093333333334
423485515 0.7564869999999999 -0.4788826666666666
424971394 0.7567123333333333 -0.482181
426457273 0.758127 -0.48462266666666665
427943152 0.75888 -0.487456
429429031 0.7596096666666666 -0.4898026666666666
430914910 0.7609376666666666 -0.4917803333333333
432400789 0.7601259999999999 -0.4930483333333333
433886668 0.759042 -0.49496133333333336
435372547 0.7584576666666667 -0.49583333333333335
436858426 0.7574573333333334 -0.49674599999999997
438344305 0.7559216666666666 -0.4972236666666666
439830184 0.7551986666666666 -0.49740199999999996
441316063 0.7523246666666666 -0.49806799999999996
442801942 0.7493373333333333 -0.4981196666666666
444287821 0.7468393333333332 -0.499029
445773700 0.7429156666666668 -0.49742566666666665
447259579 0.7397493333333333 -0.497452
448745458 0.7352970000000001 -0.49723433333333333
450231337 0.7333339999999999 -0.49661099999999997
451717216 0.7333353333333333 -0.5016546666666666
453203095 0.735957 -0.504307
454688974 0.7374193333333332 -0.507529
456174853 0.737398 -0.5115393333333333
457660732 0.737943 -0.5137476666666666
459146611 0.7398943333333332 -0.5145253333333333
460632490 0.7396986666666667 -0.5175456666666667
462118369 0.7397326666666666 -0.5186156666666666
463604248 0.739169 -0.5193476666666667
465090127 0.7383756666666665 -0.520572
466576006 0.7374653333333333 -0.522243
468061885 0.7162059999999999 -0.5316136666666665
469547764 0.741488 -0.5152516666666667
471033643 0.7319906666666666 -0.5235693333333333
472519522 0.7294273333333333 -0.5225953333333333
474005401 0.726467 -0.5242626666666667
475491280 0.7236689999999999 -0.5226303333333333
476977159 0.7198473333333333 -0.522621
478463038 0.7149476666666665 -0.5225263333333332
479948917 0.7105756666666667 -0.5215513333333333
481434796 0.7133093333333334 -0.5251293333333333
482920675 0.7148246666666666 -0.5281336666666667
484406554 0.7160486666666666 -0.5311986666666666
485892433 0.7177939999999998 -0.5339783333333333
487378312 0.7181463333333333 -0.5373033333333332
488864191 0.7180813333333332 -0.5394106666666667
490350070 0.71873 -0.5408329999999999
491835949 0.7184376666666666 -0.542661
493321828 0.718529 -0.5434696666666667
494807707 0.7179653333333335 -0.5444716666666666
496293586 0.7170209999999999 -0.545654
497779465 0.7145446666666666 -0.545785
499265344 0.7127543333333333 -0.5475286666666666
500751223 0.7119033333333333 -0.5466063333333332
502237102 0.7087826666666667 -0.5467683333333333
503722981 0.7056956666666667 -0.5467929999999999
505208860 0.7032153333333333 -0.5468603333333333
506694739 0.6996249999999999 -0.5457476666666666
508180618 0.694816 -0.5450446666666667
509666497 0.6906236666666665 -0.5457493333333333
511152376 0.6914243333333332 -0.5479203333333332
512638255 0.6934283333333333 -0.5508826666666666
514124134 0.6946559999999999 -0.5546789999999999
515610013 0.6950033333333332 -0.557525
517095892 0.6965803333333334 -0.5596413333333332
518581771 0.6970383333333332 -0.5633053333333333
520067650 0.6981823333333332 -0.5628143333333333
521553529 0.6977926666666666 -0.5649826666666666
523039408 0.6984586666666666 -0.5663849999999999
524525287 0.697362 -0.566649
526011166 0.6972899999999999 -0.5678576666666666
527497045 0.6947369999999999 -0.5699706666666666
528982924 0.6936796666666665 -0.5684130000000001
530468803 0.6918106666666667 -0.5690379999999999
531954682 0.6901403333333334 -0.5686096666666667
533440561 0.6854976666666667 -0.5682483333333332
534926440 0.6833203333333333 -0.5671913333333333
536412319 0.6790119999999998 -0.5675716666666666
537898198 0.6753779999999999 -0.566995
539384077 0.6706523333333332 -0.5655463333333333
540869956 0.6705349999999999 -0.5661903333333332
542355835 0.6714946666666666 -0.572381
543841714 0.6713423333333333 -0.5758956666666666
545327593 0.672881 -0.5799206666666666
546813472 0.6728426666666666 -0.5843423333333333
548299351 0.6726013333333333 -0.5883146666666665
549785230 0.6739403333333334 -0.5896136666666667
551271109 0.6729443333333333 -0.592625
552756988 0.6727173333333334 -0.5951373333333333
554242867 0.6719563333333333 -0.5975746666666666
555728746 0.671068 -0.5991333333333333
557214625 0.6697706666666666 -0.5997313333333333
558700504 0.6679179999999999 -0.6009933333333334
560186383 0.665229 -0.6020616666666667
561672262 0.6631119999999999 -0.6027533333333333
563158141 0.661024 -0.602768
564644020 0.6579736666666667 -0.6029463333333334
566129899 0.6544656666666666 -0.6033476666666666
567615778 0.6507966666666667 -0.6019439999999998
569101657 0.6470849999999999 -0.6021066666666667
570587536 0.6456569999999999 -0.6034213333333334
572073415 0.6465376666666667 -0.6061433333333333
573559294 0.649165 -0.6085203333333333
575045173 0.649478 -0.6114326666666666
576531052 0.6497533333333334 -0.6143516666666666
578016931 0.6508983333333334 -0.616263
579502810 0.6503513333333333 -0.6174703333333333
580988689 0.6520713333333333 -0.61649
582474568 0.6497156666666666 -0.6182353333333334
583960447 0.6499113333333333 -0.6188119999999999
585446326 0.6491076666666666 -0.6184306666666666
586932205 0.6479393333333332 -0.6171603333333333
588418084 0.6455683333333333 -0.6165623333333332
589903963 0.643714 -0.6151556666666667
591389842 0.6412519999999999 -0.6146093333333332
592875721 0.6378146666666666 -0.6119789999999999
594361600 0.6354989999999999 -0.610185
595847479 0.6311709999999999 -0.6089493333333333
597333358 0.6278009999999999 -0.605574
598819237 0.6224456666666667 -0.6046076666666667
600305116 0.6185783333333332 -0.6032233333333333
601790995 0.6206726666666667 -0.6072413333333333
603276874 0.6214999999999999 -0.6117866666666666
604762753 0.623764 -0.6162846666666667
606248632 0.624377 -0.6194166666666666
607734511 0.625805 -0.6221836666666666
609220390 0.625686 -0.6251096666666667
610706269 0.628155 -0.6270709999999999
612192148 0.6268623333333333 -0.6297173333333332
613678027 0.6282253333333334 -0.629807
615163906 0.6272336666666667 -0.631199
616649785 0.6273223333333333 -0.6319523333333333
618135664 0.626073 -0.6309633333333333
619621543 0.623918 -0.6313986666666667
621107422 0.6230623333333333 -0.631462
622593301 0.6226436666666666 -0.6304433333333332
624079180 0.6193576666666667 -0.6288436666666667
625565059 0.6169743333333333 -0.6288276666666667
627050938 0.6153126666666666 -0.626392
628536817 0.6101246666666666 -0.6252623333333333
630022696 0.6065236666666667 -0.6229443333333333
631508575 0.6075456666666665 -0.6281466666666666
632994454 0.608379 -0.6313963333333332
634480333 0.6094673333333334 -0.6348313333333333
635966212 0.6097146666666666 -0.638642
637452091 0.609914 -0.6410553333333333
638937970 0.610789 -0.6436953333333333
640423849 0.610015 -0.6446556666666666
641909728 0.610783 -0.6474206666666666
643395607 0.6092996666666666 -0.6486609999999999
644881486 0.6077089999999999 -0.6499833333333334
646367365 0.6060869999999999 -0.650631
647853244 0.6070086666666668 -0.6504066666666667
649339123 0.6048866666666666 -0.6513929999999999
650825002 0.6022223333333333 -0.6500443333333333
652310881 0.601448 -0.6484669999999999
