# HZ S RI R 50
10000 0.8715173333333334 -0.108933
1495879 0.6644709999999999 1.5284359999999997
2981758 0.7787826666666666 0.8752076666666666
4467637 0.7489546666666668 0.47751666666666664
5953516 0.7545453333333333 0.3158586666666666
7439395 0.7402013333333334 0.23174333333333333
8925274 0.7118553333333333 1.5762213333333333
10411153 0.5430956666666666 1.2645343333333332
11897032 0.45004199999999994 1.0544533333333332
13382911 0.3943286666666666 0.901389
14868790 0.360394 0.7854696666666667
16354669 0.337467 0.6952286666666666
17840548 0.33098 0.6220773333333334
19326427 0.3268063333333333 0.5626736666666666
20812306 0.32750599999999996 0.5148223333333333
22298185 0.3367896666666666 0.47758599999999996
23784064 0.33698799999999995 0.44426799999999994
25269943 0.343487 0.41850299999999996
26755822 0.350914 0.3976766666666667
28241701 0.3586596666666666 0.381009
29727580 0.36594533333333334 0.3680923333333333
31213459 0.39741133333333334 0.338547
32699338 0.4340493333333333 0.305038
34185217 0.4715856666666667 0.2705356666666666
35671096 0.506385 0.23544833333333332
37156975 0.5384659999999999 0.20097266666666663
38642854 0.5731633333333332 0.165317
40128733 0.60236 0.13203199999999998
41614612 0.6424153333333333 0.09393433333333334
43100491 0.6733249999999998 0.060791333333333336
44586370 0.7082463333333333 0.026889999999999997
46072249 0.7396656666666666 -0.004130999999999999
47558128 0.7782753333333333 -0.03523066666666667
49044007 0.8175339999999999 -0.062128
50529886 0.8602453333333333 -0.08294766666666666
52015765 0.8859096666666666 -0.09792033333333335
53501644 0.9197786666666667 -0.10334766666666667
54987523 0.9394366666666666 -0.10302333333333333
56473402 0.9369999999999999 -0.11162133333333332
57959281 0.9361943333333334 -0.10070599999999999
59445160 0.9194566666666667 -0.07482733333333333
60931039 0.908075 -0.065714
62416918 0.9112779999999999 -0.07451066666666666
63902797 0.9131166666666666 -0.08367733333333334
65388676 0.9150913333333334 -0.09256733333333333
66874555 0.9175986666666667 -0.09012233333333332
68360434 0.9089513333333332 -0.16686499999999999
69846313 0.921922 -0.070571
71332192 0.9234516666666666 -0.06662433333333333
72818071 0.9223876666666666 -0.108029
74303950 0.9240023333333333 -0.08918933333333331
75789829 0.9264743333333333 -0.04010933333333333
77275708 0.9256629999999999 -0.048649333333333336
78761587 0.9257433333333333 -0.043695
80247466 0.9130953333333334 -0.15012533333333333
81733345 0.9179403333333332 -0.10753599999999999
83219224 0.914681 -0.11756466666666666
84705103 0.9089703333333332 -0.14109299999999997
86190982 0.9157716666666667 -0.028647
87676861 0.903022 -0.13531566666666664
89162740 0.9033166666666667 -0.11252266666666666
90648619 0.9002513333333333 -0.12966699999999998
92134498 0.903965 -0.128644
93620377 0.9103893333333334 -0.10031233333333334
95106256 0.9096693333333332 -0.125456
96592135 0.911314 -0.126146
98078014 0.9147209999999999 -0.122486
99563893 0.9164906666666666 -0.12003933333333333
101049772 0.9165166666666666 -0.13235133333333332
102535651 0.9165163333333333 -0.13473733333333332
104021530 0.9158033333333333 -0.135927
105507409 0.9156956666666667 -0.138627
106993288 0.915005 -0.13832699999999998
108479167 0.915038 -0.14048333333333335
109965046 0.9127696666666667 -0.14189199999999996
111450925 0.9118679999999999 -0.14259633333333332
112936804 0.910618 -0.14394366666666664
114422683 0.9067613333333333 -0.14522366666666667
115908562 0.9044256666666666 -0.14569166666666666
117394441 0.9008269999999998 -0.14653066666666664
118880320 0.8971396666666666 -0.148225
120366199 0.8955886666666666 -0.14926966666666666
121852078 0.8983293333333333 -0.151945
123337957 0.9026336666666667 -0.15465399999999999
124823836 0.906043 -0.15762933333333334
126309715 0.9069879999999999 -0.158734
127795594 0.9107696666666666 -0.161469
129281473 0.9128833333333333 -0.16278166666666666
130767352 0.9150263333333333 -0.16472266666666668
132253231 0.9158706666666667 -0.16656366666666667
133739110 0.917411 -0.16868833333333333
135224989 0.9025909999999999 -0.17719
136710868 0.9027036666666667 -0.17813933333333334
138196747 0.9023066666666667 -0.179526
139682626 0.9013203333333333 -0.18019366666666664
141168505 0.9008223333333333 -0.18127433333333332
142654384 0.8993653333333333 -0.18234966666666666
144140263 0.8970296666666666 -0.18298199999999998
145626142 0.895193 -0.18399766666666664
147112021 0.8923673333333333 -0.18500733333333333
148597900 0.8895486666666665 -0.18576533333333334
150083779 0.886609 -0.18623099999999998
151569658 0.8888613333333334 -0.18891466666666668
153055537 0.8918649999999999 -0.19085033333333334
154541416 0.894126 -0.19334099999999999
156027295 0.8958426666666666 -0.19592766666666664
157513174 0.8977023333333333 -0.19828966666666664
158999053 0.8989953333333333 -0.20095333333333332
160484932 0.8989853333333333 -0.2016693333333333
161970811 0.9003056666666667 -0.20357199999999998
163456690 0.8996986666666666 -0.20560599999999998
164942569 0.8995956666666666 -0.20711766666666664
166428448 0.8991833333333333 -0.20792366666666667
167914327 0.898732 -0.2093023333333333
169400206 0.8974629999999999 -0.21153933333333333
170886085 0.8978376666666665 -0.207268
172371964 0.8937103333333332 -0.21407833333333331
173857843 0.8910876666666666 -0.21589033333333332
175343722 0.888677 -0.21751666666666664
176829601 0.8434123333333333 -0.225198
178315480 0.8811209999999999 -0.22037566666666666
179801359 0.8752109999999999 -0.22734733333333335
181287238 0.8795233333333333 -0.224301
182773117 0.8806176666666667 -0.2318986666666667
184258996 0.8834123333333332 -0.233613
185744875 0.8849633333333333 -0.23662300000000003
187230754 0.8872963333333332 -0.23802033333333333
188716633 0.887961 -0.24013599999999996
190202512 0.8889113333333333 -0.2420176666666667
191688391 0.889497 -0.24367466666666665
193174270 0.8907136666666666 -0.24515199999999998
194660149 0.8898896666666666 -0.24703966666666669
196146028 0.8899710000000001 -0.24798633333333334
197631907 0.8907170000000001 -0.24435866666666664
199117786 0.8891243333333333 -0.24543766666666667
200603665 0.887942 -0.2462233333333333
202089544 0.8857856666666667 -0.24737533333333334
203575423 0.8832303333333332 -0.249536
205061302 0.879533 -0.250615
206547181 0.8763446666666665 -0.2519913333333333
208033060 0.8727726666666666 -0.2526656666666667
209518939 0.8683513333333333 -0.255285
211004818 0.8693609999999998 -0.2580593333333333
212490697 0.8724336666666666 -0.25967433333333334
213976576 0.8747719999999999 -0.26350699999999994
215462455 0.877726 -0.2650733333333333
216948334 0.87682 -0.2729913333333333
218434213 0.8833836666666667 -0.26446933333333333
219920092 0.879215 -0.2759793333333333
221405971 0.8847533333333334 -0.2674843333333333
222891850 0.8805066666666665 -0.2800833333333333
224377729 0.885116 -0.2705223333333333
225863608 0.8798603333333332 -0.2821743333333333
227349487 0.8827333333333334 -0.27398833333333333
228835366 0.8772126666666665 -0.2849873333333333
230321245 0.8804656666666666 -0.2761383333333334
231807124 0.8724966666666667 -0.2881433333333333
233293003 0.8744289999999999 -0.279188
234778882 0.8662926666666666 -0.29076099999999994
236264761 0.8676026666666666 -0.281892
237750640 0.8589896666666667 -0.293247
239236519 0.8593923333333333 -0.28502799999999995
240722398 0.853253 -0.29680599999999996
242208277 0.8616079999999999 -0.290052
243694156 0.85955 -0.3033763333333333
245180035 0.8674886666666666 -0.29556533333333335
246665914 0.8644939999999999 -0.30713666666666667
248151793 0.8708053333333333 -0.300228
249637672 0.867712 -0.311637
251123551 0.8727259999999999 -0.3039426666666667
252609430 0.868446 -0.31538833333333327
254095309 0.8730813333333334 -0.3068846666666666
255581188 0.8680056666666667 -0.3190266666666666
257067067 0.872114 -0.3097223333333333
258552946 0.864989 -0.32047766666666666
260038825 0.8688849999999999 -0.3119133333333333
261524704 0.8612279999999999 -0.32282833333333333
263010583 0.8604449999999999 -0.31900700000000004
264496462 0.8566103333333333 -0.320461
265982341 0.8533106666666666 -0.32134666666666667
267468220 0.8492896666666667 -0.32253966666666667
268954099 0.8448529999999999 -0.32281766666666667
270439978 0.842869 -0.32512499999999994
271925857 0.8453303333333333 -0.3288416666666667
273411736 0.8490796666666666 -0.33166799999999996
274897615 0.8515616666666667 -0.33441566666666667
276383494 0.852328 -0.3372843333333333
277869373 0.8545843333333334 -0.33910533333333337
279355252 0.8559713333333333 -0.34168833333333337
280841131 0.8575996666666665 -0.34366399999999997
282327010 0.8573876666666665 -0.34482799999999997
283812889 0.8570123333333333 -0.34619099999999997
285298768 0.8565906666666666 -0.34761833333333336
286784647 0.856236 -0.34970733333333337
288270526 0.8548653333333333 -0.35057866666666665
289756405 0.8525033333333332 -0.351564
291242284 0.8503866666666666 -0.35110699999999995
292728163 0.847224 -0.35206099999999996
294214042 0.8437116666666666 -0.35356566666666667
295699921 0.8407076666666666 -0.3534616666666667
297185800 0.8362583333333333 -0.354403
298671679 0.8314856666666667 -0.354682
300157558 0.8260336666666666 -0.35581599999999997
301643437 0.8301103333333334 -0.36032633333333336
303129316 0.8329359999999999 -0.3634356666666667
304615195 0.8348176666666666 -0.3660836666666666
306101074 0.8372193333333332 -0.369339
307586953 0.8391143333333333 -0.37140666666666666
309072832 0.8407216666666666 -0.37424833333333335
310558711 0.8414226666666667 -0.3760493333333333
312044590 0.8424596666666666 -0.37768466666666667
313530469 0.8422093333333331 -0.37968133333333337
315016348 0.8412016666666666 -0.3802983333333333
316502227 0.8396563333333333 -0.38198699999999997
317988106 0.8389759999999999 -0.3817533333333333
319473985 0.875909 -0.375581
320959864 0.834243 -0.38430400000000003
322445743 0.8313036666666666 -0.384092
323931622 0.8284560000000001 -0.3845413333333333
325417501 0.8183083333333334 -0.3923283333333333
326903380 0.819699 -0.3845893333333333
328389259 0.8160593333333332 -0.38444666666666666
329875138 0.8105149999999999 -0.3851713333333333
331361017 0.8123766666666667 -0.388703
332846896 0.8157896666666666 -0.39196699999999995
334332775 0.8165993333333332 -0.396574
335818654 0.8185023333333332 -0.40086199999999994
337304533 0.8201506666666667 -0.40346366666666666
338790412 0.8215463333333333 -0.4055846666666666
340276291 0.8223723333333333 -0.4079313333333333
341762170 0.8223913333333333 -0.4111643333333333
343248049 0.821736 -0.41297666666666666
344733928 0.8229066666666666 -0.41393966666666665
346219807 0.821491 -0.4149029999999999
347705686 0.819669 -0.41560166666666665
349191565 0.8174686666666666 -0.416957
350677444 0.8162223333333333 -0.4175656666666667
352163323 0.812946 -0.4173353333333333
353649202 0.8096966666666666 -0.417813
355135081 0.8060806666666667 -0.41807266666666665
356620960 0.802698 -0.41799833333333336
358106839 0.7975913333333333 -0.41855266666666663
359592718 0.7928583333333333 -0.4179166666666667
361078597 0.7930083333333333 -0.4214863333333333
362564476 0.7953916666666667 -0.4255766666666666
364050355 0.797876 -0.4283413333333333
365536234 0.7993789999999998 -0.43232633333333326
367022113 0.8009963333333334 -0.43438766666666667
368507992 0.802217 -0.43664766666666666
369993871 0.8026573333333333 -0.43852599999999997
371479750 0.803418 -0.4405313333333333
372965629 0.802986 -0.44268466666666667
374451508 0.8035759999999998 -0.4430856666666666
375937387 0.8025333333333333 -0.44428199999999995
377423266 0.8014319999999999 -0.4448733333333333
378909145 0.7992699999999999 -0.44616733333333336
380395024 0.7986849999999999 -0.44611133333333336
381880903 0.7960883333333333 -0.4466009999999999
383366782 0.7923799999999999 -0.446052
384852661 0.7895589999999999 -0.4457726666666667
386338540 0.785599 -0.4460823333333333
387824419 0.7819520000000001 -0.444485
389310298 0.777659 -0.44419866666666663
390796177 0.7761066666666667 -0.4461383333333333
392282056 0.7780753333333333 -0.45058266666666663
393767935 0.7797649999999999 -0.45414899999999997
395253814 0.7814643333333333 -0.45713633333333337
396739693 0.7822793333333333 -0.46076066666666665
398225572 0.7827673333333334 -0.4626583333333333
399711451 0.783292 -0.465182
401197330 0.7833573333333332 -0.4677066666666666
402683209 0.7835583333333332 -0.46837899999999993
404169088 0.7828309999999999 -0.47050666666666663
405654967 0.7816663333333334 -0.4713313333333333
407140846 0.7809276666666667 -0.4716706666666666
408626725 0.7787823333333332 -0.4734263333333333
410112604 0.7771173333333332 -0.473442
411598483 0.7751976666666667 -0.4737896666666666
413084362 0.7722773333333333 -0.473719
414570241 0.7691123333333333 -0.473302
416056120 0.7653129999999999 -0.47288166666666664
417541999 0.7613883333333333 -0.47388699999999995
419027878 0.7574706666666666 -0.47271399999999997
420513757 0.7549096666666666 -0.47346133333333335
421999636 0.75656 -0.47792366666666664
423485515 0.75812 -0.4817553333333333
424971394 0.7589269999999999 -0.484929
426457273 0.7611353333333334 -0.486996
427943152 0.76157 -0.49001933333333325
429429031 0.7620556666666666 -0.49196466666666666
430914910 0.761997 -0.494983
432400789 0.7613839999999998 -0.496193
433886668 0.7619766666666666 -0.4969039999999999
435372547 0.7596646666666667 -0.4986986666666667
436858426 0.7591073333333332 -0.4998363333333333
438344305 0.7577733333333333 -0.5005876666666667
439830184 0.7554413333333333 -0.5013566666666667
441316063 0.7539853333333332 -0.5011523333333332
442801942 0.7515893333333332 -0.5009283333333333
444287821 0.7491333333333332 -0.5013846666666667
445773700 0.7456966666666666 -0.501207
447259579 0.7414156666666667 -0.500478
448745458 0.7384623333333332 -0.5002856666666666
450231337 0.7344969999999998 -0.4996643333333333
451717216 0.7363613333333332 -0.5028523333333332
453203095 0.735906 -0.5080423333333333
454688974 0.7388373333333332 -0.5103803333333332
456174853 0.7406373333333334 -0.5128483333333334
457660732 0.741031 -0.515746
459146611 0.740484 -0.5177226666666666
460632490 0.740888 -0.521542
462118369 0.740372 -0.5220923333333333
463604248 0.7403959999999998 -0.5226803333333333
465090127 0.7398663333333333 -0.5246076666666666
466576006 0.7384833333333334 -0.5252429999999999
468061885 0.7373293333333333 -0.5260736666666666
469547764 0.7358889999999999 -0.5263363333333333
471033643 0.7404913333333334 -0.519781
472519522 0.738349 -0.5198503333333333
474005401 0.7351386666666666 -0.5188783333333333
475491280 0.7319093333333333 -0.5192519999999999
476977159 0.729913 -0.5180786666666666
478463038 0.7244769999999999 -0.518318
479948917 0.7212646666666667 -0.5160983333333333
481434796 0.7222326666666665 -0.5206273333333333
482920675 0.7241646666666666 -0.5238563333333334
484406554 0.7250443333333334 -0.5274233333333334
485892433 0.726492 -0.5307126666666666
487378312 0.7262360000000001 -0.533925
488864191 0.7280966666666666 -0.5354013333333333
490350070 0.7324096666666665 -0.5350976666666667
491835949 0.7330263333333333 -0.5365096666666666
493321828 0.7320623333333334 -0.537223
494807707 0.7184533333333333 -0.548538
496293586 0.7173276666666666 -0.5500799999999999
497779465 0.7154216666666666 -0.5500643333333333
499265344 0.7142546666666667 -0.550325
500751223 0.7119739999999999 -0.5505123333333333
502237102 0.7106329999999998 -0.5507580000000001
503722981 0.706803 -0.5497826666666666
505208860 0.7037990000000001 -0.5493753333333333
506694739 0.6998423333333333 -0.54932
508180618 0.6962143333333333 -0.5484143333333333
509666497 0.6916576666666666 -0.5468716666666666
511152376 0.6924593333333333 -0.5499639999999999
512638255 0.6926193333333333 -0.5546496666666667
514124134 0.6957070000000001 -0.5581153333333333
515610013 0.696164 -0.5602543333333332
517095892 0.6970246666666666 -0.5634349999999999
518581771 0.6981046666666666 -0.5643286666666666
520067650 0.6980010000000001 -0.5679216666666667
521553529 0.6980763333333333 -0.567993
523039408 0.698661 -0.5699510000000001
524525287 0.696465 -0.5707466666666666
526011166 0.6967786666666667 -0.5712223333333333
527497045 0.694848 -0.5718676666666667
528982924 0.6933603333333332 -0.5727133333333333
530468803 0.6959676666666665 -0.5687433333333333
531954682 0.6884556666666667 -0.572959
533440561 0.686524 -0.5713516666666666
534926440 0.6822773333333334 -0.5713223333333334
536412319 0.679011 -0.5706319999999999
537898198 0.6755986666666667 -0.5694933333333333
539384077 0.6699403333333331 -0.5682669999999999
540869956 0.6704239999999999 -0.570728
542355835 0.6709653333333333 -0.5760823333333334
543841714 0.6718343333333332 -0.5798729999999999
545327593 0.6727356666666666 -0.5834623333333333
546813472 0.6727176666666665 -0.5878549999999999
548299351 0.6723033333333334 -0.5899513333333333
549785230 0.6729536666666666 -0.5931516666666666
551271109 0.672247 -0.5960766666666666
552756988 0.671562 -0.5984356666666666
554242867 0.6705876666666667 -0.6006493333333334
555728746 0.6699443333333333 -0.602156
557214625 0.6683443333333333 -0.603561
558700504 0.6678126666666666 -0.604916
560186383 0.665152 -0.605324
561672262 0.6640786666666667 -0.6055083333333333
563158141 0.6603186666666667 -0.6071743333333333
564644020 0.6573749999999999 -0.6059563333333333
566129899 0.6532290000000001 -0.6074723333333333
567615778 0.649536 -0.606965
569101657 0.6461996666666666 -0.6058963333333334
570587536 0.6438733333333333 -0.6063926666666666
572073415 0.6442213333333333 -0.6097073333333333
573559294 0.6459779999999999 -0.6129683333333333
575045173 0.646822 -0.6156163333333333
576531052 0.6481253333333332 -0.6177079999999999
578016931 0.6489253333333332 -0.6182903333333334
579502810 0.648155 -0.6198949999999999
580988689 0.6489053333333332 -0.6205746666666667
582474568 0.648219 -0.620949
583960447 0.6490966666666667 -0.6209903333333333
585446326 0.6467646666666667 -0.621676
586932205 0.6453126666666666 -0.6198386666666666
588418084 0.6444353333333332 -0.6180326666666667
589903963 0.6415696666666666 -0.6185133333333332
591389842 0.6397263333333333 -0.6160243333333334
592875721 0.6355366666666666 -0.6153463333333332
594361600 0.6329089999999999 -0.6130486666666667
595847479 0.6286853333333333 -0.6122489999999999
597333358 0.6250106666666666 -0.6097836666666666
598819237 0.6199676666666667 -0.606976
600305116 0.6156056666666667 -0.606412
601790995 0.6191953333333333 -0.6099526666666667
603276874 0.6187823333333333 -0.6148210000000001
604762753 0.621284 -0.6181206666666667
606248632 0.6225626666666666 -0.6224896666666667
607734511 0.6236916666666665 -0.624014
609220390 0.6244056666666666 -0.6273533333333333
610706269 0.6253416666666667 -0.6288106666666666
612192148 0.6251439999999999 -0.6309056666666667
613678027 0.6242353333333333 -0.6321583333333333
615163906 0.6245759999999999 -0.6337666666666666
616649785 0.622805 -0.6339266666666666
618135664 0.6231633333333333 -0.634648
619621543 0.5893366666666666 -0.6121006666666666
621107422 0.6207453333333334 -0.6327736666666667
622593301 0.6192219999999999 -0.6325953333333333
624079180 0.6155973333333332 -0.6321296666666667
625565059 0.6147183333333333 -0.629467
627050938 0.6099806666666666 -0.6303076666666666
628536817 0.6067633333333333 -0.6271813333333333
630022696 0.6025616666666667 -0.6260486666666667
631508575 0.6060639999999999 -0.6287496666666665
632994454 0.6057939999999999 -0.6312666666666666
634480333 0.6059573333333332 -0.6364946666666667
635966212 0.6060056666666666 -0.6397783333333333
637452091 0.6067849999999999 -0.6428213333333332
638937970 0.6077096666666666 -0.643774
640423849 0.6053876666666667 -0.6475396666666666
641909728 0.6062486666666667 -0.6485963333333333
643395607 0.6046903333333333 -0.6504296666666667
644881486 0.6040216666666667 -0.6503416666666666
646367365 0.6025093333333333 -0.6507756666666666
647853244 0.6008996666666666 -0.6525166666666666
649339123 0.5996686666666666 -0.6519763333333333
650825002 0.5993580000000001 -0.6498343333333333
652310881 0.5961730000000001 -0.649122
653796760 0.5944283333333332 -0.6494046666666666
