# HZ S RI R 50
10000 2.8512496666666665 2.61815 0.015300999999999999 -0.034152999999999996 0 0 0 0
1495879 1.5407246666666667 3.1592903333333333 -0.23611366666666667 0.06820066666666666 0 0 0 0
2981758 0.03512266666666666 1.7694993333333333 -0.11114166666666667 -0.149347 0 0 0 0
4467637 0.24535200000000001 1.3268659999999999 -0.07463233333333333 -0.07654966666666667 0 0 0 0
5953516 0.299407 1.1663989999999997 -0.06068266666666666 -0.052471000000000004 0 0 0 0
7439395 0.285885 1.0588789999999997 -0.054256666666666675 -0.04037566666666667 0 0 0 0
8925274 -0.883894 2.662047333333333 -0.030030333333333332 0.0008186666666666665 0 0 0 0
10411153 -0.560859 2.4026193333333334 -0.027788999999999998 0.0034006666666666664 0 0 0 0
11897032 -0.35239133333333333 2.2161609999999996 -0.025866666666666666 0.004809666666666665 0 0 0 0
13382911 -0.20700766666666665 2.0757193333333337 -0.024872666666666668 0.006336 0 0 0 0
14868790 -0.06626766666666667 1.9411543333333334 -0.023894666666666665 0.006800666666666667 0 0 0 0
16354669 0.024160666666666667 1.8573870000000001 -0.023086333333333334 0.007487999999999999 0 0 0 0
17840548 0.11293500000000001 1.7734083333333333 -0.022468666666666665 0.007791333333333334 0 0 0 0
19326427 0.1875446666666667 1.6970626666666668 -0.021988333333333332 0.008021666666666667 0 0 0 0
20812306 0.2551823333333333 1.6280063333333334 -0.021586666666666664 0.008088333333333333 0 0 0 0
22298185 0.31400133333333335 1.564419 -0.02125833333333333 0.008100666666666666 0 0 0 0
23784064 0.36799899999999997 1.507041 -0.020942333333333334 0.008021 0 0 0 0
25269943 0.414089 1.4502583333333334 -0.020741666666666665 0.007929333333333333 0 0 0 0
26755822 0.45608933333333335 1.3969913333333333 -0.02055 0.007788666666666667 0 0 0 0
28241701 0.454137 1.3271866666666665 -0.02078033333333333 0.007732333333333334 0 0 0 0
29727580 0.5278943333333332 1.299676 -0.020225333333333335 0.0074333333333333335 0 0 0 0
31213459 0.5345083333333333 1.2199586666666666 -0.021323666666666664 0.007198666666666667 0 0 0 0
32699338 0.538397 1.1313616666666668 -0.02292766666666667 0.006829333333333333 0 0 0 0
34185217 0.5425143333333333 1.0347623333333333 -0.024672 0.006012666666666666 0 0 0 0
35671096 0.5513553333333332 0.9405776666666666 -0.026979333333333334 0.005026 0 0 0 0
37156975 0.566921 0.8487853333333334 -0.03000133333333333 0.003826333333333333 0 0 0 0
38642854 0.5834123333333333 0.7490963333333334 -0.033011 0.0013933333333333332 0 0 0 0
40128733 0.6131756666666666 0.6556529999999999 -0.037053 -0.0012616666666666666 0 0 0 0
41614612 0.6327026666666666 0.5459583333333333 -0.03935866666666666 -0.007514 0 0 0 0
43100491 0.6740513333333333 0.44909199999999994 -0.04228333333333334 -0.013652666666666667 0 0 0 0
44586370 0.7188343333333332 0.35145766666666667 -0.04276566666666666 -0.022137333333333332 0 0 0 0
46072249 0.7778836666666665 0.26378066666666666 -0.04276466666666667 -0.03011433333333333 0 0 0 0
47558128 0.8367969999999999 0.18537099999999998 -0.03891666666666667 -0.04048966666666667 0 0 0 0
49044007 0.899406 0.12465999999999999 -0.03270933333333333 -0.05209699999999999 0 0 0 0
50529886 0.9578613333333333 0.08565066666666665 -0.020271666666666664 -0.06646333333333333 0 0 0 0
52015765 1.0111999999999999 0.061530666666666664 -0.009326666666666665 -0.08224033333333332 0 0 0 0
53501644 1.0393706666666667 0.05287700000000001 0.030166 -0.09146 0 0 0 0
54987523 1.045212 0.04197133333333333 0.069978 -0.06639333333333332 0 0 0 0
56473402 1.0290123333333332 0.0077143333333333335 0.07035833333333333 -0.034348666666666666 0 0 0 0
57959281 0.9995093333333334 -0.016015666666666664 0.058008333333333335 -0.006605333333333333 0 0 0 0
59445160 0.9631029999999999 -0.033265666666666666 0.04338500000000001 0.009872666666666665 0 0 0 0
60931039 0.9489753333333333 -0.03976333333333333 0.038288666666666665 0.014289 0 0 0 0
62416918 0.952098 -0.048894 0.039082000000000006 0.013288999999999999 0 0 0 0
63902797 0.9540876666666667 -0.05769733333333333 0.03986166666666666 0.012246 0 0 0 0
65388676 0.9562199999999998 -0.06544766666666665 0.04064933333333333 0.011159666666666665 0 0 0 0
66874555 0.9583966666666666 -0.06262733333333333 0.040641333333333335 0.012795333333333334 0 0 0 0
68360434 0.9524696666666667 -0.14175833333333332 0.042692666666666663 -0.005539666666666667 0 0 0 0
69846313 0.961236 -0.03970699999999999 0.039085666666666664 0.019102 0 0 0 0
71332192 0.9620029999999999 -0.03675166666666667 0.038752666666666664 0.020834666666666668 0 0 0 0
72818071 0.961301 -0.07792699999999998 0.04280766666666667 0.011889 0 0 0 0
74303950 0.9622916666666665 -0.07016499999999999 0.04256566666666667 0.014456666666666668 0 0 0 0
75789829 0.9627003333333334 -0.005457 0.035034666666666665 0.029025333333333334 0 0 0 0
77275708 0.9614753333333332 -0.013812333333333333 0.036602 0.027900666666666664 0 0 0 0
78761587 0.9603116666666667 -0.008371666666666666 0.03591633333333333 0.02960533333333333 0 0 0 0
80247466 0.9522533333333333 -0.118465 0.04692633333333333 0.004319333333333333 0 0 0 0
81733345 0.9537969999999999 -0.07359133333333334 0.044888 0.016083 0 0 0 0
83219224 0.9506169999999999 -0.08382366666666666 0.04618733333333333 0.013968999999999999 0 0 0 0
84705103 0.944992 -0.10753833333333332 0.048204333333333335 0.007931666666666667 0 0 0 0
86190982 0.9459023333333333 0.009206666666666665 0.033833999999999996 0.03602333333333333 0 0 0 0
87676861 0.9374086666666666 -0.10047433333333333 0.04887899999999999 0.010892333333333332 0 0 0 0
89162740 0.9341543333333333 -0.07649733333333333 0.04769433333333334 0.017275666666666665 0 0 0 0
90648619 0.93078 -0.09317866666666666 0.04958933333333333 0.013720999999999999 0 0 0 0
92134498 0.9338933333333334 -0.08685266666666665 0.04996733333333332 0.015435666666666667 0 0 0 0
93620377 0.9372276666666666 -0.062224 0.047385 0.02400533333333333 0 0 0 0
95106256 0.9376433333333332 -0.08806366666666667 0.05089666666666666 0.017853666666666664 0 0 0 0
96592135 0.9385026666666667 -0.08837099999999999 0.05139866666666666 0.019096 0 0 0 0
98078014 0.9393309999999999 -0.08428533333333334 0.051722 0.020808999999999998 0 0 0 0
99563893 0.9402036666666667 -0.08108533333333333 0.052003 0.02266666666666667 0 0 0 0
101049772 0.9395406666666666 -0.095072 0.054262333333333336 0.019635 0 0 0 0
102535651 0.9386556666666667 -0.09537933333333333 0.055150333333333336 0.020245666666666665 0 0 0 0
104021530 0.9362879999999999 -0.09615633333333332 0.05614566666666666 0.02055433333333333 0 0 0 0
105507409 0.934446 -0.09796433333333333 0.05730166666666667 0.02064066666666667 0 0 0 0
106993288 0.9321243333333333 -0.09982033333333332 0.05835533333333333 0.02125933333333333 0 0 0 0
108479167 0.929048 -0.09937399999999999 0.05964666666666666 0.021066 0 0 0 0
109965046 0.924976 -0.101514 0.06092499999999999 0.021193666666666666 0 0 0 0
111450925 0.9207976666666666 -0.103809 0.06230333333333333 0.021297 0 0 0 0
112936804 0.9168173333333334 -0.10375466666666666 0.06377466666666666 0.021252666666666663 0 0 0 0
114422683 0.9119226666666667 -0.10341 0.06531999999999999 0.021305666666666667 0 0 0 0
115908562 0.905299 -0.10444633333333332 0.06696633333333332 0.021305666666666667 0 0 0 0
117394441 0.8993 -0.10563499999999999 0.06879533333333333 0.02072533333333333 0 0 0 0
118880320 0.8923143333333333 -0.10599899999999998 0.070491 0.021371 0 0 0 0
120366199 0.8878116666666666 -0.10065333333333333 0.07257466666666665 0.021021333333333336 0 0 0 0
121852078 0.885471 -0.108437 0.07500466666666666 0.020223333333333333 0 0 0 0
123337957 0.8839643333333334 -0.11548366666666665 0.07742566666666667 0.020327666666666667 0 0 0 0
124823836 0.88298 -0.11095533333333332 0.07982366666666667 0.021018333333333333 0 0 0 0
126309715 0.8798513333333333 -0.11716166666666666 0.08268733333333333 0.020265333333333333 0 0 0 0
127795594 0.8780403333333333 -0.105168 0.08566166666666666 0.019589666666666665 0 0 0 0
129281473 0.8733776666666666 -0.10382566666666666 0.08893399999999999 0.018321666666666667 0 0 0 0
130767352 0.8673189999999998 -0.10867066666666665 0.09244533333333334 0.01586 0 0 0 0
132253231 0.8609036666666665 -0.10997466666666667 0.09606299999999998 0.013599666666666666 0 0 0 0
133739110 0.8548283333333333 -0.10175666666666666 0.09971999999999999 0.010801666666666668 0 0 0 0
135224989 0.8338003333333333 -0.10994366666666666 0.10243266666666664 0.005838 0 0 0 0
136710868 0.8274896666666667 -0.09367899999999998 0.10624 0.0023706666666666668 0 0 0 0
138196747 0.8160970000000001 -0.09620933333333333 0.10985166666666665 -0.0033566666666666667 0 0 0 0
139682626 0.8085436666666667 -0.07614133333333334 0.11346833333333334 -0.008628666666666666 0 0 0 0
141168505 0.7974426666666666 -0.073945 0.11621166666666667 -0.016662333333333335 0 0 0 0
142654384 0.7897369999999999 -0.05461766666666666 0.11812566666666666 -0.025108666666666668 0 0 0 0
144140263 0.7828710000000001 -0.03730266666666666 0.118779 -0.03465566666666667 0 0 0 0
145626142 0.7778543333333332 -0.018436666666666664 0.11774233333333334 -0.04509866666666666 0 0 0 0
147112021 0.7770703333333332 0.002788666666666666 0.11436399999999998 -0.05576533333333333 0 0 0 0
148597900 0.7781673333333332 0.018813 0.10856400000000001 -0.06621633333333332 0 0 0 0
150083779 0.786219 0.04328133333333334 0.099846 -0.07453633333333333 0 0 0 0
151569658 0.8038993333333334 0.05549333333333334 0.08975433333333334 -0.08268933333333334 0 0 0 0
153055537 0.8225003333333333 0.07490133333333332 0.07922566666666665 -0.087594 0 0 0 0
154541416 0.844017 0.085587 0.06775733333333334 -0.09050366666666666 0 0 0 0
156027295 0.865705 0.09228566666666665 0.05636466666666666 -0.09114166666666668 0 0 0 0
157513174 0.8874193333333333 0.09522366666666666 0.04592466666666667 -0.089844 0 0 0 0
158999053 0.9081863333333333 0.09512233333333334 0.03636266666666666 -0.08703366666666668 0 0 0 0
160484932 0.9265146666666666 0.09191233333333333 0.025835 -0.08354600000000001 0 0 0 0
161970811 0.941996 0.08678933333333333 0.018907 -0.07859133333333332 0 0 0 0
163456690 0.9549123333333333 0.07972199999999999 0.013259333333333333 -0.073224 0 0 0 0
164942569 0.9667416666666666 0.07233400000000001 0.008895666666666666 -0.06769633333333333 0 0 0 0
166428448 0.975132 0.06451799999999999 0.005540999999999999 -0.06233266666666666 0 0 0 0
167914327 0.9831833333333333 0.056966666666666665 0.0028836666666666663 -0.05725633333333333 0 0 0 0
169400206 0.9879686666666665 0.049493333333333334 0.0008699999999999999 -0.052366 0 0 0 0
170886085 0.9916426666666667 0.04137866666666666 -0.0007603333333333333 -0.04774266666666666 0 0 0 0
172371964 0.9945559999999999 0.03442733333333333 -0.001764 -0.04338500000000001 0 0 0 0
173857843 0.9956926666666666 0.025129 -0.002441 -0.039384999999999996 0 0 0 0
175343722 0.9954099999999999 0.019363333333333333 -0.002770333333333333 -0.03565433333333333 0 0 0 0
176829601 0.993947 0.013445666666666665 -0.0028329999999999996 -0.032258666666666665 0 0 0 0
178315480 0.9925916666666665 0.006140666666666667 -0.002842333333333333 -0.029153666666666668 0 0 0 0
179801359 0.9897306666666666 -0.0008683333333333334 -0.002716333333333333 -0.026362333333333335 0 0 0 0
181287238 0.993965 -0.005607999999999999 -0.00239 -0.023900666666666667 0 0 0 0
182773117 0.9979549999999999 -0.009739666666666667 -0.0021166666666666664 -0.021582333333333332 0 0 0 0
184258996 1.0018423333333333 -0.014558333333333333 -0.0018773333333333333 -0.019498333333333333 0 0 0 0
185744875 1.0053619999999999 -0.01830833333333333 -0.001545333333333333 -0.017513666666666663 0 0 0 0
187230754 1.0081256666666667 -0.02235 -0.0012953333333333332 -0.015656 0 0 0 0
188716633 1.0096926666666666 -0.026074 -0.0009196666666666667 -0.013859666666666668 0 0 0 0
190202512 1.0117513333333332 -0.029757999999999996 -0.0006396666666666666 -0.012195333333333332 0 0 0 0
191688391 1.0138356666666666 -0.032081 -0.00034899999999999997 -0.010605666666666666 0 0 0 0
193174270 1.0138926666666666 -0.03651666666666667 -0.000118 -0.009086666666666667 0 0 0 0
194660149 1.0145849999999998 -0.03874933333333333 0.00022166666666666667 -0.007521666666666666 0 0 0 0
196146028 1.0141486666666666 -0.04208666666666667 0.0006106666666666666 -0.006067999999999999 0 0 0 0
197631907 1.0141253333333333 -0.04376933333333333 0.0009123333333333332 -0.004683666666666667 0 0 0 0
199117786 1.0127730000000001 -0.048849666666666666 0.0012926666666666668 -0.003353 0 0 0 0
200603665 1.010854333333333 -0.050687666666666666 0.001663333333333333 -0.002103 0 0 0 0
202089544 1.0084503333333332 -0.05357599999999999 0.0020673333333333333 -0.0008993333333333333 0 0 0 0
203575423 1.0065323333333334 -0.05642733333333333 0.002443 0.0002666666666666667 0 0 0 0
205061302 1.0031376666666667 -0.05891 0.0027946666666666662 0.001379 0 0 0 0
206547181 1.0004606666666667 -0.06255966666666665 0.0031683333333333338 0.002469 0 0 0 0
208033060 0.9958113333333333 -0.06525966666666666 0.003555666666666666 0.0035146666666666664 0 0 0 0
209518939 0.9922953333333333 -0.06814833333333332 0.003978 0.004476 0 0 0 0
211004818 0.9935346666666667 -0.07188733333333333 0.004379666666666666 0.0054463333333333325 0 0 0 0
212490697 0.9975206666666666 -0.073099 0.004776333333333332 0.006398999999999999 0 0 0 0
213976576 1.0005066666666664 -0.07500899999999999 0.00516 0.007292666666666667 0 0 0 0
215462455 1.0036496666666666 -0.077656 0.005521333333333333 0.008192 0 0 0 0
216948334 1.0058946666666666 -0.07916666666666666 0.005926666666666667 0.009072 0 0 0 0
218434213 1.0079776666666667 -0.08167766666666666 0.0063163333333333335 0.009913333333333333 0 0 0 0
219920092 1.009364 -0.08232333333333333 0.0066949999999999996 0.010731 0 0 0 0
221405971 1.0098269999999998 -0.08430333333333331 0.007093666666666666 0.011499666666666667 0 0 0 0
222891850 1.0112616666666665 -0.08584566666666667 0.007509666666666666 0.01224233333333333 0 0 0 0
224377729 1.0103179999999998 -0.08766766666666666 0.007829333333333334 0.012981999999999997 0 0 0 0
225863608 1.0107503333333332 -0.08760000000000001 0.008255333333333333 0.013720333333333334 0 0 0 0
227349487 1.0092046666666665 -0.09099966666666666 0.008632333333333334 0.014369333333333333 0 0 0 0
228835366 1.0074739999999998 -0.09278299999999998 0.008963333333333332 0.015073999999999999 0 0 0 0
230321245 1.00606 -0.09260233333333334 0.009218333333333332 0.015719333333333335 0 0 0 0
231807124 1.0043819999999999 -0.09564033333333333 0.009618666666666666 0.016436 0 0 0 0
233293003 1.0006943333333334 -0.09715466666666667 0.009992333333333332 0.017083333333333332 0 0 0 0
234778882 0.9971889999999999 -0.09869933333333333 0.010327999999999999 0.017667999999999996 0 0 0 0
236264761 0.9938306666666668 -0.10083133333333334 0.010669333333333333 0.018289666666666666 0 0 0 0
237750640 0.9896093333333333 -0.10280099999999999 0.011032666666666666 0.01888933333333333 0 0 0 0
239236519 0.9849923333333332 -0.10534633333333332 0.011394999999999999 0.019458333333333334 0 0 0 0
240722398 0.9852003333333332 -0.10732366666666666 0.011722666666666666 0.020061 0 0 0 0
242208277 0.9896293333333332 -0.109012 0.01211233333333333 0.020644666666666665 0 0 0 0
243694156 0.9924133333333334 -0.11054666666666665 0.012497999999999999 0.021226333333333333 0 0 0 0
245180035 0.9960836666666666 -0.112537 0.012851000000000001 0.021824999999999997 0 0 0 0
246665914 0.9992586666666666 -0.11298833333333332 0.013203333333333333 0.022402666666666668 0 0 0 0
248151793 1.0011053333333333 -0.11468466666666667 0.013609666666666666 0.022979 0 0 0 0
249637672 1.0029703333333333 -0.11560066666666666 0.013884333333333334 0.023549333333333332 0 0 0 0
251123551 1.0043016666666666 -0.11735933333333333 0.014281333333333333 0.024085666666666665 0 0 0 0
252609430 1.0050979999999998 -0.11834800000000001 0.014612333333333333 0.024646666666666664 0 0 0 0
254095309 1.0053999999999998 -0.11911 0.014970666666666667 0.02516466666666667 0 0 0 0
255581188 1.0045856666666666 -0.12028066666666666 0.015335000000000001 0.025706666666666662 0 0 0 0
257067067 1.0038126666666667 -0.121403 0.015680666666666666 0.026209333333333334 0 0 0 0
258552946 1.0021233333333335 -0.12234366666666666 0.016020666666666662 0.026708 0 0 0 0
260038825 1.0003236666666666 -0.12366066666666667 0.016378666666666666 0.027178666666666663 0 0 0 0
261524704 0.9978309999999999 -0.124785 0.016682666666666665 0.027679 0 0 0 0
263010583 0.9948906666666666 -0.12651166666666663 0.017101333333333333 0.02810333333333333 0 0 0 0
264496462 0.9914866666666665 -0.1275383333333333 0.017449 0.02854 0 0 0 0
265982341 0.9873933333333333 -0.12857133333333332 0.017757 0.028936666666666666 0 0 0 0
267468220 0.9836386666666666 -0.130327 0.018122999999999997 0.029354333333333333 0 0 0 0
268954099 0.9787089999999999 -0.13278266666666666 0.018429 0.02975833333333333 0 0 0 0
270439978 0.9763189999999999 -0.13457866666666668 0.018791999999999996 0.030144666666666667 0 0 0 0
271925857 0.9807006666666666 -0.13673433333333335 0.019162 0.030641666666666668 0 0 0 0
273411736 0.9839703333333333 -0.13905533333333334 0.019499666666666665 0.03113266666666667 0 0 0 0
274897615 0.9875053333333332 -0.14043666666666665 0.019882333333333328 0.031571 0 0 0 0
276383494 0.9909053333333333 -0.142339 0.020281 0.032003333333333335 0 0 0 0
277869373 0.9931993333333333 -0.1426243333333333 0.020599999999999997 0.03247333333333333 0 0 0 0
279355252 0.9944379999999999 -0.14450933333333332 0.020988666666666662 0.03290666666666667 0 0 0 0
280841131 0.9957043333333334 -0.14611766666666665 0.021311 0.033326 0 0 0 0
282327010 0.9964740000000001 -0.14692233333333332 0.021642333333333333 0.033757333333333334 0 0 0 0
283812889 0.99713 -0.148318 0.02192233333333333 0.034191 0 0 0 0
285298768 0.9966913333333333 -0.14802266666666666 0.022260333333333333 0.034561666666666664 0 0 0 0
286784647 0.9959336666666667 -0.14937666666666666 0.022543333333333332 0.034984 0 0 0 0
288270526 0.9939479999999998 -0.14965466666666666 0.022654999999999998 0.035456333333333326 0 0 0 0
289756405 0.9914343333333333 -0.1514106666666667 0.023001999999999998 0.03594666666666666 0 0 0 0
291242284 0.9886170000000001 -0.15139533333333333 0.023229 0.03657433333333333 0 0 0 0
292728163 0.9860539999999999 -0.15122433333333332 0.02357833333333333 0.037164 0 0 0 0
294214042 0.9818653333333334 -0.15285966666666667 0.024098333333333333 0.037669999999999995 0 0 0 0
295699921 0.9788976666666667 -0.15348433333333333 0.024598 0.038238 0 0 0 0
297185800 0.9736696666666665 -0.1537863333333333 0.02507433333333333 0.03867733333333333 0 0 0 0
298671679 0.9699706666666668 -0.15434399999999998 0.025620333333333332 0.039032333333333336 0 0 0 0
300157558 0.9656223333333332 -0.15694599999999997 0.02591133333333333 0.039404999999999996 0 0 0 0
301643437 0.9775349999999998 -0.14247900000000002 0.025878333333333337 0.040449 0 0 0 0
303129316 0.9746723333333334 -0.16028466666666666 0.026958999999999997 0.04037133333333333 0 0 0 0
304615195 0.9781983333333333 -0.16096899999999997 0.027705666666666663 0.04063433333333333 0 0 0 0
306101074 0.9816303333333334 -0.16383966666666666 0.028429333333333334 0.04094833333333333 0 0 0 0
307586953 0.9841763333333333 -0.16433366666666666 0.028997000000000002 0.04130933333333334 0 0 0 0
309072832 0.98719 -0.16531366666666666 0.029612666666666666 0.04159666666666667 0 0 0 0
310558711 0.9888349999999999 -0.16771266666666668 0.030219 0.041912000000000005 0 0 0 0
312044590 0.9895893333333334 -0.16843066666666665 0.03066533333333333 0.04213633333333333 0 0 0 0
313530469 0.9904393333333333 -0.16978066666666664 0.03127099999999999 0.04235766666666666 0 0 0 0
315016348 0.990725 -0.16893333333333332 0.03166666666666666 0.04259966666666666 0 0 0 0
316502227 0.990092 -0.17008966666666664 0.03207366666666667 0.042864 0 0 0 0
317988106 0.988873 -0.17141299999999998 0.032819999999999995 0.04284399999999999 0 0 0 0
319473985 0.9867149999999999 -0.17019133333333336 0.03310033333333333 0.043214666666666665 0 0 0 0
320959864 0.983592 -0.17121533333333333 0.033484 0.043421999999999995 0 0 0 0
