# HZ S RI R 50
10000 2.7997163333333335 2.6641909999999998 -0.032183666666666666 -0.011466333333333332 0 0 0 0
1495879 0.012491333333333335 1.8693840000000002 0.011566666666666664 -0.101431 0 0 0 0
2981758 0.029525 1.77649 -0.12834099999999998 -0.172932 0 0 0 0
4467637 0.240336 1.3314276666666667 -0.08538799999999999 -0.08730433333333333 0 0 0 0
5953516 0.29283466666666663 1.1694513333333334 -0.067634 -0.06049766666666667 0 0 0 0
7439395 0.279382 1.0609976666666667 -0.05953933333333333 -0.04690166666666666 0 0 0 0
8925274 -0.881937 2.636760333333333 -0.03458 -0.003798 0 0 0 0
10411153 -0.5826026666666666 2.3889503333333333 -0.03141666666666666 -0.0005696666666666667 0 0 0 0
11897032 -0.37029466666666666 2.203006333333333 -0.029242666666666667 0.0016523333333333331 0 0 0 0
13382911 -0.21375433333333332 2.059296333333333 -0.027637666666666665 0.00325 0 0 0 0
14868790 -0.09015433333333334 1.9440516666666667 -0.026395666666666665 0.004378333333333333 0 0 0 0
16354669 0.012494666666666664 1.8479846666666666 -0.025389333333333333 0.005192 0 0 0 0
17840548 0.09999199999999998 1.762862333333333 -0.024606666666666666 0.0057866666666666665 0 0 0 0
19326427 0.1757043333333333 1.6881636666666666 -0.023975333333333335 0.006210666666666666 0 0 0 0
20812306 0.24212499999999998 1.6219183333333334 -0.023422666666666665 0.006495999999999999 0 0 0 0
22298185 0.30141566666666664 1.560592 -0.022939 0.006667333333333332 0 0 0 0
23784064 0.3542329999999999 1.5021903333333333 -0.022541666666666668 0.006754 0 0 0 0
25269943 0.4006496666666666 1.4476073333333332 -0.02223666666666667 0.006793666666666667 0 0 0 0
26755822 0.44367333333333336 1.396581333333333 -0.022029 0.006878666666666667 0 0 0 0
28241701 0.4957016666666666 1.36313 -0.021413333333333333 0.006586666666666666 0 0 0 0
29727580 0.5142476666666667 1.300058 -0.021462 0.0066226666666666665 0 0 0 0
31213459 0.5234893333333333 1.2201486666666668 -0.022584 0.006383 0 0 0 0
32699338 0.5276053333333333 1.1320943333333333 -0.024249 0.005998999999999999 0 0 0 0
34185217 0.5321739999999999 1.035963 -0.026038333333333333 0.005138 0 0 0 0
35671096 0.5418953333333333 0.942615 -0.02841166666666667 0.004130666666666666 0 0 0 0
37156975 0.5578673333333334 0.8509309999999999 -0.031571333333333326 0.002950666666666666 0 0 0 0
38642854 0.5752946666666665 0.7512516666666667 -0.034696 0.0004376666666666666 0 0 0 0
40128733 0.6052463333333333 0.6580679999999999 -0.038976 -0.0021650000000000003 0 0 0 0
41614612 0.6259023333333333 0.5490009999999999 -0.04131066666666666 -0.008707333333333333 0 0 0 0
43100491 0.6683293333333333 0.4522723333333333 -0.044440999999999994 -0.014934 0 0 0 0
44586370 0.713411 0.3553556666666667 -0.04512066666666667 -0.023678333333333332 0 0 0 0
46072249 0.773437 0.26746366666666666 -0.045350666666666664 -0.031870666666666665 0 0 0 0
47558128 0.833253 0.18921966666666667 -0.041509 -0.042733 0 0 0 0
49044007 0.895068 0.12865866666666667 -0.03503733333333334 -0.05536266666666667 0 0 0 0
50529886 0.9569113333333333 0.08882266666666666 -0.02233366666666667 -0.070348 0 0 0 0
52015765 1.0125696666666666 0.06443333333333334 -0.011373666666666666 -0.08702166666666666 0 0 0 0
53501644 1.043258 0.056075999999999994 0.030238 -0.09742366666666666 0 0 0 0
54987523 1.0519823333333334 0.04618833333333333 0.07238533333333333 -0.07140966666666665 0 0 0 0
56473402 1.0384006666666665 0.012747666666666666 0.072706 -0.03785666666666666 0 0 0 0
57959281 1.0114356666666666 -0.010560333333333333 0.060201000000000005 -0.008219333333333332 0 0 0 0
59445160 0.9757349999999999 -0.02532733333333333 0.045003666666666664 0.009252999999999999 0 0 0 0
60931039 0.9627403333333333 -0.031570999999999995 0.03954 0.013941666666666666 0 0 0 0
62416918 0.9658303333333333 -0.039406 0.03998633333333333 0.012898 0 0 0 0
63902797 0.9694216666666666 -0.048131999999999994 0.040499999999999994 0.011835666666666664 0 0 0 0
65388676 0.9718993333333332 -0.05591733333333333 0.04093533333333333 0.010719333333333332 0 0 0 0
66874555 0.974164 -0.05200366666666667 0.04057933333333333 0.012480666666666668 0 0 0 0
68360434 0.9699709999999999 -0.13274966666666665 0.042212 -0.0056949999999999995 0 0 0 0
69846313 0.9788556666666667 -0.030157999999999997 0.038423 0.018667666666666666 0 0 0 0
71332192 0.9805936666666666 -0.02342233333333333 0.037708 0.020389666666666664 0 0 0 0
72818071 0.9793546666666666 -0.05949599999999999 0.041298 0.012004999999999998 0 0 0 0
74303950 0.9801416666666667 -0.05746333333333334 0.040689333333333334 0.014210999999999998 0 0 0 0
75789829 0.981087 0.007827 0.03298633333333334 0.028047666666666665 0 0 0 0
77275708 0.9811146666666667 -0.00017899999999999996 0.034093 0.026926 0 0 0 0
78761587 0.9802419999999998 0.006164333333333332 0.032986 0.02839833333333333 0 0 0 0
80247466 0.974494 -0.106466 0.043341 0.004848333333333333 0 0 0 0
81733345 0.9761603333333332 -0.059505 0.04077033333333333 0.016012333333333333 0 0 0 0
83219224 0.9734319999999999 -0.06987466666666667 0.04154533333333333 0.014191333333333334 0 0 0 0
84705103 0.968562 -0.09283199999999998 0.043118 0.008904666666666667 0 0 0 0
86190982 0.9678533333333333 0.026188999999999997 0.028732333333333332 0.03353299999999999 0 0 0 0
87676861 0.9624943333333333 -0.08572966666666666 0.04265233333333333 0.011879666666666667 0 0 0 0
89162740 0.9601673333333333 -0.06061133333333333 0.04073833333333333 0.017727 0 0 0 0
90648619 0.9583466666666666 -0.077927 0.042128 0.014568666666666667 0 0 0 0
92134498 0.9622586666666667 -0.07567066666666666 0.041839666666666664 0.015893666666666667 0 0 0 0
93620377 0.9672559999999999 -0.044491666666666665 0.03851666666666666 0.023319333333333334 0 0 0 0
95106256 0.9687926666666666 -0.07111033333333333 0.041202666666666665 0.018621666666666665 0 0 0 0
96592135 0.9705233333333334 -0.06942 0.040966999999999996 0.019549333333333335 0 0 0 0
98078014 0.9729896666666665 -0.06522966666666666 0.040327666666666664 0.021254 0 0 0 0
99563893 0.9749596666666666 -0.06182566666666667 0.039827666666666664 0.022575333333333336 0 0 0 0
101049772 0.9753783333333332 -0.07483166666666666 0.04112566666666666 0.020676666666666663 0 0 0 0
102535651 0.976702 -0.07570366666666667 0.04120966666666667 0.020793 0 0 0 0
104021530 0.976428 -0.07540233333333332 0.041111666666666664 0.021443666666666666 0 0 0 0
105507409 0.9770409999999999 -0.07593166666666666 0.041181999999999996 0.021804666666666667 0 0 0 0
106993288 0.975873 -0.077067 0.041189333333333335 0.022116666666666663 0 0 0 0
108479167 0.9753879999999999 -0.07754766666666665 0.04118833333333333 0.022485333333333333 0 0 0 0
109965046 0.974772 -0.078651 0.041165999999999994 0.022836333333333333 0 0 0 0
111450925 0.972424 -0.07833000000000001 0.041138999999999995 0.023238666666666664 0 0 0 0
112936804 0.9712976666666666 -0.07876733333333333 0.04117333333333333 0.023614333333333334 0 0 0 0
114422683 0.967006 -0.08525 0.041172 0.023956666666666668 0 0 0 0
115908562 0.9652196666666667 -0.07929766666666667 0.04115 0.024322999999999997 0 0 0 0
117394441 0.9622963333333333 -0.07949366666666666 0.041132666666666665 0.024648000000000003 0 0 0 0
118880320 0.958391 -0.080509 0.041069666666666664 0.024998999999999997 0 0 0 0
120366199 0.9561470000000001 -0.080423 0.04108066666666666 0.025336666666666664 0 0 0 0
121852078 0.961317 -0.08355633333333334 0.041202666666666665 0.02575833333333333 0 0 0 0
123337957 0.9655763333333334 -0.08420766666666665 0.041305666666666664 0.026153333333333334 0 0 0 0
124823836 0.9678213333333333 -0.08606466666666668 0.041335333333333335 0.026612333333333335 0 0 0 0
126309715 0.9709263333333333 -0.08735566666666666 0.04142066666666667 0.027045666666666666 0 0 0 0
127795594 0.9742566666666665 -0.08784633333333333 0.041618666666666665 0.02718633333333333 0 0 0 0
129281473 0.9761423333333333 -0.08844833333333332 0.04149799999999999 0.027932333333333337 0 0 0 0
130767352 0.9785966666666666 -0.08819833333333334 0.04156 0.028402 0 0 0 0
132253231 0.9805726666666665 -0.08898099999999999 0.041604 0.028839333333333335 0 0 0 0
133739110 0.9817173333333332 -0.08937466666666667 0.041619666666666666 0.029309666666666668 0 0 0 0
135224989 0.9675423333333333 -0.09987433333333334 0.041610666666666664 0.028697 0 0 0 0
136710868 0.967943 -0.09984299999999999 0.041625999999999996 0.02914 0 0 0 0
138196747 0.9681686666666667 -0.100379 0.041667333333333334 0.02958433333333333 0 0 0 0
139682626 0.9663913333333333 -0.10004266666666667 0.041699999999999994 0.03000133333333333 0 0 0 0
141168505 0.9655829999999999 -0.10002966666666666 0.04171233333333333 0.030422333333333332 0 0 0 0
142654384 0.9646080000000001 -0.09983533333333333 0.041771 0.030841666666666663 0 0 0 0
144140263 0.9626809999999999 -0.10023099999999999 0.04179166666666666 0.03123933333333333 0 0 0 0
145626142 0.9602599999999999 -0.10028933333333334 0.04179466666666666 0.031640666666666664 0 0 0 0
147112021 0.9581109999999999 -0.10021633333333335 0.041805999999999996 0.032037666666666666 0 0 0 0
148597900 0.9545266666666665 -0.10047033333333333 0.04176466666666666 0.03242266666666666 0 0 0 0
150083779 0.9519463333333333 -0.09989833333333333 0.04165533333333333 0.03275733333333333 0 0 0 0
151569658 0.9553026666666666 -0.10206333333333334 0.041763999999999996 0.03322733333333333 0 0 0 0
153055537 0.958183 -0.10290966666666668 0.041846333333333326 0.03367233333333333 0 0 0 0
154541416 0.9622313333333332 -0.10387633333333332 0.04195866666666666 0.03419766666666666 0 0 0 0
156027295 0.9636456666666666 -0.104968 0.04221766666666667 0.03437 0 0 0 0
157513174 0.9656663333333333 -0.10606033333333333 0.04210966666666666 0.035132 0 0 0 0
158999053 0.9660506666666666 -0.10719533333333334 0.04221866666666666 0.03558466666666667 0 0 0 0
160484932 0.968289 -0.108181 0.04223766666666667 0.036063333333333336 0 0 0 0
161970811 0.969049 -0.10914033333333331 0.042381 0.036544 0 0 0 0
163456690 0.969401 -0.10977899999999999 0.042733 0.036409 0 0 0 0
164942569 0.9708896666666667 -0.10328099999999998 0.042251 0.03775266666666667 0 0 0 0
166428448 0.9708859999999999 -0.103977 0.04228633333333333 0.03817266666666667 0 0 0 0
167914327 0.9697253333333333 -0.10526266666666664 0.042405 0.038625 0 0 0 0
169400206 0.9683433333333333 -0.10582266666666665 0.04240266666666666 0.039058999999999996 0 0 0 0
170886085 0.9669333333333332 -0.10661233333333334 0.042491666666666664 0.039522 0 0 0 0
172371964 0.965662 -0.10711333333333334 0.04252533333333334 0.039916999999999994 0 0 0 0
173857843 0.9632193333333332 -0.10708066666666667 0.04251266666666667 0.040348999999999996 0 0 0 0
175343722 0.9601976666666665 -0.10854399999999999 0.042576333333333334 0.04082433333333333 0 0 0 0
176829601 0.9567546666666665 -0.10933533333333334 0.04260199999999999 0.041161666666666666 0 0 0 0
178315480 0.9540513333333333 -0.10972366666666666 0.042644666666666664 0.04157833333333333 0 0 0 0
179801359 0.9494383333333334 -0.11142133333333333 0.042659333333333334 0.04195233333333333 0 0 0 0
181287238 0.9524486666666667 -0.11341133333333332 0.04278066666666667 0.04252433333333333 0 0 0 0
182773117 0.9561616666666666 -0.11396666666666666 0.04292699999999999 0.04307033333333333 0 0 0 0
184258996 0.9591693333333332 -0.11467833333333333 0.043058 0.04368233333333333 0 0 0 0
185744875 0.9612363333333331 -0.11660899999999999 0.043145666666666666 0.04421699999999999 0 0 0 0
187230754 0.9641506666666666 -0.11750266666666666 0.04330666666666667 0.044781666666666664 0 0 0 0
188716633 0.9654366666666667 -0.11855266666666665 0.043442999999999996 0.045225999999999995 0 0 0 0
190202512 0.9668903333333333 -0.11888100000000001 0.04357 0.04584366666666667 0 0 0 0
191688391 0.9673299999999998 -0.12007033333333333 0.043901 0.04638133333333333 0 0 0 0
193174270 0.9682136666666665 -0.12063033333333334 0.04382599999999999 0.046881000000000006 0 0 0 0
194660149 0.9678133333333332 -0.12109100000000002 0.04395533333333333 0.047390999999999996 0 0 0 0
196146028 0.9686109999999999 -0.12129766666666666 0.044047 0.047989000000000004 0 0 0 0
197631907 0.9672413333333332 -0.12200966666666664 0.04411966666666667 0.04842733333333333 0 0 0 0
199117786 0.9663573333333334 -0.12352599999999998 0.044305 0.048924999999999996 0 0 0 0
200603665 0.9641839999999999 -0.12413266666666664 0.04440999999999999 0.049369333333333335 0 0 0 0
202089544 0.962698 -0.125089 0.044528 0.049909999999999996 0 0 0 0
203575423 0.9597753333333332 -0.12592599999999998 0.04463966666666667 0.050388999999999996 0 0 0 0
205061302 0.9574226666666666 -0.12747033333333332 0.04452233333333333 0.05107299999999999 0 0 0 0
206547181 0.9529176666666667 -0.13390533333333332 0.045081666666666666 0.05102733333333333 0 0 0 0
208033060 0.9497059999999999 -0.1356383333333333 0.04522433333333334 0.05146233333333333 0 0 0 0
209518939 0.9445246666666667 -0.13719133333333333 0.045336333333333326 0.051847333333333336 0 0 0 0
211004818 0.9465246666666666 -0.138258 0.04555866666666667 0.052408333333333335 0 0 0 0
212490697 0.9496819999999999 -0.13897666666666667 0.045757 0.053052333333333326 0 0 0 0
213976576 0.9537306666666666 -0.14103333333333334 0.046044666666666664 0.053636666666666666 0 0 0 0
215462455 0.9557523333333333 -0.14184133333333332 0.04627033333333333 0.054196999999999995 0 0 0 0
216948334 0.959075 -0.14235066666666665 0.046550666666666664 0.05478733333333333 0 0 0 0
218434213 0.960924 -0.14404233333333333 0.046824333333333336 0.055343666666666666 0 0 0 0
219920092 0.962303 -0.14417866666666668 0.04697933333333333 0.055904333333333334 0 0 0 0
221405971 0.9648179999999998 -0.145256 0.04712266666666666 0.05659466666666666 0 0 0 0
222891850 0.9643356666666667 -0.1464416666666667 0.04742666666666666 0.05701666666666666 0 0 0 0
224377729 0.9642053333333332 -0.14551766666666666 0.047578333333333334 0.0576 0 0 0 0
225863608 0.9644233333333334 -0.14628200000000002 0.04794833333333333 0.05823066666666666 0 0 0 0
227349487 0.9639356666666666 -0.146609 0.048086 0.058685999999999995 0 0 0 0
228835366 0.9623763333333333 -0.147679 0.04837933333333334 0.05918333333333334 0 0 0 0
230321245 0.9611433333333332 -0.14886833333333332 0.048579 0.059762666666666665 0 0 0 0
231807124 0.958853 -0.15006333333333333 0.04883099999999999 0.060302999999999995 0 0 0 0
233293003 0.9563949999999999 -0.15075666666666668 0.04911666666666667 0.060741666666666666 0 0 0 0
234778882 0.9529533333333333 -0.15170899999999998 0.04930933333333333 0.06124866666666666 0 0 0 0
236264761 0.949464 -0.15306766666666666 0.049566 0.06164466666666666 0 0 0 0
237750640 0.946001 -0.15348166666666666 0.049832333333333326 0.062141666666666664 0 0 0 0
239236519 0.941659 -0.155301 0.05005666666666667 0.062594 0 0 0 0
240722398 0.9413893333333334 -0.15655399999999997 0.050404333333333336 0.06305133333333332 0 0 0 0
242208277 0.9456119999999999 -0.15799733333333332 0.05072933333333333 0.06370433333333334 0 0 0 0
243694156 0.9485686666666666 -0.15980433333333333 0.051171333333333326 0.06430333333333334 0 0 0 0
245180035 0.9522913333333333 -0.16093233333333334 0.05145166666666666 0.06493833333333332 0 0 0 0
246665914 0.9556433333333333 -0.16197399999999998 0.051839 0.065526 0 0 0 0
248151793 0.9572819999999999 -0.16347799999999998 0.052322999999999995 0.06610666666666666 0 0 0 0
249637672 0.9591103333333333 -0.16333033333333333 0.05262466666666667 0.06673199999999999 0 0 0 0
251123551 0.9597766666666666 -0.16454833333333332 0.052906999999999996 0.06730433333333333 0 0 0 0
252609430 0.9620569999999999 -0.16532099999999997 0.05340333333333333 0.06786133333333333 0 0 0 0
254095309 0.9615960000000001 -0.16610999999999998 0.05370366666666666 0.068392 0 0 0 0
255581188 0.960718 -0.16644866666666663 0.05410566666666666 0.06885433333333332 0 0 0 0
257067067 0.9603113333333333 -0.16689500000000002 0.05434599999999999 0.06939899999999999 0 0 0 0
258552946 0.9590926666666666 -0.167241 0.054772999999999995 0.06986866666666666 0 0 0 0
260038825 0.9577193333333334 -0.16781366666666667 0.05503799999999999 0.07041533333333333 0 0 0 0
261524704 0.9552366666666666 -0.16880699999999998 0.055488666666666665 0.07082866666666666 0 0 0 0
263010583 0.952863 -0.16984166666666667 0.055711333333333335 0.07125966666666667 0 0 0 0
264496462 0.9494273333333334 -0.171047 0.056152999999999995 0.07160333333333332 0 0 0 0
265982341 0.9458689999999998 -0.17134066666666664 0.05641466666666667 0.07205933333333332 0 0 0 0
267468220 0.9407233333333332 -0.17281333333333332 0.056787333333333335 0.07238933333333332 0 0 0 0
268954099 0.9373039999999999 -0.17396033333333333 0.055216333333333326 0.07453633333333333 0 0 0 0
270439978 0.935033 -0.17571633333333336 0.055612999999999996 0.074851 0 0 0 0
271925857 0.9389179999999999 -0.1782253333333333 0.05599066666666667 0.07541266666666666 0 0 0 0
273411736 0.9430423333333333 -0.17871399999999998 0.05651866666666667 0.076012 0 0 0 0
274897615 0.9462976666666665 -0.1799863333333333 0.056846999999999995 0.07671766666666666 0 0 0 0
276383494 0.9493613333333333 -0.18162033333333333 0.05739233333333333 0.07726533333333332 0 0 0 0
277869373 0.9509813333333332 -0.18285266666666666 0.05783633333333333 0.07783699999999999 0 0 0 0
279355252 0.9535076666666666 -0.18495299999999998 0.05823866666666667 0.0784 0 0 0 0
280841131 0.9555750000000001 -0.18547933333333333 0.058705999999999994 0.07898066666666666 0 0 0 0
282327010 0.956168 -0.18609899999999996 0.05894933333333333 0.07941966666666667 0 0 0 0
283812889 0.956498 -0.18676266666666666 0.059326 0.07985233333333333 0 0 0 0
285298768 0.955598 -0.18767366666666666 0.05968966666666667 0.08028866666666667 0 0 0 0
286784647 0.9551226666666667 -0.18763866666666665 0.059923000000000004 0.080874 0 0 0 0
288270526 0.9533483333333335 -0.18936466666666665 0.060115 0.081399 0 0 0 0
289756405 0.9507726666666666 -0.19001466666666667 0.060430333333333336 0.08203266666666666 0 0 0 0
291242284 0.9491033333333334 -0.189913 0.06048066666666666 0.08288833333333333 0 0 0 0
292728163 0.9467823333333333 -0.18949633333333332 0.060957333333333336 0.083673 0 0 0 0
294214042 0.9431346666666667 -0.19050566666666663 0.061481999999999995 0.08430099999999999 0 0 0 0
295699921 0.9386816666666666 -0.19083699999999998 0.06215266666666666 0.08484933333333333 0 0 0 0
297185800 0.935001 -0.191456 0.062771 0.08551533333333333 0 0 0 0
298671679 0.9309179999999999 -0.19224 0.06358199999999999 0.08599399999999999 0 0 0 0
300157558 0.9272486666666666 -0.19377566666666662 0.06355433333333332 0.08667266666666665 0 0 0 0
301643437 0.931592 -0.19563933333333333 0.064787 0.086931 0 0 0 0
303129316 0.9352816666666666 -0.19825933333333334 0.06565833333333333 0.08753899999999999 0 0 0 0
304615195 0.9385473333333333 -0.19894166666666663 0.06650299999999999 0.08801199999999999 0 0 0 0
306101074 0.9416849999999999 -0.2000023333333333 0.067123 0.088694 0 0 0 0
307586953 0.9449483333333333 -0.2019093333333333 0.06809699999999999 0.08921766666666667 0 0 0 0
309072832 0.9473716666666665 -0.20297333333333328 0.06839266666666666 0.09007100000000001 0 0 0 0
310558711 0.9485509999999999 -0.20407766666666666 0.069619 0.090012 0 0 0 0
312044590 0.9492539999999999 -0.20457166666666665 0.07032733333333333 0.09026566666666666 0 0 0 0
313530469 0.9502366666666666 -0.20502599999999999 0.07113433333333333 0.09051299999999998 0 0 0 0
315016348 0.9500973333333333 -0.20616366666666666 0.07170666666666667 0.090832 0 0 0 0
316502227 0.9499199999999999 -0.20536666666666664 0.072133 0.09120766666666666 0 0 0 0
317988106 0.9489026666666667 -0.20658366666666664 0.07280699999999998 0.091425 0 0 0 0
319473985 0.9472403333333334 -0.20720033333333335 0.07347833333333333 0.091644 0 0 0 0
320959864 0.944797 -0.20694766666666667 0.07407866666666665 0.09183599999999999 0 0 0 0
322445743 0.9420493333333333 -0.2069106666666667 0.07464966666666667 0.092108 0 0 0 0
323931622 0.9387626666666666 -0.20785766666666664 0.075165 0.09240833333333333 0 0 0 0
325417501 0.9362576666666667 -0.20821966666666664 0.07600799999999999 0.09249966666666666 0 0 0 0
326903380 0.931257 -0.20765266666666665 0.07651899999999999 0.09281033333333333 0 0 0 0
