# HZ S RI R 50
10000 3.1086549999999997 2.1463769999999998 -0.027230999999999998 -0.04700133333333334 0 0 0 0
1495879 0.12480833333333333 2.9432979999999995 -0.07729933333333333 -0.012994999999999996 0 0 0 0
2981758 0.068239 1.749992 -0.10785033333333333 -0.144594 0 0 0 0
4467637 0.2754803333333333 1.3076429999999999 -0.07278433333333334 -0.07330199999999999 0 0 0 0
5953516 0.3290363333333333 1.1529273333333334 -0.05871066666666667 -0.050563000000000004 0 0 0 0
7439395 0.316034 1.0542826666666665 -0.05237666666666666 -0.038904999999999995 0 0 0 0
8925274 -0.8975773333333332 2.8070416666666667 -0.029237666666666665 0.000923 0 0 0 0
10411153 -0.5595243333333333 2.5279209999999996 -0.026842333333333333 0.0032916666666666667 0 0 0 0
11897032 -0.33282799999999996 2.3166873333333333 -0.025182333333333334 0.004880666666666667 0 0 0 0
13382911 -0.16344966666666666 2.15738 -0.024052999999999998 0.006056333333333332 0 0 0 0
14868790 -0.03115233333333333 2.023730333333333 -0.023062666666666665 0.006699333333333332 0 0 0 0
16354669 0.07567366666666665 1.9122716666666666 -0.022362999999999997 0.007202999999999999 0 0 0 0
17840548 0.1661643333333333 1.817741 -0.02177866666666667 0.007508999999999999 0 0 0 0
19326427 0.24543166666666666 1.732627 -0.021337 0.0076939999999999995 0 0 0 0
20812306 0.31270333333333333 1.6573213333333332 -0.02093166666666666 0.007777666666666666 0 0 0 0
22298185 0.3705919999999999 1.5864756666666664 -0.020637333333333334 0.007800666666666666 0 0 0 0
23784064 0.4216566666666666 1.5210043333333332 -0.020366333333333334 0.007756333333333334 0 0 0 0
25269943 0.4692763333333333 1.460049 -0.020154333333333333 0.007646333333333333 0 0 0 0
26755822 0.5089466666666667 1.402283 -0.019979999999999998 0.007523666666666666 0 0 0 0
28241701 0.5444579999999999 1.3481376666666665 -0.019817 0.007366999999999999 0 0 0 0
29727580 0.5756933333333333 1.2949026666666665 -0.019708666666666666 0.007185666666666667 0 0 0 0
31213459 0.5808863333333334 1.2156909999999999 -0.020705333333333333 0.006946999999999999 0 0 0 0
32699338 0.5818226666666667 1.1257243333333333 -0.022213 0.006557 0 0 0 0
34185217 0.5821046666666666 1.0284933333333333 -0.023852666666666668 0.005760666666666666 0 0 0 0
35671096 0.5888009999999999 0.9346623333333333 -0.025961333333333336 0.004803666666666666 0 0 0 0
37156975 0.6016076666666667 0.8410166666666666 -0.028714666666666666 0.003551666666666667 0 0 0 0
38642854 0.614754 0.7405330000000001 -0.031536666666666664 0.0012393333333333332 0 0 0 0
40128733 0.641702 0.645308 -0.03520266666666667 -0.001331 0 0 0 0
41614612 0.6572406666666666 0.5358063333333333 -0.037226 -0.007181333333333333 0 0 0 0
43100491 0.6962856666666666 0.43718966666666664 -0.03970833333333333 -0.012964999999999999 0 0 0 0
44586370 0.7375766666666667 0.3396503333333333 -0.03996233333333333 -0.02076 0 0 0 0
46072249 0.7942223333333334 0.2511023333333333 -0.039647999999999996 -0.028088000000000002 0 0 0 0
47558128 0.8497806666666667 0.17255099999999995 -0.03577633333333333 -0.037483999999999996 0 0 0 0
49044007 0.9081853333333332 0.11334933333333333 -0.029909666666666668 -0.04789833333333333 0 0 0 0
50529886 0.9616713333333333 0.07534933333333332 -0.018257666666666665 -0.06065333333333334 0 0 0 0
52015765 1.0087356666666665 0.05154266666666667 -0.008109 -0.07452166666666667 0 0 0 0
53501644 1.0293786666666667 0.041988 0.027846666666666665 -0.08221666666666667 0 0 0 0
54987523 1.0283296666666666 0.028527333333333335 0.06345566666666666 -0.05893966666666667 0 0 0 0
56473402 1.0050806666666665 -0.010321333333333332 0.06338066666666667 -0.02980633333333333 0 0 0 0
57959281 0.9719249999999999 -0.03876533333333333 0.05176399999999999 -0.004879 0 0 0 0
59445160 0.9320063333333333 -0.06073166666666666 0.038239666666666665 0.009721 0 0 0 0
60931039 0.9174513333333333 -0.06946133333333333 0.03344133333333333 0.013595666666666667 0 0 0 0
62416918 0.921044 -0.078267 0.033957666666666664 0.012753333333333334 0 0 0 0
63902797 0.9223946666666666 -0.08769566666666667 0.034485666666666664 0.011858333333333334 0 0 0 0
65388676 0.9248656666666666 -0.09628466666666666 0.034993333333333335 0.010920333333333332 0 0 0 0
66874555 0.9279293333333333 -0.09367433333333333 0.03471766666666666 0.012414666666666666 0 0 0 0
68360434 0.9190673333333332 -0.17157766666666666 0.03688833333333333 -0.003274666666666666 0 0 0 0
69846313 0.931659 -0.074054 0.032691 0.01774833333333333 0 0 0 0
71332192 0.9332713333333333 -0.06941433333333333 0.032071666666666665 0.019229333333333334 0 0 0 0
72818071 0.9301733333333333 -0.11080066666666666 0.035664666666666664 0.011804333333333333 0 0 0 0
74303950 0.9329446666666668 -0.10411033333333333 0.035122333333333325 0.013966333333333334 0 0 0 0
75789829 0.9363746666666666 -0.04109533333333333 0.027867999999999997 0.02578333333333333 0 0 0 0
77275708 0.9349253333333333 -0.050760666666666676 0.028982666666666664 0.024828666666666666 0 0 0 0
78761587 0.9349273333333332 -0.04570466666666666 0.028079999999999997 0.026145333333333333 0 0 0 0
80247466 0.9238336666666666 -0.15389233333333333 0.03805399999999999 0.005966666666666666 0 0 0 0
81733345 0.9276853333333333 -0.11050266666666667 0.035477999999999996 0.015492666666666665 0 0 0 0
83219224 0.9239936666666666 -0.12024966666666666 0.036317333333333326 0.013890666666666666 0 0 0 0
84705103 0.9185093333333333 -0.14458533333333334 0.03789766666666666 0.009486666666666666 0 0 0 0
86190982 0.9253579999999999 -0.030330666666666665 0.024489666666666667 0.03067066666666667 0 0 0 0
87676861 0.9122869999999998 -0.13868666666666665 0.037614999999999996 0.011788666666666666 0 0 0 0
89162740 0.9122113333333333 -0.11560833333333333 0.035749666666666666 0.016959 0 0 0 0
90648619 0.9092399999999998 -0.13318066666666664 0.037193333333333335 0.014145666666666667 0 0 0 0
92134498 0.9117926666666666 -0.132765 0.03701633333333333 0.015308333333333334 0 0 0 0
93620377 0.9184216666666667 -0.10304233333333332 0.03387233333333333 0.021839666666666663 0 0 0 0
95106256 0.9176653333333334 -0.12970133333333334 0.036438 0.017695999999999996 0 0 0 0
96592135 0.9211363333333332 -0.12899333333333332 0.036311333333333334 0.018542999999999997 0 0 0 0
98078014 0.9219616666666666 -0.12463466666666667 0.03576933333333333 0.020047666666666665 0 0 0 0
99563893 0.9254283333333333 -0.12422933333333333 0.035387333333333326 0.021181999999999996 0 0 0 0
101049772 0.9246460000000001 -0.13683599999999999 0.03662433333333333 0.019525666666666667 0 0 0 0
102535651 0.9250453333333333 -0.13905566666666663 0.036725999999999995 0.01975333333333333 0 0 0 0
104021530 0.9255796666666667 -0.14014733333333332 0.03679833333333333 0.020104666666666663 0 0 0 0
105507409 0.9251473333333333 -0.14135799999999998 0.036858999999999996 0.020442333333333333 0 0 0 0
106993288 0.9239599999999999 -0.14294966666666667 0.03697199999999999 0.020685666666666665 0 0 0 0
108479167 0.9241063333333333 -0.144084 0.03704833333333333 0.020984000000000003 0 0 0 0
109965046 0.9220606666666665 -0.14701733333333333 0.03708633333333333 0.021324 0 0 0 0
111450925 0.9197363333333333 -0.14669933333333332 0.03716833333333333 0.021603333333333335 0 0 0 0
112936804 0.9171396666666667 -0.148453 0.037254333333333334 0.021897 0 0 0 0
114422683 0.9157236666666666 -0.14893866666666666 0.03731966666666667 0.022184 0 0 0 0
115908562 0.913132 -0.15102866666666664 0.03739166666666666 0.022477333333333335 0 0 0 0
117394441 0.9096996666666667 -0.15151366666666666 0.037432999999999994 0.02273266666666667 0 0 0 0
118880320 0.90585 -0.15326166666666666 0.03746466666666666 0.02308033333333333 0 0 0 0
120366199 0.9029753333333332 -0.15566799999999997 0.03754266666666666 0.02333033333333333 0 0 0 0
121852078 0.9068013333333333 -0.1571693333333333 0.037691999999999996 0.023751333333333336 0 0 0 0
123337957 0.910732 -0.15979333333333334 0.03785033333333333 0.024052666666666667 0 0 0 0
124823836 0.9140746666666667 -0.16184066666666663 0.037968666666666664 0.024493 0 0 0 0
126309715 0.9166123333333333 -0.16453066666666666 0.03812666666666667 0.02486533333333333 0 0 0 0
127795594 0.9194096666666667 -0.1662243333333333 0.038265666666666656 0.025250666666666664 0 0 0 0
129281473 0.9211606666666665 -0.16855633333333334 0.038410999999999994 0.025605666666666665 0 0 0 0
130767352 0.9238393333333332 -0.17128733333333335 0.038530666666666664 0.02601 0 0 0 0
132253231 0.9245593333333334 -0.17089899999999997 0.03861766666666666 0.02643833333333333 0 0 0 0
133739110 0.9243333333333333 -0.172556 0.03869333333333333 0.026779666666666667 0 0 0 0
135224989 0.9105393333333334 -0.1822693333333333 0.03877933333333333 0.026261999999999997 0 0 0 0
136710868 0.9103026666666666 -0.18359033333333333 0.038864666666666665 0.026564666666666667 0 0 0 0
138196747 0.9101663333333333 -0.18453566666666665 0.038925999999999995 0.02696033333333333 0 0 0 0
139682626 0.9094023333333334 -0.1853373333333333 0.03909666666666667 0.027306666666666667 0 0 0 0
141168505 0.9089376666666666 -0.1857416666666667 0.03923966666666666 0.027705999999999998 0 0 0 0
142654384 0.9071326666666667 -0.18679333333333337 0.039303 0.027995 0 0 0 0
144140263 0.904647 -0.18795399999999998 0.03942233333333334 0.028370999999999997 0 0 0 0
145626142 0.9032883333333334 -0.188683 0.03955033333333333 0.028685000000000002 0 0 0 0
147112021 0.8999653333333333 -0.18926500000000002 0.03957166666666666 0.029056 0 0 0 0
148597900 0.8966933333333333 -0.18989899999999998 0.039619333333333326 0.029351666666666665 0 0 0 0
150083779 0.8923656666666666 -0.19246766666666665 0.040209333333333326 0.028240999999999995 0 0 0 0
151569658 0.8989273333333332 -0.18355866666666665 0.039692 0.030217333333333336 0 0 0 0
153055537 0.8947229999999999 -0.203858 0.039886333333333336 0.030616999999999995 0 0 0 0
154541416 0.90203 -0.19413433333333333 0.04000933333333333 0.031058333333333334 0 0 0 0
156027295 0.8988869999999999 -0.20750399999999997 0.040215 0.03144166666666666 0 0 0 0
157513174 0.9045596666666667 -0.19865033333333332 0.040342333333333334 0.031848666666666664 0 0 0 0
158999053 0.9018249999999999 -0.2117573333333333 0.04060866666666666 0.032242333333333324 0 0 0 0
160484932 0.9069726666666666 -0.20217766666666664 0.040641666666666666 0.03266933333333333 0 0 0 0
161970811 0.9028203333333332 -0.21503299999999997 0.040799 0.033048999999999995 0 0 0 0
163456690 0.9080136666666667 -0.205347 0.041027666666666664 0.03339966666666666 0 0 0 0
164942569 0.8807223333333332 -0.23653066666666667 0.041176 0.033817 0 0 0 0
166428448 0.906493 -0.208868 0.04132799999999999 0.03421066666666667 0 0 0 0
167914327 0.901585 -0.22078233333333333 0.04145466666666667 0.034590333333333334 0 0 0 0
169400206 0.90081 -0.22272999999999998 0.04180766666666667 0.03465933333333333 0 0 0 0
170886085 0.8989253333333332 -0.22449066666666664 0.04196933333333334 0.035026666666666664 0 0 0 0
172371964 0.8969576666666665 -0.2259233333333333 0.042118 0.035369 0 0 0 0
173857843 0.895069 -0.22754933333333333 0.04228633333333333 0.035729333333333335 0 0 0 0
175343722 0.8918529999999999 -0.228588 0.04242033333333334 0.036081 0 0 0 0
176829601 0.8877136666666666 -0.22983133333333333 0.042603666666666665 0.036444 0 0 0 0
178315480 0.8842026666666666 -0.23175266666666666 0.04265999999999999 0.036719 0 0 0 0
179801359 0.8803633333333334 -0.23314966666666664 0.04282733333333333 0.03710133333333333 0 0 0 0
181287238 0.882314 -0.23587799999999998 0.04306766666666667 0.03750633333333332 0 0 0 0
182773117 0.8849873333333332 -0.2378733333333333 0.04333666666666667 0.037976333333333334 0 0 0 0
184258996 0.8896149999999998 -0.2349463333333333 0.043574666666666664 0.03848033333333334 0 0 0 0
185744875 0.8914909999999999 -0.237196 0.04387266666666667 0.03890866666666666 0 0 0 0
187230754 0.893848 -0.23923766666666668 0.04411933333333333 0.039397999999999996 0 0 0 0
188716633 0.8948046666666666 -0.24169999999999997 0.044406666666666664 0.03979166666666666 0 0 0 0
190202512 0.8957273333333333 -0.24290966666666663 0.044668 0.04025833333333333 0 0 0 0
191688391 0.8965073333333333 -0.24469533333333332 0.044726999999999996 0.04067233333333333 0 0 0 0
193174270 0.896664 -0.2467523333333333 0.045094333333333333 0.04115566666666666 0 0 0 0
194660149 0.896476 -0.24827599999999997 0.045415333333333335 0.04155966666666667 0 0 0 0
196146028 0.8953206666666667 -0.249664 0.04562899999999999 0.041957333333333326 0 0 0 0
197631907 0.8945556666666667 -0.250762 0.045832333333333336 0.04242066666666666 0 0 0 0
199117786 0.892382 -0.2526613333333333 0.045922 0.043039999999999995 0 0 0 0
200603665 0.8909529999999999 -0.25432999999999995 0.046341333333333325 0.043164666666666664 0 0 0 0
202089544 0.8879866666666667 -0.25472199999999995 0.04661433333333333 0.043560999999999996 0 0 0 0
203575423 0.885817 -0.2566076666666666 0.04686633333333333 0.043954 0 0 0 0
205061302 0.8824593333333333 -0.2578733333333333 0.047085333333333326 0.04432499999999999 0 0 0 0
206547181 0.8789226666666666 -0.2606886666666667 0.04734466666666666 0.044643999999999996 0 0 0 0
208033060 0.8752939999999999 -0.261864 0.04761666666666667 0.045028 0 0 0 0
209518939 0.8704603333333332 -0.26269866666666664 0.047847 0.04534566666666666 0 0 0 0
211004818 0.8707373333333333 -0.2658753333333333 0.04818 0.04575066666666666 0 0 0 0
212490697 0.8747383333333334 -0.2686263333333333 0.04863733333333334 0.04625766666666667 0 0 0 0
213976576 0.8770889999999999 -0.27058866666666664 0.04890733333333334 0.04673733333333333 0 0 0 0
215462455 0.8796703333333333 -0.273536 0.04939533333333333 0.04718233333333333 0 0 0 0
216948334 0.8821723333333333 -0.2751496666666667 0.04972433333333333 0.04766766666666667 0 0 0 0
218434213 0.8841706666666667 -0.2778313333333333 0.05021766666666667 0.048101000000000005 0 0 0 0
219920092 0.8843056666666667 -0.2793273333333333 0.050535333333333335 0.04858833333333333 0 0 0 0
221405971 0.8853363333333333 -0.28084833333333337 0.05094133333333334 0.04899699999999999 0 0 0 0
222891850 0.8854203333333334 -0.2829516666666666 0.05132933333333334 0.049417666666666665 0 0 0 0
224377729 0.8845603333333332 -0.28418899999999997 0.051684999999999995 0.04987933333333333 0 0 0 0
225863608 0.88435 -0.28564666666666666 0.052102666666666665 0.05027366666666666 0 0 0 0
227349487 0.883882 -0.28721966666666665 0.05256333333333333 0.05063933333333333 0 0 0 0
228835366 0.8812763333333333 -0.2884173333333333 0.05293266666666666 0.050985333333333334 0 0 0 0
230321245 0.8801046666666666 -0.29021299999999994 0.05336933333333333 0.05142366666666667 0 0 0 0
231807124 0.8764056666666665 -0.2906416666666667 0.05374366666666667 0.051718 0 0 0 0
233293003 0.8741633333333333 -0.2929906666666666 0.05414799999999999 0.052045666666666664 0 0 0 0
234778882 0.8707896666666667 -0.294112 0.054482666666666665 0.052392 0 0 0 0
236264761 0.8671586666666666 -0.2953283333333333 0.054916999999999994 0.05272133333333333 0 0 0 0
237750640 0.8627113333333334 -0.296495 0.055241 0.05305666666666667 0 0 0 0
239236519 0.8583589999999999 -0.29827699999999996 0.05571099999999999 0.05329366666666666 0 0 0 0
240722398 0.8574809999999999 -0.3005813333333333 0.05617699999999999 0.053661333333333325 0 0 0 0
242208277 0.8608853333333333 -0.303774 0.056763999999999995 0.054073666666666666 0 0 0 0
243694156 0.8636553333333332 -0.30640066666666665 0.05722933333333333 0.05454966666666666 0 0 0 0
245180035 0.866552 -0.3088473333333333 0.05783566666666666 0.05495233333333333 0 0 0 0
246665914 0.8686179999999999 -0.3114469999999999 0.058408666666666664 0.05534499999999999 0 0 0 0
248151793 0.8698196666666665 -0.3140923333333333 0.05899433333333333 0.05570566666666666 0 0 0 0
249637672 0.8711743333333333 -0.316158 0.059483999999999995 0.056136 0 0 0 0
251123551 0.873046 -0.3168626666666666 0.06002633333333333 0.056549999999999996 0 0 0 0
252609430 0.8718096666666666 -0.31951033333333334 0.060488999999999994 0.056924333333333334 0 0 0 0
254095309 0.8722773333333333 -0.32053933333333334 0.061093999999999996 0.057221 0 0 0 0
255581188 0.8717006666666666 -0.32226333333333335 0.061614 0.05759266666666667 0 0 0 0
257067067 0.8702973333333334 -0.32261733333333337 0.06210266666666667 0.05780833333333333 0 0 0 0
258552946 0.8691493333333332 -0.32427733333333336 0.06266499999999998 0.058146 0 0 0 0
260038825 0.8670453333333332 -0.3256553333333333 0.06324433333333332 0.058387 0 0 0 0
261524704 0.864156 -0.32693633333333333 0.06363766666666666 0.058630666666666664 0 0 0 0
263010583 0.8614156666666666 -0.3275773333333333 0.06417333333333333 0.058903333333333335 0 0 0 0
264496462 0.8575216666666666 -0.3291803333333333 0.064715 0.059008000000000005 0 0 0 0
265982341 0.853915 -0.3294303333333333 0.06517099999999999 0.059199 0 0 0 0
267468220 0.8489496666666666 -0.3312423333333333 0.06572366666666665 0.059341333333333336 0 0 0 0
268954099 0.8445776666666666 -0.332314 0.06617833333333334 0.05955533333333333 0 0 0 0
270439978 0.8410236666666666 -0.3337283333333333 0.066656 0.059713999999999996 0 0 0 0
271925857 0.8452876666666667 -0.33761800000000003 0.067384 0.06005933333333333 0 0 0 0
273411736 0.8476246666666667 -0.34118433333333337 0.06801833333333332 0.06042833333333332 0 0 0 0
274897615 0.8474716666666666 -0.34892033333333333 0.06898733333333333 0.060238333333333324 0 0 0 0
276383494 0.8486163333333333 -0.3517646666666666 0.069406 0.060807333333333324 0 0 0 0
277869373 0.8516043333333334 -0.3540896666666667 0.06889733333333334 0.06256133333333333 0 0 0 0
279355252 0.8520233333333334 -0.35672233333333336 0.06945233333333332 0.063017 0 0 0 0
280841131 0.8581113333333332 -0.3493596666666666 0.06897966666666666 0.06460866666666666 0 0 0 0
282327010 0.8527956666666667 -0.35986266666666666 0.07047733333333332 0.063461 0 0 0 0
283812889 0.8617106666666665 -0.347345 0.07009266666666666 0.065079 0 0 0 0
285298768 0.852721 -0.3629686666666666 0.07165766666666665 0.06392033333333333 0 0 0 0
286784647 0.8560063333333332 -0.3557166666666667 0.07151733333333332 0.06498866666666665 0 0 0 0
288270526 0.8493433333333333 -0.36516266666666664 0.07258099999999999 0.06426766666666667 0 0 0 0
289756405 0.8524313333333332 -0.3562143333333333 0.07239599999999999 0.06553866666666666 0 0 0 0
291242284 0.844575 -0.366927 0.07375766666666667 0.06478999999999999 0 0 0 0
292728163 0.846526 -0.35815033333333335 0.07355033333333333 0.06608166666666666 0 0 0 0
294214042 0.8375533333333333 -0.36856866666666666 0.07502199999999999 0.06530666666666665 0 0 0 0
295699921 0.8397026666666667 -0.35917466666666664 0.075324 0.06599233333333332 0 0 0 0
297185800 0.8305003333333333 -0.36869266666666667 0.07629433333333333 0.06562433333333334 0 0 0 0
298671679 0.8276353333333333 -0.36510599999999993 0.07632533333333333 0.06653699999999999 0 0 0 0
300157558 0.8196839999999999 -0.3703413333333333 0.077299 0.06543099999999999 0 0 0 0
301643437 0.8232976666666666 -0.3736256666666667 0.07807166666666666 0.06566933333333333 0 0 0 0
303129316 0.826186 -0.3775799999999999 0.07879266666666668 0.06599233333333333 0 0 0 0
304615195 0.828629 -0.3807933333333333 0.079759 0.066034 0 0 0 0
306101074 0.8306966666666666 -0.3830983333333333 0.08053933333333332 0.06619899999999998 0 0 0 0
307586953 0.8353596666666667 -0.38140699999999994 0.08107266666666667 0.06676399999999999 0 0 0 0
309072832 0.8337436666666667 -0.389058 0.082082 0.06636366666666667 0 0 0 0
310558711 0.830358 -0.394642 0.082568 0.06680599999999999 0 0 0 0
312044590 0.831567 -0.39822633333333335 0.08396633333333332 0.065648 0 0 0 0
313530469 0.8375986666666666 -0.38901499999999994 0.08387533333333333 0.06674533333333332 0 0 0 0
315016348 0.8308173333333333 -0.40150766666666665 0.08526600000000001 0.06550399999999999 0 0 0 0
316502227 0.8357669999999999 -0.3918503333333333 0.08514733333333332 0.066546 0 0 0 0
317988106 0.8286103333333333 -0.4028236666666667 0.08645599999999999 0.065328 0 0 0 0
319473985 0.8324323333333333 -0.39272833333333335 0.08618666666666666 0.06652366666666666 0 0 0 0
320959864 0.8244750000000001 -0.40359100000000003 0.08763166666666666 0.06517199999999998 0 0 0 0
