# HZ S RI R 50
10000000 0.143961 0.605462
15932540 0.298775 0.262347
21865080 0.428419 0.11339
27797620 0.505915 0.00113
33730160 0.597238 -0.031702
39662700 0.714939 -0.019835
45595240 0.840185 0.005376
51527780 0.951836 0.02929
57460320 0.975859 0.002901
63392860 0.915777 -0.04029
69325400 0.923924 -0.046828
75257940 0.927184 -0.052375
81190480 0.922754 -0.052182
87123020 0.911796 -0.052644
93055560 0.9102 -0.056948
98988100 0.918539 -0.063517
104920640 0.924023 -0.06461
110853180 0.916332 -0.068785
116785720 0.910013 -0.068845
122718260 0.906615 -0.072733
128650800 0.919031 -0.075867
134583340 0.924303 -0.078071
140515880 0.9098 -0.086728
146448420 0.903712 -0.086803
152380960 0.900758 -0.087707
158313500 0.908739 -0.091394
164246040 0.910735 -0.093863
170178580 0.907573 -0.094733
176111120 0.898581 -0.097582
182043660 0.893218 -0.100659
187976200 0.902722 -0.10311
193908740 0.904721 -0.105755
199841280 0.90179 -0.106997
205773820 0.893364 -0.109767
211706360 0.886493 -0.113597
217638900 0.896764 -0.117722
223571440 0.901646 -0.118501
229503980 0.896871 -0.122274
235436520 0.887399 -0.123978
241369060 0.88002 -0.128681
247301600 0.890884 -0.131647
253234140 0.894705 -0.133736
259166680 0.892498 -0.135743
265099220 0.881501 -0.13705
271031760 0.871159 -0.139289
276964300 0.882551 -0.14658
282896840 0.889342 -0.14599
288829380 0.885974 -0.14771
294761920 0.877226 -0.14859
300694460 0.864554 -0.150676
306627000 0.877483 -0.156481
312559540 0.882153 -0.161162
318492080 0.879673 -0.160955
324424620 0.869592 -0.161844
330357160 0.855167 -0.163381
336289700 0.867244 -0.169607
342222240 0.872338 -0.173303
348154780 0.87319 -0.173591
354087320 0.864605 -0.172807
360019860 0.847422 -0.172455
365952400 0.858465 -0.179617
371884940 0.863894 -0.183739
377817480 0.863045 -0.183946
383750020 0.855296 -0.185519
389682560 0.840566 -0.184357
395615100 0.850158 -0.188448
401547640 0.855904 -0.193507
407480180 0.854424 -0.195756
413412720 0.848452 -0.195562
419345260 0.832619 -0.194087
425277800 0.840558 -0.198428
431210340 0.845869 -0.201725
437142880 0.844924 -0.20482
443075420 0.837943 -0.20115
449007960 0.825298 -0.199753
454940500 0.831475 -0.205214
460873040 0.835638 -0.208667
466805580 0.835511 -0.211325
472738120 0.830536 -0.20924
478670660 0.817521 -0.209572
484603200 0.823136 -0.213521
490535740 0.826052 -0.216785
496468280 0.826341 -0.217787
502400820 0.820312 -0.219059
508333360 0.809468 -0.217297
514265900 0.811293 -0.219434
520198440 0.818558 -0.225822
526130980 0.819692 -0.226565
532063520 0.815516 -0.225325
537996060 0.803217 -0.224405
543928600 0.804991 -0.231262
549861140 0.814721 -0.236118
555793680 0.818839 -0.239962
561726220 0.815162 -0.239346
567658760 0.807471 -0.23688
573591300 0.806937 -0.241682
579523840 0.811835 -0.243328
585456380 0.808472 -0.244447
591388920 0.800778 -0.243676
597321460 0.785579 -0.241957
603254000 0.784184 -0.24725
609186540 0.793791 -0.250376
615119080 0.794097 -0.251508
621051620 0.79191 -0.250667
626984160 0.781715 -0.248239
632916700 0.77667 -0.248667
638849240 0.786701 -0.25553
644781780 0.789677 -0.255611
650714320 0.784056 -0.254588
656646860 0.774367 -0.250466
662579400 0.772114 -0.253207
668511940 0.777827 -0.260635
674444480 0.784729 -0.257308
680377020 0.781972 -0.25547
686309560 0.772734 -0.249384
692242100 0.767356 -0.252009
698174640 0.771669 -0.259946
704107180 0.771582 -0.262631
710039720 0.769301 -0.262448
715972260 0.758805 -0.259374
721904800 0.748829 -0.262926
727837340 0.758498 -0.268925
733769880 0.758535 -0.27138
739702420 0.756474 -0.271391
745634960 0.750703 -0.268057
751567500 0.74341 -0.267542
757500040 0.750461 -0.270928
763432580 0.753245 -0.27298
769365120 0.749349 -0.2726
775297660 0.740708 -0.271271
781230200 0.73408 -0.269628
787162740 0.741501 -0.276277
793095280 0.744788 -0.27735
799027820 0.741418 -0.276621
804960360 0.733328 -0.276755
810892900 0.72344 -0.278921
816825440 0.734315 -0.282375
822757980 0.738514 -0.283421
828690520 0.737337 -0.280381
834623060 0.728667 -0.277737
840555600 0.717437 -0.276876
846488140 0.726251 -0.283625
852420680 0.729614 -0.286528
858353220 0.727274 -0.288077
864285760 0.721292 -0.28249
870218300 0.708365 -0.281749
876150840 0.716483 -0.28881
882083380 0.723212 -0.293785
888015920 0.723978 -0.288284
893948460 0.717032 -0.28703
899881000 0.703649 -0.282713
905813540 0.713917 -0.291024
911746080 0.714651 -0.297406
917678620 0.712619 -0.297963
923611160 0.707414 -0.29479
929543700 0.696025 -0.290777
935476240 0.701762 -0.297751
941408780 0.705149 -0.300605
947341320 0.705786 -0.300486
953273860 0.701475 -0.2963
959206400 0.687742 -0.293501
965138940 0.692402 -0.300232
971071480 0.697476 -0.303249
977004020 0.693786 -0.304248
982936560 0.690471 -0.301342
988869100 0.681422 -0.299416
994801640 0.679304 -0.309298
1000734180 0.690659 -0.30304
1006666720 0.687748 -0.306099
1012599260 0.684674 -0.303598
1018531800 0.674936 -0.301823
1024464340 0.679686 -0.299616
1030396880 0.68203 -0.307205
1036329420 0.683081 -0.303349
1042261960 0.674632 -0.306166
1048194500 0.67 -0.300652
1054127040 0.669045 -0.303671
1060059580 0.674537 -0.308798
1065992120 0.674808 -0.307217
1071924660 0.671311 -0.306408
1077857200 0.66098 -0.303772
1083789740 0.663356 -0.304322
1089722280 0.667893 -0.308337
1095654820 0.668676 -0.311566
1101587360 0.665596 -0.305615
1107519900 0.658232 -0.304046
1113452440 0.657744 -0.306966
1119384980 0.660737 -0.31134
1125317520 0.662406 -0.311113
1131250060 0.659813 -0.306973
1137182600 0.650102 -0.307617
1143115140 0.645451 -0.310802
1149047680 0.655662 -0.316078
1154980220 0.658899 -0.312835
1160912760 0.657401 -0.308142
1166845300 0.647216 -0.307539
1172777840 0.645222 -0.306707
1178710380 0.651678 -0.313492
1184642920 0.653661 -0.313085
1190575460 0.649595 -0.312002
1196508000 0.635715 -0.311394
1202440540 0.634353 -0.309626
1208373080 0.640311 -0.316004
1214305620 0.641118 -0.318029
1220238160 0.640265 -0.316161
1226170700 0.632676 -0.310682
1232103240 0.628308 -0.308338
1238035780 0.635297 -0.31527
1243968320 0.6381 -0.317804
1249900860 0.636592 -0.311007
1255833400 0.625771 -0.309639
1261765940 0.620021 -0.307701
1267698480 0.627777 -0.31199
1273631020 0.628919 -0.315547
1279563560 0.627748 -0.315764
1285496100 0.620285 -0.312064
1291428640 0.614543 -0.31161
1297361180 0.622625 -0.31705
1303293720 0.623242 -0.31837
1309226260 0.6203 -0.316151
1315158800 0.617622 -0.307392
1321091340 0.610899 -0.306596
1327023880 0.611548 -0.315797
1332956420 0.613281 -0.319282
1338888960 0.612985 -0.316607
1344821500 0.610574 -0.314304
1350754040 0.602483 -0.31486
1356686580 0.606018 -0.321151
1362619120 0.6072 -0.323814
1368551660 0.601768 -0.326233
1374484200 0.598265 -0.322457
1380416740 0.590011 -0.321773
1386349280 0.596636 -0.324539
1392281820 0.604994 -0.324473
1398214360 0.60183 -0.326536
1404146900 0.600924 -0.319851
1410079440 0.590332 -0.316314
1416011980 0.599753 -0.319035
1421944520 0.601132 -0.325409
1427877060 0.606873 -0.32
1433809600 0.605328 -0.318363
1439742140 0.592988 -0.317548
1445674680 0.60174 -0.319268
1451607220 0.602207 -0.320186
1457539760 0.598842 -0.320245
1463472300 0.588574 -0.318816
1469404840 0.580125 -0.315662
1475337380 0.584285 -0.320212
1481269920 0.58971 -0.321482
1487202460 0.587246 -0.322396
1493135000 0.583412 -0.316055
1499067540 0.502588 -0.30509
1505000080 0.573728 -0.323671
1510932620 0.582414 -0.324464
1516865160 0.582812 -0.323363
1522797700 0.576276 -0.323882
1528730240 0.5658 -0.320595
1534662780 0.572531 -0.321666
1540595320 0.573678 -0.32872
1546527860 0.577264 -0.325407
1552460400 0.571239 -0.327229
1558392940 0.556398 -0.324246
1564325480 0.562369 -0.329278
1570258020 0.567756 -0.330583
1576190560 0.568898 -0.331859
1582123100 0.566329 -0.328774
1588055640 0.555788 -0.325699
1593988180 0.556558 -0.328667
1599920720 0.561555 -0.33169
1605853260 0.562741 -0.333935
1611785800 0.559947 -0.33338
1617718340 0.553297 -0.329279
1623650880 0.55164 -0.33211
1629583420 0.555412 -0.335535
1635515960 0.556377 -0.334851
1641448500 0.55603 -0.328133
1647381040 0.548987 -0.323213
1653313580 0.543169 -0.329984
1659246120 0.54931 -0.331835
1665178660 0.549403 -0.337254
1671111200 0.549392 -0.328919
1677043740 0.53993 -0.327225
1682976280 0.540698 -0.327845
1688908820 0.547328 -0.331478
1694841360 0.544711 -0.332786
1700773900 0.54597 -0.328874
1706706440 0.539493 -0.327359
1712638980 0.536807 -0.326645
1718571520 0.541512 -0.331937
1724504060 0.541983 -0.335876
1730436600 0.536633 -0.328376
1736369140 0.531994 -0.330184
1742301680 0.527779 -0.330678
1748234220 0.531546 -0.338494
1754166760 0.532948 -0.336532
1760099300 0.535067 -0.335116
1766031840 0.528326 -0.329199
1771964380 0.527978 -0.327254
1777896920 0.535192 -0.332374
1783829460 0.534699 -0.333916
1789762000 0.538841 -0.328987
1795694540 0.531004 -0.324949
1801627080 0.525841 -0.323965
1807559620 0.525551 -0.331992
1813492160 0.529471 -0.334491
1819424700 0.527578 -0.330573
1825357240 0.519133 -0.332401
1831289780 0.507429 -0.332829
1837222320 0.519224 -0.337784
1843154860 0.516321 -0.341031
1849087400 0.513902 -0.336371
1855019940 0.508685 -0.3374
1860952480 0.497226 -0.336139
1866885020 0.507407 -0.338307
1872817560 0.510562 -0.340074
1878750100 0.510095 -0.347911
1884682640 0.509649 -0.331946
1890615180 0.497867 -0.334573
1896547720 0.503822 -0.339692
1902480260 0.507556 -0.340963
1908412800 0.507811 -0.337399
1914345340 0.499993 -0.335894
1920277880 0.496985 -0.329006
1926210420 0.499281 -0.336901
1932142960 0.495786 -0.341927
1938075500 0.501836 -0.335945
1944008040 0.498594 -0.333023
1949940580 0.486647 -0.327314
1955873120 0.493464 -0.33234
1961805660 0.496987 -0.334338
1967738200 0.499092 -0.33473
1973670740 0.496318 -0.329732
1979603280 0.486197 -0.325432
1985535820 0.489364 -0.331338
1991468360 0.493804 -0.334778
1997400900 0.493048 -0.336184
2003333440 0.488715 -0.335174
2009265980 0.479673 -0.330803
2015198520 0.48368 -0.334238
2021131060 0.486155 -0.339391
2027063600 0.482497 -0.338872
2032996140 0.483036 -0.331192
2038928680 0.472102 -0.334818
2044861220 0.478308 -0.337292
2050793760 0.47894 -0.337034
2056726300 0.476326 -0.337561
2062658840 0.473551 -0.334375
2068591380 0.468838 -0.330728
2074523920 0.470041 -0.336698
2080456460 0.474236 -0.338946
2086389000 0.474523 -0.344072
2092321540 0.467841 -0.341511
2098254080 0.463658 -0.333018
2104186620 0.464108 -0.335084
2110119160 0.468033 -0.343939
2116051700 0.471016 -0.343541
2121984240 0.467498 -0.343433
2127916780 0.458596 -0.335034
2133849320 0.457386 -0.342258
2139781860 0.464036 -0.34748
2145714400 0.46599 -0.347881
2151646940 0.461538 -0.34806
2157579480 0.456438 -0.341357
2163512020 0.458672 -0.340808
2169444560 0.460906 -0.348344
2175377100 0.462155 -0.347655
2181309640 0.463771 -0.346905
2187242180 0.454057 -0.344041
2193174720 0.455984 -0.338759
2199107260 0.462312 -0.343437
2205039800 0.462568 -0.341867
2210972340 0.46202 -0.340348
2216904880 0.453425 -0.334688
2222837420 0.450897 -0.338225
2228769960 0.456278 -0.342093
2234702500 0.454688 -0.347652
2240635040 0.456683 -0.341111
2246567580 0.450815 -0.33615
2252500120 0.442588 -0.338817
2258432660 0.447986 -0.344649
2264365200 0.449301 -0.345894
2270297740 0.450997 -0.343388
2276230280 0.447719 -0.336969
2282162820 0.443815 -0.337219
2288095360 0.442091 -0.337738
2294027900 0.443694 -0.33828
2299960440 0.43949 -0.339407
2305892980 0.435894 -0.335969
2311825520 0.430763 -0.336274
2317758060 0.446349 -0.33415
2323690600 0.440717 -0.336667
2329623140 0.443583 -0.336583
2335555680 0.441146 -0.331201
2341488220 0.436074 -0.332872
2347420760 0.42497 -0.341674
2353353300 0.43163 -0.34116
2359285840 0.426049 -0.354466
2365218380 0.420273 -0.352473
2371150920 0.413218 -0.347225
2377083460 0.424741 -0.352095
2383016000 0.430035 -0.351038
2388948540 0.437531 -0.350343
2394881080 0.428061 -0.349719
2400813620 0.42042 -0.348261
2406746160 0.424641 -0.349974
2412678700 0.429584 -0.346526
2418611240 0.424042 -0.341245
2424543780 0.425257 -0.342048
2430476320 0.413818 -0.331442
2436408860 0.416725 -0.347751
2442341400 0.416882 -0.349403
2448273940 0.420455 -0.351142
2454206480 0.416726 -0.346311
2460139020 0.409444 -0.340609
2466071560 0.415944 -0.350514
2472004100 0.418584 -0.354835
2477936640 0.420808 -0.347444
2483869180 0.427986 -0.352655
2489801720 0.417196 -0.346794
2495734260 0.425346 -0.336372
2501666800 0.426363 -0.343095
2507599340 0.424275 -0.348137
2513531880 0.423586 -0.347193
2519464420 0.416968 -0.341215
2525396960 0.418201 -0.342927
2531329500 0.421114 -0.343086
2537262040 0.417093 -0.344216
2543194580 0.410035 -0.340773
2549127120 0.405991 -0.336907
2555059660 0.406612 -0.340935
2560992200 0.408079 -0.344335
2566924740 0.40732 -0.344253
2572857280 0.410613 -0.34169
2578789820 0.402048 -0.338213
2584722360 0.402784 -0.342757
2590654900 0.407949 -0.344455
2596587440 0.410315 -0.343683
2602519980 0.398787 -0.348104
2608452520 0.397602 -0.341007
2614385060 0.399806 -0.339419
2620317600 0.398496 -0.34606
2626250140 0.396459 -0.350241
2632182680 0.394729 -0.346018
2638115220 0.388619 -0.339595
2644047760 0.390505 -0.344962
2649980300 0.396984 -0.342848
2655912840 0.397953 -0.348181
2661845380 0.393811 -0.342799
2667777920 0.388716 -0.337882
2673710460 0.38354 -0.335846
2679643000 0.386807 -0.345293
2685575540 0.384674 -0.344247
2691508080 0.386392 -0.345205
2697440620 0.375692 -0.34134
2703373160 0.381555 -0.34425
2709305700 0.383361 -0.346587
2715238240 0.38546 -0.350745
2721170780 0.38394 -0.349335
2727103320 0.379524 -0.341844
2733035860 0.380098 -0.343942
2738968400 0.385436 -0.345013
2744900940 0.392706 -0.342617
2750833480 0.388038 -0.343358
2756766020 0.385648 -0.341856
2762698560 0.379121 -0.341852
2768631100 0.381047 -0.344826
2774563640 0.395576 -0.338544
2780496180 0.387947 -0.343055
2786428720 0.374646 -0.345536
2792361260 0.373949 -0.343581
2798293800 0.382475 -0.338504
2804226340 0.379819 -0.344132
2810158880 0.368531 -0.350931
2816091420 0.361881 -0.350194
2822023960 0.364791 -0.351881
2827956500 0.373031 -0.362717
2833889040 0.374801 -0.353185
2839821580 0.376567 -0.351856
2845754120 0.364123 -0.351491
2851686660 0.372198 -0.343421
2857619200 0.371482 -0.347305
2863551740 0.371955 -0.349249
2869484280 0.371444 -0.341419
2875416820 0.361473 -0.340786
2881349360 0.353537 -0.341552
2887281900 0.356339 -0.339615
2893214440 0.362941 -0.340077
2899146980 0.36501 -0.344666
2905079520 0.356734 -0.343597
2911012060 0.358166 -0.335322
2916944600 0.354555 -0.340942
2922877140 0.360133 -0.350039
2928809680 0.350699 -0.350752
2934742220 0.345163 -0.348409
2940674760 0.341436 -0.34817
2946607300 0.347963 -0.349505
2952539840 0.351388 -0.352482
2958472380 0.35535 -0.349931
2964404920 0.354199 -0.341137
2970337460 0.348618 -0.337915
2976270000 0.354213 -0.342878
2982202540 0.350497 -0.342383
2988135080 0.350555 -0.343217
2994067620 0.34607 -0.341947
3000000160 0.0 0.0
