# HZ S RI R 50
10000000 0.148245 0.60949
15932540 0.333028 0.284132
21865080 0.432759 0.112365
27797620 0.509194 -0.001729
33730160 0.600725 -0.034467
39662700 0.718387 -0.023185
45595240 0.843638 0.001744
51527780 0.952068 0.025171
57460320 0.968995 0.000997
63392860 0.902597 -0.040093
69325400 0.912295 -0.045078
75257940 0.913595 -0.048526
81190480 0.910583 -0.051215
87123020 0.900616 -0.052004
93055560 0.89901 -0.056401
98988100 0.907246 -0.06094
104920640 0.910737 -0.065486
110853180 0.908967 -0.066413
116785720 0.896592 -0.068289
122718260 0.895958 -0.071575
128650800 0.908385 -0.074143
134583340 0.913228 -0.075713
140515880 0.900018 -0.083806
146448420 0.892302 -0.087639
152380960 0.889989 -0.085367
158313500 0.898433 -0.090371
164246040 0.901228 -0.091771
170178580 0.897023 -0.093835
176111120 0.887767 -0.096771
182043660 0.884009 -0.098294
187976200 0.892537 -0.102414
193908740 0.89642 -0.103547
199841280 0.892934 -0.104783
205773820 0.883224 -0.10809
211706360 0.876968 -0.113128
217638900 0.887737 -0.116147
223571440 0.891453 -0.117646
229503980 0.88947 -0.119611
235436520 0.878382 -0.122528
241369060 0.870967 -0.12625
247301600 0.881031 -0.131494
253234140 0.88597 -0.133192
259166680 0.883236 -0.133427
265099220 0.874044 -0.137296
271031760 0.863499 -0.140043
276964300 0.875243 -0.14464
282896840 0.880724 -0.146818
288829380 0.878444 -0.14595
294761920 0.869424 -0.146587
300694460 0.855968 -0.150847
306627000 0.868397 -0.157357
312559540 0.87359 -0.158374
318492080 0.871884 -0.160296
324424620 0.862632 -0.160881
330357160 0.847825 -0.162511
336289700 0.861207 -0.168818
342222240 0.865832 -0.173064
348154780 0.865292 -0.173545
354087320 0.856977 -0.173132
360019860 0.839562 -0.17186
365952400 0.852714 -0.180366
371884940 0.858572 -0.182713
377817480 0.856252 -0.184425
383750020 0.849631 -0.184623
389682560 0.833428 -0.184602
395615100 0.842775 -0.188938
401547640 0.849077 -0.193456
407480180 0.848587 -0.194721
413412720 0.841349 -0.19498
419345260 0.827434 -0.193616
425277800 0.834446 -0.198537
431210340 0.840001 -0.203822
437142880 0.838933 -0.204097
443075420 0.83332 -0.20345
449007960 0.820016 -0.202418
454940500 0.82594 -0.207157
460873040 0.831595 -0.210497
466805580 0.830497 -0.211454
472738120 0.825578 -0.210619
478670660 0.811704 -0.210783
484603200 0.816885 -0.215809
490535740 0.82293 -0.21711
496468280 0.822186 -0.22043
502400820 0.814521 -0.218792
508333360 0.803053 -0.220647
514265900 0.807385 -0.224205
520198440 0.81376 -0.226207
526130980 0.815532 -0.228324
532063520 0.81127 -0.2279
537996060 0.797059 -0.227647
543928600 0.800569 -0.23285
549861140 0.810999 -0.240595
555793680 0.814672 -0.241445
561726220 0.810232 -0.242784
567658760 0.802138 -0.242106
573591300 0.804765 -0.243638
579523840 0.80831 -0.247117
585456380 0.807684 -0.246409
591388920 0.796072 -0.246063
597321460 0.780707 -0.246032
603254000 0.781559 -0.249867
609186540 0.789433 -0.251999
615119080 0.791575 -0.256646
621051620 0.787757 -0.254458
626984160 0.777592 -0.252393
632916700 0.775372 -0.255128
638849240 0.783531 -0.25954
644781780 0.785883 -0.260279
650714320 0.782393 -0.259219
656646860 0.771236 -0.256306
662579400 0.767773 -0.258606
668511940 0.777002 -0.264254
674444480 0.779798 -0.266024
680377020 0.779504 -0.262991
686309560 0.769473 -0.256217
692242100 0.764366 -0.256026
698174640 0.768625 -0.26266
704107180 0.771137 -0.268551
710039720 0.765951 -0.269627
715972260 0.754557 -0.26799
721904800 0.747856 -0.270115
727837340 0.752087 -0.276926
733769880 0.756961 -0.279934
739702420 0.753503 -0.278677
745634960 0.746669 -0.275999
751567500 0.739305 -0.272981
757500040 0.747586 -0.278286
763432580 0.748082 -0.280756
769365120 0.746343 -0.281126
775297660 0.737437 -0.279014
781230200 0.728493 -0.278037
787162740 0.736006 -0.285604
793095280 0.739651 -0.288011
799027820 0.739668 -0.286476
804960360 0.730213 -0.284825
810892900 0.722805 -0.285764
816825440 0.73039 -0.290946
822757980 0.73495 -0.290532
828690520 0.734378 -0.289125
834623060 0.726033 -0.287517
840555600 0.714256 -0.285379
846488140 0.723818 -0.291588
852420680 0.725584 -0.293943
858353220 0.724433 -0.295767
864285760 0.71827 -0.294859
870218300 0.705572 -0.286821
876150840 0.714038 -0.295552
882083380 0.720352 -0.300883
888015920 0.719882 -0.302675
893948460 0.712705 -0.299542
899881000 0.703097 -0.293863
905813540 0.706509 -0.30287
911746080 0.710262 -0.307767
917678620 0.70779 -0.308722
923611160 0.703433 -0.304353
929543700 0.692012 -0.300852
935476240 0.698204 -0.308411
941408780 0.70229 -0.314163
947341320 0.702653 -0.312917
953273860 0.697661 -0.306089
959206400 0.683743 -0.305793
965138940 0.68856 -0.30793
971071480 0.691896 -0.314677
977004020 0.691558 -0.314941
982936560 0.684541 -0.315132
988869100 0.677252 -0.308045
994801640 0.676009 -0.308244
1000734180 0.684455 -0.318201
1006666720 0.6849 -0.315733
1012599260 0.679843 -0.316072
1018531800 0.672511 -0.30948
1024464340 0.673054 -0.316213
1030396880 0.676485 -0.319361
1036329420 0.679479 -0.316826
1042261960 0.674274 -0.31478
1048194500 0.663758 -0.313549
1054127040 0.66664 -0.313759
1060059580 0.66928 -0.322482
1065992120 0.67213 -0.318979
1071924660 0.666018 -0.318442
1077857200 0.655973 -0.31461
1083789740 0.658081 -0.318839
1089722280 0.662738 -0.321763
1095654820 0.663815 -0.322761
1101587360 0.659413 -0.324603
1107519900 0.650315 -0.318099
1113452440 0.650566 -0.320143
1119384980 0.655996 -0.32605
1125317520 0.656234 -0.321642
1131250060 0.653842 -0.323301
1137182600 0.644274 -0.32194
1143115140 0.643257 -0.323719
1149047680 0.651172 -0.323349
1154980220 0.649311 -0.328121
1160912760 0.652061 -0.322253
1166845300 0.643816 -0.319569
1172777840 0.639655 -0.319847
1178710380 0.645681 -0.324343
1184642920 0.64518 -0.329215
1190575460 0.643944 -0.324965
1196508000 0.631578 -0.327045
1202440540 0.627666 -0.325343
1208373080 0.63518 -0.33042
1214305620 0.636068 -0.334969
1220238160 0.633176 -0.330292
1226170700 0.624653 -0.329427
1232103240 0.620616 -0.324865
1238035780 0.626321 -0.329937
1243968320 0.627057 -0.332984
1249900860 0.628533 -0.33054
1255833400 0.622224 -0.323301
1261765940 0.614044 -0.320727
1267698480 0.620852 -0.328519
1273631020 0.622285 -0.33243
1279563560 0.619821 -0.331734
1285496100 0.62691 -0.322474
1291428640 0.607797 -0.329069
1297361180 0.612875 -0.334466
1303293720 0.61448 -0.333727
1309226260 0.611377 -0.334343
1315158800 0.60788 -0.326312
1321091340 0.600642 -0.321407
1327023880 0.603279 -0.33195
1332956420 0.608487 -0.334877
1338888960 0.604017 -0.336648
1344821500 0.595412 -0.33199
1350754040 0.592754 -0.332987
1356686580 0.597598 -0.341216
1362619120 0.59241 -0.344109
1368551660 0.593233 -0.341431
1374484200 0.586058 -0.343706
1380416740 0.580289 -0.339967
1386349280 0.588134 -0.343492
1392281820 0.592431 -0.344896
1398214360 0.589775 -0.347324
1404146900 0.586664 -0.3417
1410079440 0.578648 -0.335098
1416011980 0.587302 -0.341459
1421944520 0.589434 -0.342993
1427877060 0.594831 -0.341399
1433809600 0.590088 -0.338399
1439742140 0.582243 -0.332698
1445674680 0.585619 -0.33767
1451607220 0.587749 -0.339963
1457539760 0.582159 -0.344151
1463472300 0.577212 -0.337996
1469404840 0.566073 -0.335175
1475337380 0.571733 -0.33964
1481269920 0.574898 -0.342762
1487202460 0.573487 -0.342738
1493135000 0.570489 -0.33659
1499067540 0.549488 -0.349577
1505000080 0.561129 -0.340473
1510932620 0.569029 -0.342937
1516865160 0.56784 -0.343904
1522797700 0.563902 -0.343531
1528730240 0.553304 -0.339743
1534662780 0.558724 -0.341866
1540595320 0.559786 -0.351048
1546527860 0.560886 -0.34668
1552460400 0.557417 -0.344819
1558392940 0.543095 -0.342252
1564325480 0.551301 -0.344733
1570258020 0.551163 -0.352155
1576190560 0.550557 -0.353435
1582123100 0.55175 -0.347416
1588055640 0.542238 -0.34361
1593988180 0.543703 -0.349367
1599920720 0.547887 -0.352138
1605853260 0.54547 -0.357175
1611785800 0.542847 -0.357297
1617718340 0.537927 -0.348791
1623650880 0.536575 -0.354435
1629583420 0.539626 -0.359054
1635515960 0.541359 -0.355244
1641448500 0.539519 -0.348936
1647381040 0.529104 -0.348985
1653313580 0.528354 -0.349569
1659246120 0.531721 -0.355516
1665178660 0.533314 -0.354932
1671111200 0.530391 -0.352987
1677043740 0.522789 -0.35401
1682976280 0.523316 -0.347324
1688908820 0.527522 -0.353193
1694841360 0.527101 -0.354716
1700773900 0.526221 -0.355258
1706706440 0.521392 -0.34705
1712638980 0.51776 -0.351836
1718571520 0.521428 -0.354184
1724504060 0.521701 -0.355513
1730436600 0.523928 -0.356162
1736369140 0.510314 -0.352715
1742301680 0.506201 -0.355769
1748234220 0.514445 -0.362379
1754166760 0.518884 -0.360336
1760099300 0.514193 -0.355985
1766031840 0.508534 -0.350467
1771964380 0.504802 -0.351414
1777896920 0.511002 -0.360888
1783829460 0.516372 -0.357217
1789762000 0.514545 -0.353996
1795694540 0.511139 -0.352625
1801627080 0.504443 -0.346917
1807559620 0.509511 -0.354342
1813492160 0.507578 -0.35898
1819424700 0.503926 -0.357749
1825357240 0.501244 -0.352496
1831289780 0.490299 -0.349591
1837222320 0.49579 -0.357746
1843154860 0.498203 -0.362835
1849087400 0.495427 -0.36118
1855019940 0.490687 -0.354971
1860952480 0.478005 -0.357208
1866885020 0.485589 -0.360962
1872817560 0.488147 -0.364812
1878750100 0.488452 -0.362372
1884682640 0.487831 -0.356914
1890615180 0.475371 -0.355362
1896547720 0.484414 -0.361007
1902480260 0.485524 -0.364247
1908412800 0.48212 -0.364173
1914345340 0.482622 -0.356061
1920277880 0.469986 -0.352399
1926210420 0.479372 -0.358534
1932142960 0.475881 -0.365542
1938075500 0.481066 -0.359644
1944008040 0.474314 -0.356781
1949940580 0.463057 -0.359741
1955873120 0.47301 -0.356793
1961805660 0.474612 -0.358918
1967738200 0.476834 -0.35704
1973670740 0.468952 -0.356223
1979603280 0.466717 -0.34803
1985535820 0.471361 -0.353386
1991468360 0.469366 -0.358821
1997400900 0.465933 -0.364742
2003333440 0.461533 -0.363195
2009265980 0.45824 -0.35826
2015198520 0.458048 -0.361826
2021131060 0.457853 -0.365809
2027063600 0.458707 -0.365685
2032996140 0.457277 -0.359168
2038928680 0.449672 -0.355358
2044861220 0.450952 -0.36139
2050793760 0.456464 -0.364091
2056726300 0.456482 -0.360326
2062658840 0.452703 -0.357857
2068591380 0.442946 -0.355521
2074523920 0.447209 -0.358287
2080456460 0.450613 -0.364135
2086389000 0.449975 -0.368952
2092321540 0.444751 -0.367759
2098254080 0.437511 -0.361747
2104186620 0.440987 -0.36088
2110119160 0.446589 -0.367794
2116051700 0.446401 -0.368601
2121984240 0.442711 -0.366965
2127916780 0.434105 -0.360443
2133849320 0.43583 -0.368323
2139781860 0.437039 -0.37439
2145714400 0.441824 -0.372467
2151646940 0.436926 -0.373546
2157579480 0.431718 -0.366879
2163512020 0.431326 -0.370123
2169444560 0.43673 -0.374504
2175377100 0.436431 -0.377205
2181309640 0.434766 -0.370547
2187242180 0.430259 -0.367273
2193174720 0.427398 -0.367559
2199107260 0.436827 -0.370517
2205039800 0.434944 -0.37232
2210972340 0.438978 -0.367278
2216904880 0.428771 -0.362758
2222837420 0.430417 -0.360679
2228769960 0.434257 -0.36598
2234702500 0.435452 -0.371805
2240635040 0.432219 -0.371207
2246567580 0.423852 -0.359094
2252500120 0.422754 -0.364908
2258432660 0.419314 -0.364983
2264365200 0.426635 -0.369873
2270297740 0.426664 -0.366489
2276230280 0.418731 -0.36054
2282162820 0.421282 -0.363428
2288095360 0.417424 -0.362362
2294027900 0.40952 -0.366317
2299960440 0.418376 -0.360991
2305892980 0.411978 -0.361006
2311825520 0.401302 -0.358339
2317758060 0.41029 -0.360919
2323690600 0.421261 -0.364066
2329623140 0.417186 -0.362997
2335555680 0.404508 -0.364947
2341488220 0.404484 -0.3617
2347420760 0.402857 -0.368855
2353353300 0.400835 -0.373198
2359285840 0.40438 -0.374636
2365218380 0.396211 -0.375171
2371150920 0.391103 -0.374654
2377083460 0.392274 -0.382486
2383016000 0.403452 -0.375327
2388948540 0.404807 -0.382543
2394881080 0.397346 -0.372676
2400813620 0.396715 -0.371044
2406746160 0.397242 -0.374456
2412678700 0.406403 -0.363098
2418611240 0.401808 -0.370999
2424543780 0.395276 -0.36659
2430476320 0.384597 -0.35773
2436408860 0.390134 -0.372695
2442341400 0.390389 -0.372843
2448273940 0.390377 -0.369482
2454206480 0.389185 -0.369861
2460139020 0.386891 -0.368323
2466071560 0.391412 -0.366347
2472004100 0.394779 -0.3763
2477936640 0.39604 -0.378033
2483869180 0.39745 -0.375
2489801720 0.38683 -0.377171
2495734260 0.400855 -0.354776
2501666800 0.416741 -0.365204
2507599340 0.410527 -0.347502
2513531880 0.404421 -0.349032
2519464420 0.393607 -0.344974
2525396960 0.416397 -0.357474
2531329500 0.397021 -0.352152
2537262040 0.409777 -0.355117
2543194580 0.406951 -0.349336
2549127120 0.403796 -0.346327
2555059660 0.400916 -0.355114
2560992200 0.405991 -0.354934
2566924740 0.402822 -0.359946
2572857280 0.386961 -0.367118
2578789820 0.397865 -0.351539
2584722360 0.382918 -0.367563
2590654900 0.373947 -0.378229
2596587440 0.381919 -0.370951
2602519980 0.37742 -0.365704
2608452520 0.376204 -0.357521
2614385060 0.373676 -0.364444
2620317600 0.372854 -0.366872
2626250140 0.375744 -0.36553
2632182680 0.370425 -0.36555
2638115220 0.367121 -0.364416
2644047760 0.369024 -0.366619
2649980300 0.365817 -0.368442
2655912840 0.372521 -0.367999
2661845380 0.366246 -0.363765
2667777920 0.372107 -0.357048
2673710460 0.367395 -0.362382
2679643000 0.365115 -0.36595
2685575540 0.36398 -0.365523
2691508080 0.355791 -0.362749
2697440620 0.31842 -0.355344
2703373160 0.354776 -0.364941
2709305700 0.358185 -0.365361
2715238240 0.364841 -0.365186
2721170780 0.369418 -0.362322
2727103320 0.351924 -0.363747
2733035860 0.349991 -0.36249
2738968400 0.360409 -0.365984
2744900940 0.363116 -0.35977
2750833480 0.358249 -0.363578
2756766020 0.360028 -0.356548
2762698560 0.353794 -0.359799
2768631100 0.354835 -0.359809
2774563640 0.354148 -0.372799
2780496180 0.359489 -0.362956
2786428720 0.351331 -0.359799
2792361260 0.346889 -0.36153
2798293800 0.353739 -0.356273
2804226340 0.346504 -0.366292
2810158880 0.344939 -0.3654
2816091420 0.340154 -0.369761
2822023960 0.346888 -0.361174
2827956500 0.346063 -0.37512
2833889040 0.347009 -0.364671
2839821580 0.351909 -0.362546
2845754120 0.346374 -0.365641
2851686660 0.347143 -0.369151
2857619200 0.354428 -0.361144
2863551740 0.342051 -0.358912
2869484280 0.343522 -0.359298
2875416820 0.339248 -0.358593
2881349360 0.328399 -0.355587
2887281900 0.334791 -0.361307
2893214440 0.340371 -0.359064
2899146980 0.334945 -0.361563
2905079520 0.336728 -0.358851
2911012060 0.33184 -0.355225
2916944600 0.330498 -0.359888
2922877140 0.333067 -0.3628
2928809680 0.327478 -0.364083
2934742220 0.318958 -0.367164
2940674760 0.312917 -0.366129
2946607300 0.321451 -0.370263
2952539840 0.330186 -0.365247
2958472380 0.327798 -0.368827
2964404920 0.328549 -0.360548
2970337460 0.329753 -0.350168
2976270000 0.324577 -0.356371
2982202540 0.329853 -0.35656
2988135080 0.326603 -0.359045
2994067620 0.324788 -0.356936
3000000160 0.0 0.0
