# HZ S RI R 50
10000000 0.149828 0.610954
15932540 0.334321 0.284686
21865080 0.433078 0.111923
27797620 0.510137 -0.00221
33730160 0.601682 -0.035082
39662700 0.718692 -0.023669
45595240 0.844248 0.000459
51527780 0.951952 0.024368
57460320 0.966848 0.001637
63392860 0.901041 -0.039057
69325400 0.907571 -0.045073
75257940 0.911614 -0.047914
81190480 0.907439 -0.049868
87123020 0.898437 -0.05002
93055560 0.897521 -0.054548
98988100 0.904692 -0.05972
104920640 0.906419 -0.063005
110853180 0.903465 -0.065712
116785720 0.894117 -0.066751
122718260 0.893547 -0.068358
128650800 0.906357 -0.071602
134583340 0.910842 -0.072721
140515880 0.898435 -0.082914
146448420 0.909181 -0.035529
152380960 0.887854 -0.083896
158313500 0.896197 -0.088811
164246040 0.898277 -0.091066
170178580 0.895552 -0.09241
176111120 0.886091 -0.093761
182043660 0.881842 -0.096896
187976200 0.891886 -0.100251
193908740 0.894765 -0.10213
199841280 0.891026 -0.103441
205773820 0.881614 -0.105538
211706360 0.875174 -0.1093
217638900 0.88369 -0.114188
223571440 0.889382 -0.116204
229503980 0.886782 -0.118187
235436520 0.876512 -0.120268
241369060 0.869397 -0.124953
247301600 0.879511 -0.129272
253234140 0.885406 -0.131324
259166680 0.881517 -0.132309
265099220 0.872274 -0.133294
271031760 0.861844 -0.136968
276964300 0.874919 -0.141
282896840 0.880484 -0.143626
288829380 0.877776 -0.144464
294761920 0.86726 -0.145602
300694460 0.854257 -0.148132
306627000 0.867211 -0.154228
312559540 0.872683 -0.157521
318492080 0.869479 -0.156863
324424620 0.861446 -0.158632
330357160 0.847297 -0.160922
336289700 0.859833 -0.167556
342222240 0.865363 -0.170127
348154780 0.865083 -0.172167
354087320 0.856947 -0.17066
360019860 0.839811 -0.170451
365952400 0.850829 -0.178436
371884940 0.857977 -0.182131
377817480 0.855809 -0.182542
383750020 0.849138 -0.180677
389682560 0.833718 -0.181931
395615100 0.843265 -0.187782
401547640 0.849162 -0.193373
407480180 0.848043 -0.19219
413412720 0.840948 -0.191633
419345260 0.82694 -0.190511
425277800 0.834188 -0.197691
431210340 0.839864 -0.202159
437142880 0.839047 -0.202621
443075420 0.833411 -0.200378
449007960 0.818443 -0.19973
454940500 0.824109 -0.204434
460873040 0.830176 -0.209058
466805580 0.830216 -0.209432
472738120 0.824977 -0.209572
478670660 0.813021 -0.207422
484603200 0.816982 -0.212518
490535740 0.822988 -0.213909
496468280 0.822024 -0.219844
502400820 0.816218 -0.216144
508333360 0.804961 -0.218062
514265900 0.807881 -0.221496
520198440 0.81471 -0.224905
526130980 0.815411 -0.227932
532063520 0.809411 -0.226814
537996060 0.799925 -0.22478
543928600 0.802708 -0.230843
549861140 0.811636 -0.234741
555793680 0.815029 -0.239318
561726220 0.81194 -0.23868
567658760 0.802095 -0.241651
573591300 0.802937 -0.243814
579523840 0.807708 -0.247624
585456380 0.807621 -0.246402
591388920 0.797349 -0.244312
597321460 0.782009 -0.243887
603254000 0.781646 -0.248559
609186540 0.789246 -0.253658
615119080 0.791667 -0.255812
621051620 0.789625 -0.253033
626984160 0.778863 -0.250403
632916700 0.776837 -0.252268
638849240 0.784206 -0.259465
644781780 0.786228 -0.259752
650714320 0.781628 -0.260524
656646860 0.772383 -0.256565
662579400 0.769327 -0.257976
668511940 0.777341 -0.263544
674444480 0.780664 -0.26534
680377020 0.778695 -0.2611
686309560 0.771625 -0.259093
692242100 0.765655 -0.260308
698174640 0.771909 -0.2611
704107180 0.767963 -0.268954
710039720 0.762475 -0.269534
715972260 0.753336 -0.269892
721904800 0.74724 -0.267686
727837340 0.755038 -0.276122
733769880 0.759596 -0.277092
739702420 0.755162 -0.278136
745634960 0.747611 -0.274397
751567500 0.739809 -0.273114
757500040 0.749861 -0.278247
763432580 0.748646 -0.281721
769365120 0.746901 -0.279315
775297660 0.736902 -0.279314
781230200 0.729008 -0.276381
787162740 0.73736 -0.283945
793095280 0.742257 -0.287169
799027820 0.74121 -0.286218
804960360 0.733479 -0.283616
810892900 0.723288 -0.283684
816825440 0.732789 -0.2893
822757980 0.736594 -0.288738
828690520 0.733935 -0.290179
834623060 0.727511 -0.288095
840555600 0.715525 -0.285645
846488140 0.723732 -0.292573
852420680 0.727954 -0.295585
858353220 0.726122 -0.294932
864285760 0.719629 -0.291168
870218300 0.707099 -0.289891
876150840 0.715308 -0.298613
882083380 0.72092 -0.300011
888015920 0.719509 -0.303284
893948460 0.712821 -0.299035
899881000 0.701869 -0.29604
905813540 0.710235 -0.300816
911746080 0.709732 -0.310033
917678620 0.71059 -0.307715
923611160 0.70367 -0.307814
929543700 0.691848 -0.300546
935476240 0.699627 -0.307643
941408780 0.70245 -0.313934
947341320 0.700418 -0.312745
953273860 0.696155 -0.308529
959206400 0.688271 -0.303867
965138940 0.690514 -0.309727
971071480 0.693729 -0.314726
977004020 0.692903 -0.313167
982936560 0.688215 -0.314337
988869100 0.676959 -0.309104
994801640 0.682176 -0.320221
1000734180 0.685527 -0.317699
1006666720 0.685676 -0.32041
1012599260 0.681818 -0.315399
1018531800 0.673584 -0.313326
1024464340 0.672907 -0.315841
1030396880 0.678603 -0.318373
1036329420 0.678685 -0.320209
1042261960 0.675737 -0.314148
1048194500 0.66387 -0.317343
1054127040 0.666539 -0.316338
1060059580 0.670905 -0.319695
1065992120 0.677368 -0.308156
1071924660 0.666636 -0.319497
1077857200 0.665705 -0.304996
1083789740 0.649971 -0.329659
1089722280 0.670148 -0.31487
1095654820 0.657175 -0.334399
1101587360 0.668959 -0.312669
1107519900 0.645102 -0.330028
1113452440 0.658441 -0.313765
1119384980 0.65012 -0.334414
1125317520 0.664115 -0.31695
1131250060 0.648913 -0.33367
1137182600 0.648818 -0.314029
1143115140 0.635005 -0.336387
1149047680 0.661352 -0.317195
1154980220 0.648866 -0.337329
1160912760 0.65999 -0.315068
1166845300 0.63537 -0.328636
1172777840 0.644884 -0.31722
1178710380 0.639281 -0.337478
1184642920 0.654356 -0.320667
1190575460 0.636214 -0.337707
1196508000 0.636659 -0.320338
1202440540 0.621105 -0.33611
1208373080 0.63504 -0.333362
1214305620 0.638027 -0.335439
1220238160 0.63297 -0.3341
1226170700 0.626796 -0.326055
1232103240 0.620374 -0.328472
1238035780 0.626774 -0.331726
1243968320 0.630829 -0.330727
1249900860 0.627974 -0.331364
1255833400 0.623709 -0.32554
1261765940 0.612823 -0.326759
1267698480 0.622092 -0.329223
1273631020 0.622623 -0.333735
1279563560 0.622023 -0.331772
1285496100 0.667888 -0.306638
1291428640 0.60978 -0.328941
1297361180 0.613394 -0.332229
1303293720 0.613875 -0.340102
1309226260 0.614392 -0.337774
1315158800 0.607518 -0.329798
1321091340 0.599681 -0.324079
1327023880 0.606295 -0.331677
1332956420 0.608513 -0.336888
1338888960 0.601201 -0.338152
1344821500 0.595853 -0.340213
1350754040 0.592779 -0.33572
1356686580 0.597564 -0.341791
1362619120 0.596197 -0.347541
1368551660 0.593497 -0.344768
1374484200 0.587085 -0.343926
1380416740 0.57857 -0.341839
1386349280 0.589314 -0.348625
1392281820 0.591958 -0.345585
1398214360 0.589878 -0.347556
1404146900 0.58987 -0.338477
1410079440 0.580616 -0.336618
1416011980 0.589923 -0.342323
1421944520 0.595931 -0.344634
1427877060 0.595158 -0.342066
1433809600 0.591374 -0.339389
1439742140 0.58457 -0.33357
1445674680 0.589657 -0.338884
1451607220 0.587768 -0.343578
1457539760 0.588051 -0.339347
1463472300 0.579046 -0.338747
1469404840 0.566746 -0.339647
1475337380 0.570957 -0.343283
1481269920 0.574391 -0.347061
1487202460 0.573599 -0.34529
1493135000 0.570362 -0.342809
1499067540 0.559822 -0.338674
1505000080 0.564169 -0.342607
1510932620 0.565443 -0.34992
1516865160 0.571296 -0.344931
1522797700 0.565776 -0.342417
1528730240 0.555179 -0.340521
1534662780 0.557096 -0.350818
1540595320 0.562837 -0.3506
1546527860 0.564752 -0.349278
1552460400 0.557635 -0.347098
1558392940 0.550519 -0.343172
1564325480 0.548526 -0.349168
1570258020 0.554101 -0.351128
1576190560 0.556103 -0.352294
1582123100 0.550524 -0.349482
1588055640 0.544631 -0.344969
1593988180 0.541594 -0.353624
1599920720 0.544852 -0.358901
1605853260 0.548165 -0.358278
1611785800 0.544166 -0.357069
1617718340 0.535619 -0.351771
1623650880 0.538001 -0.354707
1629583420 0.542244 -0.358635
1635515960 0.540551 -0.361401
1641448500 0.536923 -0.358393
1647381040 0.529723 -0.349838
1653313580 0.529209 -0.351015
1659246120 0.530591 -0.357949
1665178660 0.534247 -0.358251
1671111200 0.532908 -0.354085
1677043740 0.522009 -0.354213
1682976280 0.521584 -0.356812
1688908820 0.52981 -0.355556
1694841360 0.529865 -0.355568
1700773900 0.527634 -0.355859
1706706440 0.522358 -0.352087
1712638980 0.518028 -0.349926
1718571520 0.519509 -0.358169
1724504060 0.522308 -0.357709
1730436600 0.519957 -0.360002
1736369140 0.513567 -0.352221
1742301680 0.508132 -0.357027
1748234220 0.515538 -0.359135
1754166760 0.51756 -0.363557
1760099300 0.514632 -0.362703
1766031840 0.511295 -0.355493
1771964380 0.50909 -0.353452
1777896920 0.514297 -0.357804
1783829460 0.515433 -0.359563
1789762000 0.514703 -0.35956
1795694540 0.511599 -0.351548
1801627080 0.504237 -0.352683
1807559620 0.509796 -0.352572
1813492160 0.512087 -0.358325
1819424700 0.509039 -0.35595
1825357240 0.499995 -0.356654
1831289780 0.488721 -0.357339
1837222320 0.495558 -0.363197
1843154860 0.49691 -0.367511
1849087400 0.494822 -0.360886
1855019940 0.493029 -0.359681
1860952480 0.481305 -0.358726
1866885020 0.487321 -0.364495
1872817560 0.493339 -0.363513
1878750100 0.482017 -0.361287
1884682640 0.488535 -0.360167
1890615180 0.481368 -0.357812
1896547720 0.484168 -0.359814
1902480260 0.489268 -0.367177
1908412800 0.487211 -0.359995
1914345340 0.485537 -0.357146
1920277880 0.472811 -0.354314
1926210420 0.478292 -0.36136
1932142960 0.477647 -0.365563
1938075500 0.479883 -0.361638
1944008040 0.479001 -0.355165
1949940580 0.464672 -0.356145
1955873120 0.472016 -0.363744
1961805660 0.472288 -0.36405
1967738200 0.489436 -0.351382
1973670740 0.472459 -0.356766
1979603280 0.468012 -0.348749
1985535820 0.467943 -0.356273
1991468360 0.467884 -0.364348
1997400900 0.482958 -0.347113
2003333440 0.465935 -0.357172
2009265980 0.455485 -0.356948
2015198520 0.460476 -0.362535
2021131060 0.459537 -0.366886
2027063600 0.45945 -0.369041
2032996140 0.456607 -0.36788
2038928680 0.448842 -0.363423
2044861220 0.449622 -0.366921
2050793760 0.455708 -0.364119
2056726300 0.453115 -0.366096
2062658840 0.450988 -0.362425
2068591380 0.444573 -0.35724
2074523920 0.443565 -0.359768
2080456460 0.450615 -0.362546
2086389000 0.451772 -0.366993
2092321540 0.447736 -0.365562
2098254080 0.441152 -0.356737
2104186620 0.442522 -0.36825
2110119160 0.446228 -0.367535
2116051700 0.443222 -0.37068
2121984240 0.440237 -0.370035
2127916780 0.434899 -0.364215
2133849320 0.439714 -0.366532
2139781860 0.438739 -0.375698
2145714400 0.438846 -0.373879
2151646940 0.440117 -0.373397
2157579480 0.428626 -0.371457
2163512020 0.436191 -0.368982
2169444560 0.433238 -0.374222
2175377100 0.439234 -0.373383
2181309640 0.432308 -0.373656
2187242180 0.430625 -0.367384
2193174720 0.43142 -0.370704
2199107260 0.431139 -0.374141
2205039800 0.437268 -0.373049
2210972340 0.437327 -0.369368
2216904880 0.431798 -0.364562
2222837420 0.42827 -0.36601
2228769960 0.430351 -0.372058
2234702500 0.431997 -0.373389
2240635040 0.432584 -0.367475
2246567580 0.430024 -0.361862
2252500120 0.422183 -0.365415
2258432660 0.423742 -0.370848
2264365200 0.430965 -0.367355
2270297740 0.426946 -0.367015
2276230280 0.420157 -0.362172
2282162820 0.419286 -0.362611
2288095360 0.417229 -0.365595
2294027900 0.416421 -0.365995
2299960440 0.406283 -0.369147
2305892980 0.410299 -0.361652
2311825520 0.413071 -0.355547
2317758060 0.405247 -0.367319
2323690600 0.412979 -0.36955
2329623140 0.41461 -0.362184
2335555680 0.406808 -0.36318
2341488220 0.402774 -0.361128
2347420760 0.403634 -0.367168
2353353300 0.402653 -0.36992
2359285840 0.403012 -0.373615
2365218380 0.393657 -0.372965
2371150920 0.388683 -0.380524
2377083460 0.398361 -0.379853
2383016000 0.396643 -0.381232
2388948540 0.405978 -0.373127
2394881080 0.406741 -0.372481
2400813620 0.398691 -0.366079
2406746160 0.402602 -0.378242
2412678700 0.40544 -0.371568
2418611240 0.397673 -0.37361
2424543780 0.391676 -0.36881
2430476320 0.384314 -0.363072
2436408860 0.392322 -0.368308
2442341400 0.39349 -0.375024
2448273940 0.394734 -0.373844
2454206480 0.390585 -0.36367
2460139020 0.383791 -0.359872
2466071560 0.389722 -0.375233
2472004100 0.410358 -0.3398
2477936640 0.39962 -0.380123
2483869180 0.400857 -0.371944
2489801720 0.393242 -0.367289
2495734260 0.399909 -0.368497
2501666800 0.399518 -0.374004
2507599340 0.399273 -0.370946
2513531880 0.394493 -0.367193
2519464420 0.391606 -0.363426
2525396960 0.391125 -0.366526
2531329500 0.391716 -0.369655
2537262040 0.389617 -0.367722
2543194580 0.382781 -0.365305
2549127120 0.380301 -0.361232
2555059660 0.37747 -0.366262
2560992200 0.382197 -0.366804
2566924740 0.384046 -0.365993
2572857280 0.377122 -0.367396
2578789820 0.373238 -0.363285
2584722360 0.373275 -0.366886
2590654900 0.379508 -0.369011
2596587440 0.37668 -0.374027
2602519980 0.37143 -0.371013
2608452520 0.371828 -0.370528
2614385060 0.37165 -0.368515
2620317600 0.376011 -0.370569
2626250140 0.364704 -0.367985
2632182680 0.370162 -0.36883
2638115220 0.362027 -0.365661
2644047760 0.363922 -0.368727
2649980300 0.368196 -0.367524
2655912840 0.36517 -0.369497
2661845380 0.368514 -0.366753
2667777920 0.363205 -0.35943
2673710460 0.362413 -0.35963
2679643000 0.366071 -0.367773
2685575540 0.349142 -0.366177
2691508080 0.355234 -0.363598
2697440620 0.351644 -0.359927
2703373160 0.352901 -0.369162
2709305700 0.349685 -0.375805
2715238240 0.358147 -0.368685
2721170780 0.355764 -0.368117
2727103320 0.354014 -0.368162
2733035860 0.355784 -0.366176
2738968400 0.363719 -0.365014
2744900940 0.359925 -0.36651
2750833480 0.358368 -0.372571
2756766020 0.357721 -0.361531
2762698560 0.359641 -0.358877
2768631100 0.358027 -0.363455
2774563640 0.362498 -0.366428
2780496180 0.35846 -0.36123
2786428720 0.3543 -0.357526
2792361260 0.355118 -0.358633
2798293800 0.359744 -0.361211
2804226340 0.346726 -0.368496
2810158880 0.340831 -0.374618
2816091420 0.338299 -0.370477
2822023960 0.336797 -0.355698
2827956500 0.334633 -0.375927
2833889040 0.34465 -0.380171
2839821580 0.345041 -0.370196
2845754120 0.343291 -0.375124
2851686660 0.344545 -0.366584
2857619200 0.338323 -0.363636
2863551740 0.336795 -0.372284
2869484280 0.346437 -0.367841
2875416820 0.331513 -0.364496
2881349360 0.328626 -0.356937
2887281900 0.341325 -0.361809
2893214440 0.336326 -0.368346
2899146980 0.335391 -0.361257
2905079520 0.338215 -0.361123
2911012060 0.332792 -0.359418
2916944600 0.327828 -0.365543
2922877140 0.326031 -0.370079
2928809680 0.324765 -0.370848
2934742220 0.316217 -0.367679
2940674760 0.31315 -0.366167
2946607300 0.31965 -0.369338
2952539840 0.320608 -0.373713
2958472380 0.32708 -0.367926
2964404920 0.32859 -0.36334
2970337460 0.324525 -0.355826
2976270000 0.323436 -0.362297
2982202540 0.327977 -0.366529
2988135080 0.323385 -0.365759
2994067620 0.323611 -0.362034
3000000160 0.0 0.0
