# HZ S RI R 50
10000000 0.121704 0.580953
15932540 0.307631 0.279355
21865080 0.409144 0.117611
27797620 0.486929 0.00943
33730160 0.576688 -0.020191
39662700 0.692893 -0.005495
45595240 0.820454 0.021914
51527780 0.946604 0.049639
57460320 1.014499 0.0248
63392860 0.987939 -0.02944
69325400 0.997339 -0.033816
75257940 0.999009 -0.035365
81190480 0.997118 -0.037115
87123020 0.985385 -0.037122
93055560 0.984393 -0.039521
98988100 0.993307 -0.044305
104920640 0.99643 -0.04746
110853180 0.993507 -0.046511
116785720 0.98246 -0.046369
122718260 0.981091 -0.049241
128650800 0.994841 -0.049568
134583340 1.000742 -0.050268
140515880 1.057419 0.023426
146448420 0.97993 -0.058269
152380960 0.976249 -0.058982
158313500 0.98666 -0.06261
164246040 0.987984 -0.062455
170178580 0.984537 -0.062705
176111120 0.97663 -0.064158
182043660 0.971598 -0.067332
187976200 0.98191 -0.068342
193908740 0.985973 -0.068265
199841280 0.982041 -0.070916
205773820 0.971594 -0.072843
211706360 0.966466 -0.075876
217638900 0.977511 -0.076967
223571440 0.981875 -0.078843
229503980 0.980529 -0.07779
235436520 0.96898 -0.080701
241369060 0.961983 -0.086516
247301600 0.974961 -0.088298
253234140 0.979367 -0.08876
259166680 0.976048 -0.08911
265099220 0.967011 -0.091709
271031760 0.955693 -0.095463
276964300 0.971596 -0.097868
282896840 0.975207 -0.098288
288829380 0.972728 -0.097854
294761920 0.963442 -0.099275
300694460 0.949528 -0.101578
306627000 0.965108 -0.105066
312559540 0.971774 -0.10679
318492080 0.968422 -0.107317
324424620 0.959882 -0.109453
330357160 0.943521 -0.110931
336289700 0.957682 -0.113946
342222240 0.964528 -0.118976
348154780 0.964132 -0.117263
354087320 0.955045 -0.112721
360019860 0.935561 -0.115743
365952400 0.951903 -0.121977
371884940 0.959381 -0.123555
377817480 0.957066 -0.124609
383750020 0.9488 -0.124967
389682560 0.932005 -0.122851
395615100 0.943323 -0.128926
401547640 0.950172 -0.131865
407480180 0.950026 -0.133945
413412720 0.942776 -0.131853
419345260 0.926821 -0.128472
425277800 0.93664 -0.135933
431210340 0.942941 -0.136551
437142880 0.943306 -0.13892
443075420 0.935305 -0.136941
449007960 0.9211 -0.135474
454940500 0.925667 -0.139344
460873040 0.933652 -0.140217
466805580 0.935553 -0.142771
472738120 0.929239 -0.141071
478670660 0.916983 -0.141101
484603200 0.9228 -0.141277
490535740 0.927897 -0.145228
496468280 0.928337 -0.146042
502400820 0.922872 -0.146624
508333360 0.909611 -0.144807
514265900 0.915994 -0.150228
520198440 0.924491 -0.150684
526130980 0.924503 -0.150895
532063520 0.919246 -0.152572
537996060 0.906559 -0.150139
543928600 0.911363 -0.152868
549861140 0.923819 -0.159186
555793680 0.927219 -0.160454
561726220 0.925544 -0.16045
567658760 0.916026 -0.160227
573591300 0.916333 -0.162469
579523840 0.924291 -0.165241
585456380 0.919863 -0.163435
591388920 0.91185 -0.159261
597321460 0.895407 -0.162123
603254000 0.893492 -0.163896
609186540 0.905463 -0.16537
615119080 0.90826 -0.169068
621051620 0.905009 -0.166193
626984160 0.894728 -0.163587
632916700 0.890943 -0.165278
638849240 0.901973 -0.172181
644781780 0.904848 -0.172116
650714320 0.900613 -0.169264
656646860 0.890722 -0.165081
662579400 0.886722 -0.168207
668511940 0.899479 -0.170315
674444480 0.902626 -0.170906
680377020 0.901089 -0.165071
686309560 0.89059 -0.161958
692242100 0.895176 -0.149557
698174640 0.885076 -0.184241
704107180 0.888095 -0.189418
710039720 0.883354 -0.185201
715972260 0.871384 -0.186966
721904800 0.861844 -0.190085
727837340 0.874472 -0.195819
733769880 0.878087 -0.19421
739702420 0.875065 -0.195405
745634960 0.866663 -0.189604
751567500 0.860626 -0.189132
757500040 0.869514 -0.193627
763432580 0.870772 -0.196212
769365120 0.867634 -0.19724
775297660 0.859875 -0.190159
781230200 0.851233 -0.196732
787162740 0.866516 -0.180622
793095280 0.872748 -0.183336
799027820 0.869771 -0.185714
804960360 0.861058 -0.18633
810892900 0.852276 -0.181532
816825440 0.864116 -0.183917
822757980 0.866419 -0.189903
828690520 0.866707 -0.186162
834623060 0.858285 -0.181875
840555600 0.845011 -0.181501
846488140 0.858261 -0.185326
852420680 0.863937 -0.186576
858353220 0.862582 -0.186653
864285760 0.853936 -0.186155
870218300 0.840248 -0.184101
876150840 0.850793 -0.191483
882083380 0.859431 -0.190721
888015920 0.859651 -0.191188
893948460 0.852272 -0.184183
899881000 0.837367 -0.183757
905813540 0.848725 -0.192374
911746080 0.853909 -0.195174
917678620 0.851058 -0.19511
923611160 0.84831 -0.195619
929543700 0.835495 -0.192159
935476240 0.841772 -0.202476
941408780 0.849318 -0.200115
947341320 0.848779 -0.200848
953273860 0.842453 -0.198153
959206400 0.828892 -0.192778
965138940 0.83547 -0.197509
971071480 0.841477 -0.198791
977004020 0.840912 -0.202382
982936560 0.835945 -0.199636
988869100 0.82595 -0.194553
994801640 0.826187 -0.195045
1000734180 0.834247 -0.204988
1006666720 0.835595 -0.203109
1012599260 0.832023 -0.19894
1018531800 0.823111 -0.196878
1024464340 0.825401 -0.201635
1030396880 0.830416 -0.202041
1036329420 0.832111 -0.203999
1042261960 0.827211 -0.199423
1048194500 0.817403 -0.199247
1054127040 0.819689 -0.20335
1060059580 0.824669 -0.202598
1065992120 0.826335 -0.204132
1071924660 0.823292 -0.205066
1077857200 0.812089 -0.201085
1083789740 0.813575 -0.201022
1089722280 0.823468 -0.198565
1095654820 0.822453 -0.201282
1101587360 0.820231 -0.202207
1107519900 0.809816 -0.199094
1113452440 0.810894 -0.202211
1119384980 0.817833 -0.205525
1125317520 0.820575 -0.20342
1131250060 0.816522 -0.198697
1137182600 0.806305 -0.204054
1143115140 0.80773 -0.202689
1149047680 0.819458 -0.206079
1154980220 0.818562 -0.205273
1160912760 0.818431 -0.204214
1166845300 0.808206 -0.199889
1172777840 0.803482 -0.203319
1178710380 0.812634 -0.204631
1184642920 0.817118 -0.206665
1190575460 0.808612 -0.204317
1196508000 0.798773 -0.202215
1202440540 0.79562 -0.206219
1208373080 0.806173 -0.206554
1214305620 0.808193 -0.210098
1220238160 0.806848 -0.207323
1226170700 0.795733 -0.203643
1232103240 0.791513 -0.20235
1238035780 0.801546 -0.209519
1243968320 0.805251 -0.209577
1249900860 0.803957 -0.201304
1255833400 0.79354 -0.196666
1261765940 0.785423 -0.19683
1267698480 0.793763 -0.207229
1273631020 0.798636 -0.208241
1279563560 0.798345 -0.207604
1285496100 0.693883 -0.238707
1291428640 0.786041 -0.200324
1297361180 0.792704 -0.209325
1303293720 0.79614 -0.206141
1309226260 0.796722 -0.205603
1315158800 0.78749 -0.202231
1321091340 0.776096 -0.197095
1327023880 0.785137 -0.208438
1332956420 0.785836 -0.209347
1338888960 0.787409 -0.211127
1344821500 0.786243 -0.211803
1350754040 0.772497 -0.207368
1356686580 0.779081 -0.214974
1362619120 0.785833 -0.214304
1368551660 0.780548 -0.216599
1374484200 0.774755 -0.217125
1380416740 0.763608 -0.215939
1386349280 0.772509 -0.220947
1392281820 0.779452 -0.213364
1398214360 0.782642 -0.218859
1404146900 0.778067 -0.208204
1410079440 0.767763 -0.205202
1416011980 0.780833 -0.21158
1421944520 0.791087 -0.205549
1427877060 0.7913 -0.20889
1433809600 0.786187 -0.20563
1439742140 0.777442 -0.203929
1445674680 0.785804 -0.205004
1451607220 0.787577 -0.201928
1457539760 0.781331 -0.208204
1463472300 0.773365 -0.210815
1469404840 0.761547 -0.210075
1475337380 0.771509 -0.20913
1481269920 0.777825 -0.2086
1487202460 0.77486 -0.210568
1493135000 0.771424 -0.205826
1499067540 0.755223 -0.217168
1505000080 0.764968 -0.211961
1510932620 0.772282 -0.212586
1516865160 0.776417 -0.210681
1522797700 0.770941 -0.209337
1528730240 0.755589 -0.206821
1534662780 0.764202 -0.210193
1540595320 0.771989 -0.211289
1546527860 0.772089 -0.209033
1552460400 0.764702 -0.207355
1558392940 0.755316 -0.20846
1564325480 0.75629 -0.212076
1570258020 0.764911 -0.219747
1576190560 0.769319 -0.216183
1582123100 0.761891 -0.216815
1588055640 0.753061 -0.209137
1593988180 0.756596 -0.212245
1599920720 0.764205 -0.220442
1605853260 0.766108 -0.218482
1611785800 0.759019 -0.220979
1617718340 0.748536 -0.217663
1623650880 0.752535 -0.215651
1629583420 0.759201 -0.222844
1635515960 0.758819 -0.224764
1641448500 0.757368 -0.214287
1647381040 0.746227 -0.212624
1653313580 0.743455 -0.217183
1659246120 0.751919 -0.21864
1665178660 0.752906 -0.220336
1671111200 0.750965 -0.222946
1677043740 0.742436 -0.218264
1682976280 0.73971 -0.223099
1688908820 0.751804 -0.222036
1694841360 0.751355 -0.223472
1700773900 0.746587 -0.224576
1706706440 0.74217 -0.218253
1712638980 0.740878 -0.216901
1718571520 0.746332 -0.220831
1724504060 0.74877 -0.223055
1730436600 0.746222 -0.225807
1736369140 0.734773 -0.227373
1742301680 0.733203 -0.220713
1748234220 0.742899 -0.227687
1754166760 0.745963 -0.224475
1760099300 0.743795 -0.220827
1766031840 0.737494 -0.221638
1771964380 0.73322 -0.219278
1777896920 0.744647 -0.218356
1783829460 0.747543 -0.219528
1789762000 0.748736 -0.217032
1795694540 0.741377 -0.205771
1801627080 0.735627 -0.21143
1807559620 0.683527 -0.244416
1813492160 0.687948 -0.252023
1819424700 0.686336 -0.24526
1825357240 0.68018 -0.242495
1831289780 0.670291 -0.250926
1837222320 0.675346 -0.256412
1843154860 0.681083 -0.253768
1849087400 0.678061 -0.256392
1855019940 0.673986 -0.254819
1860952480 0.664282 -0.24917
1866885020 0.669665 -0.254898
1872817560 0.676856 -0.255683
1878750100 0.676155 -0.256808
1884682640 0.670565 -0.250917
1890615180 0.661698 -0.248205
1896547720 0.670865 -0.250599
1902480260 0.675331 -0.250322
1908412800 0.67077 -0.260046
1914345340 0.665968 -0.248192
1920277880 0.655189 -0.246834
1926210420 0.662802 -0.254209
1932142960 0.6682 -0.256294
1938075500 0.671018 -0.244656
1944008040 0.664134 -0.250773
1949940580 0.653623 -0.250203
1955873120 0.6631 -0.251416
1961805660 0.665552 -0.25113
1967738200 0.667822 -0.253697
1973670740 0.661439 -0.246662
1979603280 0.654016 -0.23971
1985535820 0.65692 -0.252949
1991468360 0.663882 -0.254275
1997400900 0.662223 -0.250718
2003333440 0.662258 -0.247071
2009265980 0.648743 -0.253413
2015198520 0.653746 -0.254535
2021131060 0.65723 -0.255946
2027063600 0.659286 -0.256639
2032996140 0.65749 -0.254455
2038928680 0.642671 -0.255245
2044861220 0.649301 -0.25959
2050793760 0.654835 -0.254871
2056726300 0.653358 -0.25614
2062658840 0.650631 -0.252049
2068591380 0.640243 -0.250195
2074523920 0.641743 -0.251683
2080456460 0.65019 -0.256842
2086389000 0.648918 -0.257612
2092321540 0.646671 -0.25644
2098254080 0.636221 -0.253819
2104186620 0.640527 -0.256612
2110119160 0.648313 -0.259231
2116051700 0.648946 -0.264493
2121984240 0.642061 -0.261355
2127916780 0.639639 -0.258021
2133849320 0.640247 -0.258355
2139781860 0.646571 -0.264159
2145714400 0.649744 -0.261712
2151646940 0.646934 -0.261783
2157579480 0.631011 -0.260611
2163512020 0.63307 -0.268034
2169444560 0.638541 -0.272215
2175377100 0.645811 -0.266623
2181309640 0.643527 -0.262617
2187242180 0.632784 -0.263979
2193174720 0.635317 -0.257888
2199107260 0.643239 -0.263262
2205039800 0.64437 -0.261611
2210972340 0.647021 -0.258045
2216904880 0.638667 -0.257134
2222837420 0.634264 -0.256444
2228769960 0.639249 -0.256591
2234702500 0.636553 -0.259633
2240635040 0.643621 -0.258321
2246567580 0.631867 -0.261142
2252500120 0.625406 -0.255171
2258432660 0.63051 -0.261165
2264365200 0.635972 -0.262687
2270297740 0.633573 -0.257683
2276230280 0.629469 -0.256023
2282162820 0.627328 -0.256169
2288095360 0.623174 -0.259967
2294027900 0.627633 -0.264756
2299960440 0.62654 -0.257049
2305892980 0.619633 -0.256691
2311825520 0.61195 -0.259953
2317758060 0.624686 -0.259595
2323690600 0.620452 -0.263881
2329623140 0.625135 -0.254372
2335555680 0.616809 -0.259504
2341488220 0.609301 -0.255191
2347420760 0.612985 -0.265705
2353353300 0.616949 -0.267425
2359285840 0.615688 -0.267639
2365218380 0.607135 -0.274247
2371150920 0.608664 -0.265679
2377083460 0.615132 -0.274864
2383016000 0.620667 -0.272165
2388948540 0.621973 -0.264925
2394881080 0.614231 -0.263011
2400813620 0.611982 -0.257074
2406746160 0.612098 -0.266391
2412678700 0.61574 -0.264504
2418611240 0.606704 -0.270341
2424543780 0.600387 -0.272971
2430476320 0.598569 -0.25956
2436408860 0.603339 -0.263474
2442341400 0.606491 -0.279615
2448273940 0.605701 -0.276446
2454206480 0.598795 -0.278623
2460139020 0.590021 -0.271615
2466071560 0.604529 -0.276996
2472004100 0.614008 -0.273966
2477936640 0.63693 -0.232487
2483869180 0.60126 -0.273575
2489801720 0.594526 -0.272391
2495734260 0.605943 -0.269096
2501666800 0.613157 -0.27678
2507599340 0.611717 -0.272037
2513531880 0.606588 -0.267405
2519464420 0.594847 -0.264806
2525396960 0.601732 -0.273017
2531329500 0.602216 -0.271148
2537262040 0.603648 -0.27156
2543194580 0.595467 -0.267131
2549127120 0.584988 -0.265316
2555059660 0.589915 -0.270781
2560992200 0.59363 -0.273465
2566924740 0.596565 -0.273224
2572857280 0.593546 -0.26947
2578789820 0.589062 -0.267008
2584722360 0.586719 -0.272032
2590654900 0.587701 -0.281764
2596587440 0.590397 -0.276336
2602519980 0.590478 -0.275885
2608452520 0.583834 -0.27466
2614385060 0.584754 -0.275427
2620317600 0.58385 -0.275249
2626250140 0.589027 -0.276056
2632182680 0.584904 -0.275021
2638115220 0.572706 -0.271878
2644047760 0.575271 -0.277257
2649980300 0.58714 -0.271683
2655912840 0.583342 -0.277655
2661845380 0.579948 -0.270379
2667777920 0.570421 -0.267345
2673710460 0.574557 -0.272306
2679643000 0.579629 -0.279705
2685575540 0.579771 -0.275488
2691508080 0.575448 -0.272216
2697440620 0.618116 -0.257345
2703373160 0.555891 -0.278477
2709305700 0.564442 -0.284204
2715238240 0.574428 -0.287483
2721170780 0.575604 -0.282222
2727103320 0.574278 -0.275809
2733035860 0.570664 -0.280143
2738968400 0.57948 -0.276809
2744900940 0.578967 -0.283333
2750833480 0.574691 -0.281355
2756766020 0.573003 -0.272935
2762698560 0.57595 -0.267205
2768631100 0.575317 -0.277633
2774563640 0.571145 -0.281235
2780496180 0.57203 -0.278539
2786428720 0.564907 -0.27696
2792361260 0.559091 -0.276611
2798293800 0.564632 -0.283251
2804226340 0.570347 -0.283097
2810158880 0.558092 -0.290913
2816091420 0.558411 -0.274085
2822023960 0.539401 -0.296178
2827956500 0.557512 -0.293766
2833889040 0.565002 -0.286907
2839821580 0.558991 -0.283315
2845754120 0.55979 -0.283117
2851686660 0.559628 -0.274321
2857619200 0.556934 -0.29168
2863551740 0.55608 -0.284352
2869484280 0.560102 -0.289542
2875416820 0.546786 -0.270049
2881349360 0.542546 -0.275395
2887281900 0.537087 -0.28917
2893214440 0.551508 -0.286106
2899146980 0.550869 -0.28408
2905079520 0.550795 -0.281422
2911012060 0.543211 -0.279079
2916944600 0.545084 -0.291403
2922877140 0.542387 -0.286001
2928809680 0.541146 -0.289024
2934742220 0.53322 -0.289903
2940674760 0.526312 -0.291379
2946607300 0.5354 -0.298156
2952539840 0.543858 -0.299723
2958472380 0.546228 -0.292155
2964404920 0.542485 -0.283085
2970337460 0.53397 -0.282037
2976270000 0.539137 -0.286932
2982202540 0.539878 -0.287765
2988135080 0.538808 -0.289161
2994067620 0.534504 -0.286624
3000000160 0.0 0.0
