# HZ S RI R 50
10000000 0.116832 0.575294
15932540 0.302879 0.278376
21865080 0.404453 0.11835
27797620 0.482698 0.011925
33730160 0.571939 -0.017243
39662700 0.687584 -0.002502
45595240 0.816475 0.026197
51527780 0.945425 0.054707
57460320 1.024361 0.028434
63392860 1.005452 -0.027982
69325400 1.017044 -0.031473
75257940 1.017949 -0.035505
81190480 1.014319 -0.034806
87123020 1.003421 -0.035175
93055560 1.003059 -0.038845
98988100 1.010772 -0.041716
104920640 1.01602 -0.044422
110853180 1.012427 -0.044543
116785720 1.001429 -0.045447
122718260 1.000799 -0.048398
128650800 1.01338 -0.049139
134583340 1.019844 -0.04944
140515880 1.004694 -0.058665
146448420 0.997171 -0.055897
152380960 0.994885 -0.058106
158313500 1.003849 -0.059139
164246040 1.007017 -0.061348
170178580 1.005619 -0.061198
176111120 0.995006 -0.061381
182043660 0.989444 -0.064864
187976200 0.999273 -0.066729
193908740 1.002512 -0.067465
199841280 0.998571 -0.069792
205773820 0.990655 -0.069266
211706360 0.984298 -0.074528
217638900 0.994865 -0.07662
223571440 0.999342 -0.07595
229503980 0.996262 -0.07744
235436520 0.987674 -0.080882
241369060 0.977952 -0.084684
247301600 0.991415 -0.085533
253234140 0.996504 -0.086207
259166680 0.993759 -0.086279
265099220 0.982786 -0.08912
271031760 0.970798 -0.091236
276964300 0.985763 -0.094163
282896840 0.993074 -0.094722
288829380 0.990051 -0.094151
294761920 0.978769 -0.094424
300694460 0.965441 -0.097378
306627000 0.979366 -0.103185
312559540 0.985469 -0.1036
318492080 0.985559 -0.10468
324424620 0.974153 -0.103902
330357160 0.958811 -0.106544
336289700 0.973001 -0.111996
342222240 0.979345 -0.112046
348154780 0.97837 -0.11137
354087320 0.969678 -0.11069
360019860 0.950054 -0.112554
365952400 0.963836 -0.118583
371884940 0.970929 -0.11908
377817480 0.971193 -0.118561
383750020 0.962346 -0.117736
389682560 0.946028 -0.117208
395615100 0.95713 -0.123422
401547640 0.965016 -0.125199
407480180 0.964296 -0.12438
413412720 0.956858 -0.123881
419345260 0.941624 -0.118382
425277800 0.94896 -0.128606
431210340 0.957347 -0.129856
437142880 0.957091 -0.127788
443075420 0.947639 -0.127999
449007960 0.933765 -0.126055
454940500 0.940122 -0.128029
460873040 0.947515 -0.132128
466805580 0.948175 -0.131871
472738120 0.942095 -0.131406
478670660 0.929337 -0.129694
484603200 0.934336 -0.134279
490535740 0.942139 -0.134863
496468280 0.941925 -0.135157
502400820 0.935496 -0.1355
508333360 0.922768 -0.134064
514265900 0.927397 -0.138497
520198440 0.935692 -0.139745
526130980 0.937209 -0.138241
532063520 0.92937 -0.141794
537996060 0.918068 -0.136335
543928600 0.925098 -0.142728
549861140 0.93468 -0.145641
555793680 0.940886 -0.146794
561726220 0.936675 -0.145157
567658760 0.928376 -0.1458
573591300 0.927694 -0.149649
579523840 0.934882 -0.145526
585456380 0.933695 -0.14498
591388920 0.922823 -0.145561
597321460 0.906526 -0.142727
603254000 0.904055 -0.146775
609186540 0.918127 -0.153784
615119080 0.919738 -0.151111
621051620 0.915767 -0.152157
626984160 0.906008 -0.145242
632916700 0.905009 -0.147535
638849240 0.914962 -0.152107
644781780 0.918453 -0.149262
650714320 0.914922 -0.149053
656646860 0.902329 -0.147119
662579400 0.897695 -0.148819
668511940 0.910872 -0.149147
674444480 0.91785 -0.147339
680377020 0.912852 -0.146285
686309560 0.904353 -0.141475
692242100 0.897115 -0.140814
698174640 0.90348 -0.146585
704107180 0.905357 -0.149585
710039720 0.901592 -0.150191
715972260 0.888639 -0.148651
721904800 0.881883 -0.153248
727837340 0.892881 -0.157283
733769880 0.897136 -0.159365
739702420 0.895522 -0.155628
745634960 0.885219 -0.151304
751567500 0.878804 -0.153206
757500040 0.88851 -0.157044
763432580 0.890087 -0.157205
769365120 0.889338 -0.158227
775297660 0.880794 -0.152509
781230200 0.873775 -0.151435
787162740 0.881713 -0.157361
793095280 0.887842 -0.158763
799027820 0.887182 -0.156682
804960360 0.879225 -0.152366
810892900 0.867976 -0.155548
816825440 0.878882 -0.158904
822757980 0.886279 -0.156014
828690520 0.883607 -0.157023
834623060 0.87464 -0.153836
840555600 0.862096 -0.152222
846488140 0.873752 -0.156434
852420680 0.881959 -0.156469
858353220 0.878635 -0.159471
864285760 0.871675 -0.158741
870218300 0.855998 -0.157501
876150840 0.871157 -0.156659
882083380 0.876884 -0.160527
888015920 0.878047 -0.157858
893948460 0.869928 -0.157426
899881000 0.857429 -0.154718
905813540 0.870406 -0.154328
911746080 0.873362 -0.163349
917678620 0.87375 -0.162212
923611160 0.866122 -0.16231
929543700 0.852131 -0.161754
935476240 0.862383 -0.165818
941408780 0.871978 -0.166373
947341320 0.87029 -0.166917
953273860 0.862469 -0.162506
959206400 0.848581 -0.158673
965138940 0.856131 -0.163351
971071480 0.860622 -0.165615
977004020 0.86389 -0.165642
982936560 0.857448 -0.166605
988869100 0.845176 -0.166272
994801640 0.860009 -0.161578
1000734180 0.858648 -0.169353
1006666720 0.859638 -0.167206
1012599260 0.855686 -0.165146
1018531800 0.846059 -0.162051
1024464340 0.847855 -0.162203
1030396880 0.854735 -0.165831
1036329420 0.858057 -0.164989
1042261960 0.85035 -0.161017
1048194500 0.842119 -0.160899
1054127040 0.845506 -0.158675
1060059580 0.851358 -0.166131
1065992120 0.852074 -0.167125
1071924660 0.849786 -0.164448
1077857200 0.837452 -0.162957
1083789740 0.840575 -0.164066
1089722280 0.850607 -0.164958
1095654820 0.850627 -0.161364
1101587360 0.845106 -0.165921
1107519900 0.836128 -0.160882
1113452440 0.838511 -0.162517
1119384980 0.846658 -0.163619
1125317520 0.847938 -0.168552
1131250060 0.846327 -0.166629
1137182600 0.833268 -0.163885
1143115140 0.833912 -0.165553
1149047680 0.845607 -0.162745
1154980220 0.847106 -0.165934
1160912760 0.84402 -0.160993
1166845300 0.835177 -0.157839
1172777840 0.831674 -0.160855
1178710380 0.842572 -0.16341
1184642920 0.842615 -0.16255
1190575460 0.840404 -0.163515
1196508000 0.828321 -0.162319
1202440540 0.827239 -0.163464
1208373080 0.837072 -0.168421
1214305620 0.842071 -0.164913
1220238160 0.837403 -0.168099
1226170700 0.827992 -0.163822
1232103240 0.822849 -0.16185
1238035780 0.831515 -0.168563
1243968320 0.837073 -0.167712
1249900860 0.835016 -0.165887
1255833400 0.825552 -0.159143
1261765940 0.817486 -0.155994
1267698480 0.828492 -0.161937
1273631020 0.83161 -0.1652
1279563560 0.832316 -0.165003
1285496100 0.824857 -0.164314
1291428640 0.817321 -0.159069
1297361180 0.827406 -0.164894
1303293720 0.83099 -0.164286
1309226260 0.829915 -0.162919
1315158800 0.821961 -0.158094
1321091340 0.811444 -0.153976
1327023880 0.820309 -0.160445
1332956420 0.822009 -0.162537
1338888960 0.822775 -0.165956
1344821500 0.817358 -0.166048
1350754040 0.809919 -0.167515
1356686580 0.812873 -0.166673
1362619120 0.821371 -0.173436
1368551660 0.817317 -0.176346
1374484200 0.813933 -0.172253
1380416740 0.798537 -0.172608
1386349280 0.810962 -0.177452
1392281820 0.817264 -0.174153
1398214360 0.819768 -0.175469
1404146900 0.814412 -0.169084
1410079440 0.809826 -0.161536
1416011980 0.82148 -0.164304
1421944520 0.831306 -0.164789
1427877060 0.833076 -0.157935
1433809600 0.831716 -0.153104
1439742140 0.82034 -0.155805
1445674680 0.827137 -0.150234
1451607220 0.829894 -0.159506
1457539760 0.824769 -0.160126
1463472300 0.817227 -0.156517
1469404840 0.804215 -0.157109
1475337380 0.814296 -0.160664
1481269920 0.818222 -0.164303
1487202460 0.820578 -0.159583
1493135000 0.815323 -0.157693
1499067540 0.799461 -0.158999
1505000080 0.808771 -0.163037
1510932620 0.816834 -0.165651
1516865160 0.818034 -0.1624
1522797700 0.81691 -0.153251
1528730240 0.800811 -0.158631
1534662780 0.808527 -0.163667
1540595320 0.816614 -0.163029
1546527860 0.81834 -0.163329
1552460400 0.810686 -0.162819
1558392940 0.799625 -0.155387
1564325480 0.804589 -0.161633
1570258020 0.815768 -0.163241
1576190560 0.814788 -0.170434
1582123100 0.811127 -0.160638
1588055640 0.799554 -0.157659
1593988180 0.804044 -0.16169
1599920720 0.811164 -0.170658
1605853260 0.812865 -0.167492
1611785800 0.811877 -0.164149
1617718340 0.796308 -0.173126
1623650880 0.802001 -0.170756
1629583420 0.808842 -0.16841
1635515960 0.808419 -0.174227
1641448500 0.806228 -0.171698
1647381040 0.798401 -0.162167
1653313580 0.796759 -0.164136
1659246120 0.80168 -0.167913
1665178660 0.805563 -0.171455
1671111200 0.802635 -0.170639
1677043740 0.793825 -0.1674
1682976280 0.792209 -0.169171
1688908820 0.801509 -0.167514
1694841360 0.805234 -0.171185
1700773900 0.800985 -0.167528
1706706440 0.794644 -0.163998
1712638980 0.793637 -0.16332
1718571520 0.798466 -0.167335
1724504060 0.8032 -0.173278
1730436600 0.798292 -0.168704
1736369140 0.788392 -0.166617
1742301680 0.783575 -0.16908
1748234220 0.795471 -0.177024
1754166760 0.801556 -0.170908
1760099300 0.80031 -0.160585
1766031840 0.793143 -0.164906
1771964380 0.789678 -0.165271
1777896920 0.800179 -0.165505
1783829460 0.805231 -0.165848
1789762000 0.806354 -0.157647
1795694540 0.796316 -0.157317
1801627080 0.792887 -0.158272
1807559620 0.798305 -0.158547
1813492160 0.797537 -0.16586
1819424700 0.800794 -0.159398
1825357240 0.791936 -0.163095
1831289780 0.785761 -0.170955
1837222320 0.793018 -0.171493
1843154860 0.79802 -0.175082
1849087400 0.791384 -0.169466
1855019940 0.786469 -0.170754
1860952480 0.777048 -0.168624
1866885020 0.78617 -0.171678
1872817560 0.792153 -0.174704
1878750100 0.917988 -0.227536
1884682640 0.79139 -0.155289
1890615180 0.784878 -0.149386
1896547720 0.794188 -0.156841
1902480260 0.80053 -0.157928
1908412800 0.799366 -0.149883
1914345340 0.792672 -0.148254
1920277880 0.77807 -0.142945
1926210420 0.78961 -0.152945
1932142960 0.795669 -0.153507
1938075500 0.793691 -0.158422
1944008040 0.787107 -0.154749
1949940580 0.778008 -0.15089
1955873120 0.791795 -0.14953
1961805660 0.797416 -0.150704
1967738200 0.793196 -0.156989
1973670740 0.789823 -0.147631
1979603280 0.780231 -0.13913
1985535820 0.781399 -0.161574
1991468360 0.788695 -0.161523
1997400900 0.787657 -0.165085
2003333440 0.780872 -0.16602
2009265980 0.775316 -0.157841
2015198520 0.780995 -0.165838
2021131060 0.786873 -0.173519
2027063600 0.787772 -0.170548
2032996140 0.781123 -0.167883
2038928680 0.772795 -0.159897
2044861220 0.775557 -0.175791
2050793760 0.782718 -0.174851
2056726300 0.785989 -0.167149
2062658840 0.778687 -0.166725
2068591380 0.767912 -0.160853
2074523920 0.77261 -0.170695
2080456460 0.781313 -0.164938
2086389000 0.780248 -0.164597
2092321540 0.786155 -0.134087
2098254080 0.76694 -0.16077
2104186620 0.770326 -0.167354
2110119160 0.778511 -0.166921
2116051700 0.782399 -0.168766
2121984240 0.774838 -0.178046
2127916780 0.769084 -0.172038
2133849320 0.769158 -0.169789
2139781860 0.778692 -0.178589
2145714400 0.781423 -0.176263
2151646940 0.774607 -0.173963
2157579480 0.769765 -0.168488
2163512020 0.769886 -0.172284
2169444560 0.773304 -0.179522
2175377100 0.782706 -0.173147
2181309640 0.77865 -0.167658
2187242180 0.767454 -0.169352
2193174720 0.768042 -0.170101
2199107260 0.778697 -0.173168
2205039800 0.781097 -0.172967
2210972340 0.781029 -0.170244
2216904880 0.776796 -0.162104
2222837420 0.768229 -0.16746
2228769960 0.77368 -0.17756
2234702500 0.778359 -0.16642
2240635040 0.779416 -0.168817
2246567580 0.772277 -0.153983
2252500120 0.760592 -0.167594
2258432660 0.765468 -0.174871
2264365200 0.769439 -0.174994
2270297740 0.773823 -0.168694
2276230280 0.77103 -0.170282
2282162820 0.763307 -0.173266
2288095360 0.772767 -0.167525
2294027900 0.769768 -0.171136
2299960440 0.772571 -0.167352
2305892980 0.761666 -0.166476
2311825520 0.758107 -0.166917
2317758060 0.762275 -0.171421
2323690600 0.76719 -0.167784
2329623140 0.765971 -0.166568
2335555680 0.763671 -0.166579
2341488220 0.755947 -0.17507
2347420760 0.768437 -0.171028
2353353300 0.765111 -0.171484
2359285840 0.76734 -0.16875
2365218380 0.756286 -0.179305
2371150920 0.754591 -0.175666
2377083460 0.763038 -0.176573
2383016000 0.777373 -0.162521
2388948540 0.775651 -0.166591
2394881080 0.765392 -0.16001
2400813620 0.757792 -0.164861
2406746160 0.768285 -0.171403
2412678700 0.768943 -0.175468
2418611240 0.773508 -0.172244
2424543780 0.767204 -0.165355
2430476320 0.753049 -0.16932
2436408860 0.761641 -0.173006
2442341400 0.766825 -0.155874
2448273940 0.765854 -0.177603
2454206480 0.75643 -0.172938
2460139020 0.753853 -0.176297
2466071560 0.764831 -0.179114
2472004100 0.765003 -0.206591
2477936640 0.765695 -0.167861
2483869180 0.767866 -0.171832
2489801720 0.757962 -0.174422
2495734260 0.769839 -0.171565
2501666800 0.773507 -0.171436
2507599340 0.78129 -0.168831
2513531880 0.769292 -0.159853
2519464420 0.758499 -0.165693
2525396960 0.768963 -0.167952
2531329500 0.772483 -0.173269
2537262040 0.772068 -0.169008
2543194580 0.767922 -0.170387
2549127120 0.751778 -0.168905
2555059660 0.754821 -0.172381
2560992200 0.765976 -0.172351
2566924740 0.768986 -0.175852
2572857280 0.763272 -0.171795
2578789820 0.752588 -0.169894
2584722360 0.758356 -0.169609
2590654900 0.764253 -0.169003
2596587440 0.762927 -0.175051
2602519980 0.75939 -0.170096
2608452520 0.752082 -0.170866
2614385060 0.753716 -0.168771
2620317600 0.758568 -0.179594
2626250140 0.759782 -0.169834
2632182680 0.759964 -0.167979
2638115220 0.748843 -0.171221
2644047760 0.75388 -0.171362
2649980300 0.765136 -0.173759
2655912840 0.760761 -0.170247
2661845380 0.757082 -0.166735
2667777920 0.749783 -0.164872
2673710460 0.753608 -0.167336
2679643000 0.752269 -0.163993
2685575540 0.760485 -0.171223
2691508080 0.74592 -0.169183
2697440620 0.737474 -0.165931
2703373160 0.749617 -0.16913
2709305700 0.762449 -0.177367
2715238240 0.763037 -0.181198
2721170780 0.753556 -0.179748
2727103320 0.747626 -0.173501
2733035860 0.753928 -0.172969
2738968400 0.757875 -0.178589
2744900940 0.764697 -0.170382
2750833480 0.759646 -0.168855
2756766020 0.754542 -0.173341
2762698560 0.74957 -0.168578
2768631100 0.770394 -0.155091
2774563640 0.747462 -0.180854
2780496180 0.762118 -0.167274
2786428720 0.748678 -0.16528
2792361260 0.745868 -0.169033
2798293800 0.759337 -0.166215
2804226340 0.754574 -0.182544
2810158880 0.749014 -0.194706
2816091420 0.746324 -0.174273
2822023960 0.734494 -0.171674
2827956500 0.759032 -0.191455
2833889040 0.755822 -0.167916
2839821580 0.753095 -0.188591
2845754120 0.748616 -0.173928
2851686660 0.745665 -0.174676
2857619200 0.7467 -0.169919
2863551740 0.754521 -0.17496
2869484280 0.764393 -0.176576
2875416820 0.758072 -0.165546
2881349360 0.730568 -0.170185
2887281900 0.748318 -0.178031
2893214440 0.748103 -0.170846
2899146980 0.757157 -0.172693
2905079520 0.74838 -0.168358
2911012060 0.738287 -0.167308
2916944600 0.746295 -0.176986
2922877140 0.746954 -0.169064
2928809680 0.743471 -0.177934
2934742220 0.734878 -0.178054
2940674760 0.735545 -0.178963
2946607300 0.745714 -0.183188
2952539840 0.757027 -0.184475
2958472380 0.747367 -0.185049
2964404920 0.749643 -0.174133
2970337460 0.740365 -0.168688
2976270000 0.743295 -0.175495
2982202540 0.746123 -0.170982
2988135080 0.744634 -0.173077
2994067620 0.74021 -0.172167
3000000160 0.0 0.0
