# HZ S RI R 50
10000000 -0.747322 -0.888692
15932540 -0.525081 -2.50816
21865080 1.256297 -1.836504
27797620 1.127479 -1.236054
33730160 1.089261 -1.330491
39662700 1.063331 -1.4778
45595240 0.999185 -1.283409
51527780 0.692329 -0.703705
57460320 0.068582 -0.153813
63392860 -0.210689 -0.01169
69325400 -0.214271 -0.012218
75257940 -0.213668 -0.014377
81190480 -0.21343 -0.014641
87123020 -0.210997 -0.016832
93055560 -0.210232 -0.016025
98988100 -0.213923 -0.018301
104920640 -0.213524 -0.019262
110853180 -0.21337 -0.020266
116785720 -0.211584 -0.020775
122718260 -0.211379 -0.021377
128650800 -0.215401 -0.022331
134583340 -0.214946 -0.025168
140515880 -0.212699 -0.025155
146448420 -0.211128 -0.026069
152380960 -0.210517 -0.030727
158313500 -0.213162 -0.031826
164246040 -0.214315 -0.033721
170178580 -0.213401 -0.035315
176111120 -0.211407 -0.035142
182043660 -0.210503 -0.03611
187976200 -0.213395 -0.037116
193908740 -0.214518 -0.038724
199841280 -0.213599 -0.040534
205773820 -0.212119 -0.040622
211706360 -0.210902 -0.04114
217638900 -0.21335 -0.042809
223571440 -0.215335 -0.04475
229503980 -0.214388 -0.044975
235436520 -0.212801 -0.042327
241369060 -0.21108 -0.043048
247301600 -0.214426 -0.04441
253234140 -0.215981 -0.046279
259166680 -0.215393 -0.047678
265099220 -0.212797 -0.048442
271031760 -0.210971 -0.048916
276964300 -0.213838 -0.050369
282896840 -0.215649 -0.051891
288829380 -0.216001 -0.05368
294761920 -0.214232 -0.0536
300694460 -0.211435 -0.054534
306627000 -0.215343 -0.055412
312559540 -0.216012 -0.057962
318492080 -0.215691 -0.058465
324424620 -0.21448 -0.060025
330357160 -0.212696 -0.059701
336289700 -0.215116 -0.06202
342222240 -0.215584 -0.068274
348154780 -0.216957 -0.066283
354087320 -0.215017 -0.066217
360019860 -0.211233 -0.065746
365952400 -0.214585 -0.067017
371884940 -0.216393 -0.069306
377817480 -0.217061 -0.070805
383750020 -0.21517 -0.069964
389682560 -0.212235 -0.070728
395615100 -0.213978 -0.071948
401547640 -0.216614 -0.073478
407480180 -0.216562 -0.074533
413412720 -0.215374 -0.076226
419345260 -0.212215 -0.075677
425277800 -0.214404 -0.076306
431210340 -0.216559 -0.07907
437142880 -0.217144 -0.079501
443075420 -0.21623 -0.080855
449007960 -0.213259 -0.080103
454940500 -0.215079 -0.081805
460873040 -0.218177 -0.082998
466805580 -0.21761 -0.085852
472738120 -0.217233 -0.086469
478670660 -0.21386 -0.085931
484603200 -0.215725 -0.088455
490535740 -0.218276 -0.089129
496468280 -0.2189 -0.090646
502400820 -0.216838 -0.090104
508333360 -0.215507 -0.090311
514265900 -0.215916 -0.091341
520198440 -0.219567 -0.093312
526130980 -0.220064 -0.094801
532063520 -0.218641 -0.095768
537996060 -0.216065 -0.095015
543928600 -0.217803 -0.096424
549861140 -0.221171 -0.098427
555793680 -0.223441 -0.100298
561726220 -0.222246 -0.101463
567658760 -0.21956 -0.10074
573591300 -0.219542 -0.102946
579523840 -0.222901 -0.104296
585456380 -0.221342 -0.104981
591388920 -0.220167 -0.106175
597321460 -0.216711 -0.105831
603254000 -0.217746 -0.104874
609186540 -0.220657 -0.107453
615119080 -0.22082 -0.10971
621051620 -0.220024 -0.109669
626984160 -0.21763 -0.109699
632916700 -0.217754 -0.11133
638849240 -0.219922 -0.112036
644781780 -0.220399 -0.114161
650714320 -0.219728 -0.114774
656646860 -0.219628 -0.11591
662579400 -0.218605 -0.113863
668511940 -0.22107 -0.119297
674444480 -0.22108 -0.120226
680377020 -0.221442 -0.122875
686309560 -0.21658 -0.127476
692242100 -0.217688 -0.122845
698174640 -0.220622 -0.125175
704107180 -0.221964 -0.125165
710039720 -0.220868 -0.124089
715972260 -0.220032 -0.124416
721904800 -0.219796 -0.123361
727837340 -0.223288 -0.127811
733769880 -0.22435 -0.129813
739702420 -0.224425 -0.131621
745634960 -0.222513 -0.133173
751567500 -0.219713 -0.132
757500040 -0.223147 -0.133416
763432580 -0.224709 -0.134003
769365120 -0.225345 -0.135523
775297660 -0.222553 -0.135025
781230200 -0.221726 -0.134605
787162740 -0.225054 -0.137021
793095280 -0.226599 -0.137706
799027820 -0.226739 -0.140255
804960360 -0.223075 -0.141165
810892900 -0.222821 -0.139846
816825440 -0.223316 -0.143115
822757980 -0.226965 -0.144018
828690520 -0.225516 -0.145303
834623060 -0.222358 -0.145929
840555600 -0.220545 -0.144156
846488140 -0.224399 -0.146432
852420680 -0.226676 -0.148758
858353220 -0.227268 -0.149543
864285760 -0.225484 -0.148752
870218300 -0.223521 -0.147941
876150840 -0.227766 -0.150548
882083380 -0.228781 -0.152679
888015920 -0.230005 -0.15201
893948460 -0.226841 -0.154147
899881000 -0.22388 -0.153335
905813540 -0.226817 -0.157127
911746080 -0.228767 -0.156826
917678620 -0.228968 -0.159505
923611160 -0.226949 -0.158624
929543700 -0.224925 -0.157418
935476240 -0.22761 -0.159742
941408780 -0.230388 -0.162166
947341320 -0.231018 -0.163819
953273860 -0.230248 -0.164617
959206400 -0.22601 -0.164036
965138940 -0.229238 -0.166149
971071480 -0.232687 -0.169139
977004020 -0.232048 -0.170401
982936560 -0.230858 -0.169132
988869100 -0.228471 -0.166772
994801640 -0.23236 -0.172069
1000734180 -0.232067 -0.171448
1006666720 -0.232866 -0.172229
1012599260 -0.230449 -0.173386
1018531800 -0.227803 -0.171982
1024464340 -0.230292 -0.173107
1030396880 -0.232582 -0.177529
1036329420 -0.233506 -0.178286
1042261960 -0.230922 -0.17879
1048194500 -0.230009 -0.177855
1054127040 -0.231031 -0.177044
1060059580 -0.234087 -0.180545
1065992120 -0.23336 -0.184591
1071924660 -0.232352 -0.183759
1077857200 -0.229138 -0.183138
1083789740 -0.231559 -0.183218
1089722280 -0.234259 -0.186173
1095654820 -0.23353 -0.188824
1101587360 -0.23344 -0.189163
1107519900 -0.228205 -0.189797
1113452440 -0.230447 -0.189469
1119384980 -0.230746 -0.192783
1125317520 -0.234307 -0.194036
1131250060 -0.234135 -0.193039
1137182600 -0.231437 -0.191654
1143115140 -0.231312 -0.191016
1149047680 -0.23416 -0.193906
1154980220 -0.234744 -0.19584
1160912760 -0.234743 -0.196949
1166845300 -0.229556 -0.195394
1172777840 -0.232218 -0.195905
1178710380 -0.233884 -0.199206
1184642920 -0.23401 -0.200043
1190575460 -0.234779 -0.201274
1196508000 -0.23542 -0.198177
1202440540 -0.232871 -0.199165
1208373080 -0.23634 -0.202885
1214305620 -0.23849 -0.203546
1220238160 -0.234886 -0.20476
1226170700 -0.233138 -0.201415
1232103240 -0.233508 -0.200709
1238035780 -0.235092 -0.204577
1243968320 -0.236599 -0.205927
1249900860 -0.233598 -0.208038
1255833400 -0.231631 -0.210195
1261765940 -0.228561 -0.206457
1267698480 -0.235439 -0.207393
1273631020 -0.235401 -0.211583
1279563560 -0.235683 -0.214651
1285496100 -0.234446 -0.214128
1291428640 -0.234469 -0.210805
1297361180 -0.237549 -0.214457
1303293720 -0.238113 -0.216775
1309226260 -0.237685 -0.217203
1315158800 -0.236508 -0.217419
1321091340 -0.233795 -0.215247
1327023880 -0.238738 -0.216956
1332956420 -0.239471 -0.220361
1338888960 -0.238479 -0.221083
1344821500 -0.239597 -0.218365
1350754040 -0.235481 -0.21649
1356686580 -0.239581 -0.219945
1362619120 -0.242292 -0.221915
1368551660 -0.242543 -0.222601
1374484200 -0.240403 -0.221373
1380416740 -0.23878 -0.218114
1386349280 -0.244597 -0.223505
1392281820 -0.245017 -0.225136
1398214360 -0.242991 -0.230411
1404146900 -0.241568 -0.22517
1410079440 -0.237338 -0.226735
1416011980 -0.241297 -0.231627
1421944520 -0.244907 -0.234173
1427877060 -0.244113 -0.234684
1433809600 -0.241648 -0.233701
1439742140 -0.23693 -0.230279
1445674680 -0.241445 -0.232225
1451607220 -0.244821 -0.233889
1457539760 -0.244678 -0.234575
1463472300 -0.24207 -0.234377
1469404840 -0.23986 -0.229292
1475337380 -0.243335 -0.232329
1481269920 -0.246426 -0.235388
1487202460 -0.248042 -0.235415
1493135000 -0.24607 -0.234207
1499067540 -0.24225 -0.231099
1505000080 -0.247718 -0.233083
1510932620 -0.248646 -0.237888
1516865160 -0.250489 -0.240903
1522797700 -0.245654 -0.241163
1528730240 -0.243981 -0.237454
1534662780 -0.246127 -0.241104
1540595320 -0.250453 -0.243403
1546527860 -0.249048 -0.245695
1552460400 -0.245907 -0.245997
1558392940 -0.24459 -0.241283
1564325480 -0.248372 -0.244151
1570258020 -0.246813 -0.249652
1576190560 -0.250694 -0.248583
1582123100 -0.247634 -0.249272
1588055640 -0.244842 -0.247335
1593988180 -0.249719 -0.247883
1599920720 -0.24996 -0.25322
1605853260 -0.251928 -0.254981
1611785800 -0.252014 -0.255089
1617718340 -0.24734 -0.254707
1623650880 -0.24853 -0.256558
1629583420 -0.252587 -0.257686
1635515960 -0.251073 -0.257434
1641448500 -0.248121 -0.257421
1647381040 -0.245461 -0.255022
1653313580 -0.250263 -0.253222
1659246120 -0.252332 -0.256607
1665178660 -0.251765 -0.261749
1671111200 -0.250487 -0.262107
1677043740 -0.2469 -0.258527
1682976280 -0.246348 -0.259591
1688908820 -0.250732 -0.26142
1694841360 -0.25094 -0.263841
1700773900 -0.249465 -0.265236
1706706440 -0.247675 -0.26013
1712638980 -0.246443 -0.261086
1718571520 -0.252035 -0.263368
1724504060 -0.253607 -0.263739
1730436600 -0.252598 -0.262419
1736369140 -0.25035 -0.262222
1742301680 -0.255254 -0.258755
1748234220 -0.254542 -0.265412
1754166760 -0.254549 -0.27105
1760099300 -0.253762 -0.268858
1766031840 -0.251837 -0.267635
1771964380 -0.249484 -0.267176
1777896920 -0.251612 -0.273903
1783829460 -0.254833 -0.275069
1789762000 -0.252857 -0.275921
1795694540 -0.24826 -0.273034
1801627080 -0.246448 -0.272021
1807559620 -0.251409 -0.275788
1813492160 -0.254774 -0.277398
1819424700 -0.257146 -0.275291
1825357240 -0.250086 -0.27589
1831289780 -0.250417 -0.273929
1837222320 -0.255608 -0.278381
1843154860 -0.259052 -0.283728
1849087400 -0.258276 -0.27637
1855019940 -0.251957 -0.279735
1860952480 -0.252266 -0.27689
1866885020 -0.254059 -0.281454
1872817560 -0.256478 -0.283878
1878750100 -0.245578 -0.295865
1884682640 -0.252519 -0.280983
1890615180 -0.249346 -0.278577
1896547720 -0.252518 -0.284686
1902480260 -0.253505 -0.287686
1908412800 -0.255067 -0.287462
1914345340 -0.2551 -0.284597
1920277880 -0.258268 -0.277009
1926210420 -0.258725 -0.283337
1932142960 -0.256123 -0.289599
1938075500 -0.255526 -0.288219
1944008040 -0.258126 -0.285367
1949940580 -0.252239 -0.283283
1955873120 -0.256924 -0.288527
1961805660 -0.258186 -0.290351
1967738200 -0.253924 -0.291948
1973670740 -0.249752 -0.288998
1979603280 -0.246926 -0.281871
1985535820 -0.251225 -0.285516
1991468360 -0.256354 -0.288442
1997400900 -0.257219 -0.28884
2003333440 -0.256676 -0.288755
2009265980 -0.254205 -0.285048
2015198520 -0.258473 -0.290033
2021131060 -0.25925 -0.29183
2027063600 -0.26139 -0.291077
2032996140 -0.25933 -0.294741
2038928680 -0.258788 -0.288389
2044861220 -0.260218 -0.292392
2050793760 -0.265433 -0.291539
2056726300 -0.260113 -0.299343
2062658840 -0.259548 -0.296591
2068591380 -0.257654 -0.29311
2074523920 -0.259473 -0.296056
2080456460 -0.262302 -0.298527
2086389000 -0.263753 -0.303154
2092321540 -0.26154 -0.300673
2098254080 -0.259386 -0.297076
2104186620 -0.264424 -0.299532
2110119160 -0.264852 -0.305485
2116051700 -0.26674 -0.305383
2121984240 -0.268094 -0.305936
2127916780 -0.264537 -0.301247
2133849320 -0.265931 -0.306028
2139781860 -0.268789 -0.308923
2145714400 -0.269518 -0.309597
2151646940 -0.265913 -0.308862
2157579480 -0.263915 -0.303049
2163512020 -0.263132 -0.300909
2169444560 -0.266977 -0.309714
2175377100 -0.267684 -0.310426
2181309640 -0.263278 -0.313029
2187242180 -0.262097 -0.308983
2193174720 -0.261409 -0.309974
2199107260 -0.262268 -0.316848
2205039800 -0.264651 -0.316865
2210972340 -0.262186 -0.31332
2216904880 -0.251425 -0.316626
2222837420 -0.252681 -0.315765
2228769960 -0.25799 -0.319657
2234702500 -0.258274 -0.319551
2240635040 -0.256422 -0.320014
2246567580 -0.259682 -0.312583
2252500120 -0.259029 -0.31863
2258432660 -0.260955 -0.319142
2264365200 -0.259852 -0.326567
2270297740 -0.257109 -0.321475
2276230280 -0.256538 -0.320207
2282162820 -0.260472 -0.311822
2288095360 -0.260713 -0.320284
2294027900 -0.264786 -0.318311
2299960440 -0.259195 -0.31643
2305892980 -0.256373 -0.316368
2311825520 -0.261873 -0.311161
2317758060 -0.260936 -0.317819
2323690600 -0.261626 -0.318977
2329623140 -0.257144 -0.323809
2335555680 -0.258272 -0.317873
2341488220 -0.255201 -0.31688
2347420760 -0.27015 -0.323184
2353353300 -0.26939 -0.328106
2359285840 -0.268093 -0.326775
2365218380 -0.269421 -0.327545
2371150920 -0.270099 -0.328332
2377083460 -0.272945 -0.333394
2383016000 -0.270536 -0.336659
2388948540 -0.266447 -0.33676
2394881080 -0.263796 -0.331765
2400813620 -0.259822 -0.325699
2406746160 -0.264076 -0.33301
2412678700 -0.265021 -0.333694
2418611240 -0.268883 -0.332921
2424543780 -0.264686 -0.328594
2430476320 -0.261221 -0.324622
2436408860 -0.265935 -0.324917
2442341400 -0.268022 -0.327931
2448273940 -0.263761 -0.331454
2454206480 -0.261778 -0.331266
2460139020 -0.256974 -0.327411
2466071560 -0.258843 -0.336766
2472004100 -0.262721 -0.3356
2477936640 -0.247286 -0.349185
2483869180 -0.268425 -0.330903
2489801720 -0.249642 -0.334009
2495734260 -0.253009 -0.341954
2501666800 -0.254065 -0.342752
2507599340 -0.255533 -0.342472
2513531880 -0.258327 -0.341025
2519464420 -0.25139 -0.333621
2525396960 -0.255918 -0.340466
2531329500 -0.258946 -0.337202
2537262040 -0.253919 -0.34081
2543194580 -0.255787 -0.343929
2549127120 -0.250475 -0.331289
2555059660 -0.257594 -0.336385
2560992200 -0.255822 -0.344022
2566924740 -0.257654 -0.336562
2572857280 -0.263575 -0.342405
2578789820 -0.259506 -0.338174
2584722360 -0.262166 -0.341412
2590654900 -0.268042 -0.339544
2596587440 -0.265667 -0.352164
2602519980 -0.263671 -0.345613
2608452520 -0.256639 -0.34344
2614385060 -0.260862 -0.349548
2620317600 -0.262599 -0.346121
2626250140 -0.270516 -0.346934
2632182680 -0.265118 -0.338383
2638115220 -0.260539 -0.34025
2644047760 -0.264448 -0.346607
2649980300 -0.268903 -0.345347
2655912840 -0.259249 -0.358518
2661845380 -0.264091 -0.349131
2667777920 -0.254489 -0.350271
2673710460 -0.256926 -0.353776
2679643000 -0.255767 -0.350717
2685575540 -0.264877 -0.352348
2691508080 -0.263234 -0.348072
2697440620 -0.267736 -0.339794
2703373160 -0.291234 -0.33325
2709305700 -0.271413 -0.346973
2715238240 -0.26819 -0.35382
2721170780 -0.264347 -0.350562
2727103320 -0.262895 -0.348384
2733035860 -0.269085 -0.34681
2738968400 -0.266156 -0.354866
2744900940 -0.261486 -0.359871
2750833480 -0.258974 -0.357974
2756766020 -0.251299 -0.353032
2762698560 -0.25255 -0.356593
2768631100 -0.261283 -0.368685
2774563640 -0.261101 -0.363392
2780496180 -0.259159 -0.354552
2786428720 -0.258395 -0.353977
2792361260 -0.256532 -0.347804
2798293800 -0.26047 -0.356162
2804226340 -0.266138 -0.357663
2810158880 -0.263975 -0.360444
2816091420 -0.259125 -0.355059
2822023960 -0.262778 -0.346886
2827956500 -0.263971 -0.351665
2833889040 -0.260178 -0.360918
2839821580 -0.25953 -0.362325
2845754120 -0.255976 -0.361867
2851686660 -0.258553 -0.356492
2857619200 -0.265893 -0.355877
2863551740 -0.253533 -0.360897
2869484280 -0.259934 -0.351911
2875416820 -0.265139 -0.350496
2881349360 -0.261423 -0.345947
2887281900 -0.266962 -0.35645
2893214440 -0.26604 -0.361215
2899146980 -0.266375 -0.361809
2905079520 -0.258542 -0.360943
2911012060 -0.255873 -0.359742
2916944600 -0.261476 -0.361511
2922877140 -0.265475 -0.362085
2928809680 -0.273094 -0.367794
2934742220 -0.276056 -0.36888
2940674760 -0.274275 -0.35743
2946607300 -0.274837 -0.358204
2952539840 -0.281637 -0.372975
2958472380 -0.268718 -0.371189
2964404920 -0.262779 -0.360386
2970337460 -0.256622 -0.361411
2976270000 -0.264961 -0.371013
2982202540 -0.264215 -0.368346
2988135080 -0.265613 -0.372544
2994067620 -0.261613 -0.364382
3000000160 0.0 0.0
