# HZ S RI R 50
10000000 0.129143 0.589288
15932540 0.315036 0.28116
21865080 0.41624 0.116102
27797620 0.49404 0.006119
33730160 0.583978 -0.024434
39662700 0.700402 -0.010261
45595240 0.82771 0.016122
51527780 0.948706 0.042297
57460320 1.000718 0.016118
63392860 0.961173 -0.035132
69325400 0.969454 -0.038449
75257940 0.972963 -0.041379
81190480 0.969203 -0.042559
87123020 0.958562 -0.042524
93055560 0.95688 -0.047749
98988100 0.966822 -0.050608
104920640 0.970533 -0.055294
110853180 0.965589 -0.056992
116785720 0.954537 -0.055712
122718260 0.955002 -0.058685
128650800 0.966626 -0.059863
134583340 0.972278 -0.061745
140515880 0.958051 -0.07107
146448420 0.950883 -0.068782
152380960 0.947831 -0.070525
158313500 0.957308 -0.073186
164246040 0.960216 -0.075306
170178580 0.956259 -0.077334
176111120 0.946366 -0.077553
182043660 0.943164 -0.080367
187976200 0.95228 -0.082829
193908740 0.955824 -0.084187
199841280 0.952652 -0.085185
205773820 0.942576 -0.088434
211706360 0.936559 -0.091876
217638900 0.947975 -0.093586
223571440 0.953473 -0.096613
229503980 0.950227 -0.097107
235436520 0.939548 -0.097657
241369060 0.931255 -0.104342
247301600 0.943645 -0.105042
253234140 0.947668 -0.107664
259166680 0.945075 -0.109226
265099220 0.934898 -0.111037
271031760 0.924546 -0.113017
276964300 0.938379 -0.118171
282896840 0.943818 -0.118703
288829380 0.941497 -0.119807
294761920 0.931761 -0.120153
300694460 0.916738 -0.123473
306627000 0.931445 -0.128081
312559540 0.937469 -0.129448
318492080 0.935992 -0.131726
324424620 0.925868 -0.130747
330357160 0.910873 -0.134425
336289700 0.925059 -0.13766
342222240 0.930186 -0.141565
348154780 0.93011 -0.14097
354087320 0.919422 -0.140559
360019860 0.902883 -0.140956
365952400 0.916471 -0.147519
371884940 0.923719 -0.149897
377817480 0.92296 -0.151162
383750020 0.914333 -0.150442
389682560 0.898095 -0.150011
395615100 0.909785 -0.153483
401547640 0.914593 -0.159212
407480180 0.914841 -0.158198
413412720 0.907729 -0.158318
419345260 0.89256 -0.156206
425277800 0.906179 -0.145585
431210340 0.905553 -0.166301
437142880 0.906676 -0.16608
443075420 0.899422 -0.162507
449007960 0.885436 -0.162954
454940500 0.892745 -0.166087
460873040 0.898632 -0.169539
466805580 0.898775 -0.172012
472738120 0.891884 -0.1713
478670660 0.879496 -0.169937
484603200 0.884051 -0.174763
490535740 0.890282 -0.178548
496468280 0.891073 -0.177495
502400820 0.884253 -0.177365
508333360 0.871789 -0.177852
514265900 0.87562 -0.182574
520198440 0.882827 -0.184736
526130980 0.885056 -0.183767
532063520 0.879278 -0.182182
537996060 0.866793 -0.183883
543928600 0.872939 -0.189049
549861140 0.881369 -0.194758
555793680 0.886128 -0.195971
561726220 0.885477 -0.193708
567658760 0.872765 -0.195761
573591300 0.87463 -0.196914
579523840 0.881068 -0.199096
585456380 0.876376 -0.200006
591388920 0.869783 -0.197935
597321460 0.852355 -0.196764
603254000 0.851408 -0.200905
609186540 0.860279 -0.206666
615119080 0.864241 -0.206793
621051620 0.860079 -0.204314
626984160 0.849771 -0.201121
632916700 0.848726 -0.20373
638849240 0.855633 -0.208031
644781780 0.858368 -0.209459
650714320 0.855014 -0.206637
656646860 0.842651 -0.204991
662579400 0.841086 -0.208094
668511940 0.849686 -0.212911
674444480 0.856573 -0.208715
680377020 0.854737 -0.206556
686309560 0.841365 -0.202402
692242100 0.839379 -0.206919
698174640 0.843609 -0.210866
704107180 0.844528 -0.214495
710039720 0.838851 -0.215842
715972260 0.829131 -0.213618
721904800 0.823406 -0.216166
727837340 0.828746 -0.222673
733769880 0.833941 -0.222747
739702420 0.830346 -0.224631
745634960 0.821756 -0.218215
751567500 0.815863 -0.220244
757500040 0.823011 -0.224775
763432580 0.828004 -0.223176
769365120 0.822754 -0.226693
775297660 0.815187 -0.222293
781230200 0.805642 -0.223145
787162740 0.816694 -0.22607
793095280 0.819058 -0.230342
799027820 0.818247 -0.229052
804960360 0.80777 -0.226264
810892900 0.799595 -0.228991
816825440 0.810641 -0.230265
822757980 0.814252 -0.230556
828690520 0.813916 -0.231128
834623060 0.803568 -0.228613
840555600 0.792577 -0.226957
846488140 0.802914 -0.232083
852420680 0.810307 -0.232566
858353220 0.80555 -0.236458
864285760 0.798554 -0.233705
870218300 0.784897 -0.232891
876150840 0.796493 -0.237686
882083380 0.802956 -0.239948
888015920 0.803303 -0.238396
893948460 0.796585 -0.23669
899881000 0.896146 -0.216748
905813540 0.7907 -0.239757
911746080 0.795708 -0.242678
917678620 0.79584 -0.243424
923611160 0.788454 -0.240845
929543700 0.775827 -0.241602
935476240 0.783699 -0.247459
941408780 0.786793 -0.250953
947341320 0.790714 -0.246707
953273860 0.781494 -0.245511
959206400 0.769796 -0.240829
965138940 0.776147 -0.245584
971071480 0.779108 -0.250145
977004020 0.780946 -0.250002
982936560 0.775089 -0.248085
988869100 0.761582 -0.245002
994801640 0.775847 -0.251757
1000734180 0.77067 -0.253368
1006666720 0.772696 -0.252413
1012599260 0.76729 -0.255591
1018531800 0.760698 -0.245016
1024464340 0.763149 -0.252209
1030396880 0.768709 -0.254226
1036329420 0.770171 -0.251088
1042261960 0.766141 -0.251796
1048194500 0.75524 -0.247135
1054127040 0.758488 -0.248827
1060059580 0.760217 -0.251113
1065992120 0.763602 -0.251906
1071924660 0.758027 -0.250929
1077857200 0.750344 -0.249212
1083789740 0.750457 -0.254019
1089722280 0.755906 -0.257252
1095654820 0.758751 -0.254268
1101587360 0.754266 -0.256152
1107519900 0.745864 -0.252736
1113452440 0.745457 -0.253863
1119384980 0.751249 -0.256501
1125317520 0.751763 -0.258919
1131250060 0.749277 -0.257023
1137182600 0.740941 -0.254373
1143115140 0.742528 -0.251086
1149047680 0.74701 -0.255015
1154980220 0.750079 -0.258312
1160912760 0.747329 -0.256358
1166845300 0.740332 -0.250849
1172777840 0.734252 -0.254465
1178710380 0.742723 -0.255483
1184642920 0.74655 -0.256232
1190575460 0.740265 -0.25817
1196508000 0.728982 -0.256802
1202440540 0.72667 -0.256853
1208373080 0.736012 -0.263198
1214305620 0.737162 -0.266441
1220238160 0.735211 -0.259057
1226170700 0.727711 -0.254768
1232103240 0.718741 -0.257029
1238035780 0.729335 -0.261047
1243968320 0.733479 -0.258677
1249900860 0.730929 -0.256983
1255833400 0.723502 -0.250961
1261765940 0.71645 -0.250949
1267698480 0.723602 -0.256144
1273631020 0.727805 -0.260286
1279563560 0.727454 -0.260454
1285496100 0.732094 -0.238319
1291428640 0.710961 -0.258137
1297361180 0.718199 -0.259161
1303293720 0.725323 -0.260487
1309226260 0.719022 -0.260862
1315158800 0.713744 -0.255659
1321091340 0.703834 -0.248213
1327023880 0.707061 -0.261867
1332956420 0.711314 -0.261785
1338888960 0.708984 -0.264163
1344821500 0.70821 -0.262487
1350754040 0.699241 -0.261829
1356686580 0.70368 -0.265678
1362619120 0.70505 -0.271024
1368551660 0.703671 -0.275026
1374484200 0.695 -0.271411
1380416740 0.68834 -0.268058
1386349280 0.696924 -0.27108
1392281820 0.703315 -0.273297
1398214360 0.702685 -0.268693
1404146900 0.698793 -0.267172
1410079440 0.692631 -0.256969
1416011980 0.705464 -0.263857
1421944520 0.706976 -0.269495
1427877060 0.713168 -0.263817
1433809600 0.709732 -0.257556
1439742140 0.700351 -0.253118
1445674680 0.703215 -0.260893
1451607220 0.70813 -0.263351
1457539760 0.704239 -0.262255
1463472300 0.695136 -0.262692
1469404840 0.681954 -0.262255
1475337380 0.688103 -0.266825
1481269920 0.694911 -0.263889
1487202460 0.694309 -0.267042
1493135000 0.688913 -0.262901
1499067540 0.676317 -0.259476
1505000080 0.684813 -0.262412
1510932620 0.690726 -0.265925
1516865160 0.690884 -0.269439
1522797700 0.685679 -0.263517
1528730240 0.678435 -0.258894
1534662780 0.680704 -0.265994
1540595320 0.688503 -0.270783
1546527860 0.686269 -0.269981
1552460400 0.67861 -0.269377
1558392940 0.670238 -0.261802
1564325480 0.673028 -0.267737
1570258020 0.68055 -0.274009
1576190560 0.682203 -0.270817
1582123100 0.67654 -0.269815
1588055640 0.668218 -0.265266
1593988180 0.669547 -0.267678
1599920720 0.674785 -0.276715
1605853260 0.677676 -0.27627
1611785800 0.674912 -0.273219
1617718340 0.662674 -0.277439
1623650880 0.666207 -0.274113
1629583420 0.669698 -0.280875
1635515960 0.672468 -0.279053
1641448500 0.66665 -0.273519
1647381040 0.659335 -0.266499
1653313580 0.658377 -0.271152
1659246120 0.663276 -0.277519
1665178660 0.666355 -0.273408
1671111200 0.661083 -0.272419
1677043740 0.654869 -0.270565
1682976280 0.652169 -0.27533
1688908820 0.658611 -0.279064
1694841360 0.660804 -0.279716
1700773900 0.661953 -0.2738
1706706440 0.652477 -0.274031
1712638980 0.651788 -0.2692
1718571520 0.656116 -0.280812
1724504060 0.657942 -0.274428
1730436600 0.653127 -0.275589
1736369140 0.646238 -0.274585
1742301680 0.64337 -0.274558
1748234220 0.651972 -0.284131
1754166760 0.656154 -0.280346
1760099300 0.653221 -0.278329
1766031840 0.646408 -0.276317
1771964380 0.644062 -0.272195
1777896920 0.649434 -0.275701
1783829460 0.658274 -0.274862
1789762000 0.653867 -0.276985
1795694540 0.650095 -0.267983
1801627080 0.646639 -0.264862
1807559620 0.649942 -0.274515
1813492160 0.65266 -0.274911
1819424700 0.652749 -0.272649
1825357240 0.639374 -0.273466
1831289780 0.632456 -0.275675
1837222320 0.635166 -0.280938
1843154860 0.643539 -0.278988
1849087400 0.640335 -0.277047
1855019940 0.628855 -0.278799
1860952480 0.62523 -0.274974
1866885020 0.63316 -0.281719
1872817560 0.639731 -0.280053
1878750100 0.640685 -0.278421
1884682640 0.629523 -0.275077
1890615180 0.625961 -0.269984
1896547720 0.631201 -0.278388
1902480260 0.638567 -0.278635
1908412800 0.636394 -0.275057
1914345340 0.62936 -0.276
1920277880 0.621829 -0.26918
1926210420 0.615473 -0.280029
1932142960 0.634013 -0.277102
1938075500 0.629324 -0.279154
1944008040 0.622979 -0.279174
1949940580 0.610617 -0.276465
1955873120 0.623421 -0.275963
1961805660 0.62776 -0.277989
1967738200 0.626689 -0.28058
1973670740 0.623247 -0.271371
1979603280 0.61495 -0.265279
1985535820 0.617854 -0.274029
1991468360 0.621551 -0.279723
1997400900 0.621601 -0.281998
2003333440 0.614739 -0.278875
2009265980 0.609703 -0.274013
2015198520 0.614539 -0.281176
2021131060 0.617053 -0.280243
2027063600 0.614335 -0.289983
2032996140 0.611232 -0.273344
2038928680 0.603616 -0.278197
2044861220 0.607431 -0.28172
2050793760 0.608728 -0.289385
2056726300 0.613968 -0.280116
2062658840 0.607395 -0.280427
2068591380 0.598664 -0.270984
2074523920 0.599529 -0.280704
2080456460 0.604359 -0.283631
2086389000 0.606747 -0.278402
2092321540 0.599441 -0.273282
2098254080 0.593846 -0.275654
2104186620 0.596121 -0.27769
2110119160 0.605171 -0.280975
2116051700 0.60366 -0.286314
2121984240 0.600889 -0.288601
2127916780 0.593175 -0.283694
2133849320 0.597965 -0.281492
2139781860 0.600455 -0.284934
2145714400 0.602775 -0.289593
2151646940 0.600073 -0.290363
2157579480 0.591734 -0.285003
2163512020 0.593843 -0.286651
2169444560 0.59513 -0.293649
2175377100 0.599719 -0.288691
2181309640 0.59683 -0.289861
2187242180 0.585459 -0.282995
2193174720 0.589593 -0.286389
2199107260 0.596545 -0.287301
2205039800 0.599502 -0.290801
2210972340 0.594438 -0.289219
2216904880 0.592971 -0.278742
2222837420 0.585825 -0.284111
2228769960 0.593504 -0.283032
2234702500 0.592419 -0.286713
2240635040 0.594191 -0.286371
2246567580 0.585056 -0.27988
2252500120 0.585609 -0.278207
2258432660 0.584118 -0.28303
2264365200 0.586207 -0.285479
2270297740 0.589045 -0.283033
2276230280 0.582969 -0.279806
2282162820 0.579137 -0.279535
2288095360 0.57665 -0.28583
2294027900 0.583075 -0.284119
2299960440 0.582754 -0.284152
2305892980 0.569248 -0.284396
2311825520 0.568894 -0.280739
2317758060 0.572394 -0.287378
2323690600 0.578553 -0.283969
2329623140 0.574723 -0.283323
2335555680 0.571893 -0.282634
2341488220 0.563072 -0.281981
2347420760 0.570773 -0.290823
2353353300 0.576634 -0.287649
2359285840 0.56844 -0.299951
2365218380 0.563622 -0.294656
2371150920 0.555627 -0.298508
2377083460 0.567187 -0.297155
2383016000 0.573724 -0.296333
2388948540 0.575971 -0.297355
2394881080 0.569875 -0.290511
2400813620 0.562535 -0.289171
2406746160 0.560404 -0.293356
2412678700 0.572248 -0.286294
2418611240 0.568026 -0.29255
2424543780 0.560164 -0.290135
2430476320 0.556685 -0.293085
2436408860 0.557451 -0.299931
2442341400 0.566427 -0.2856
2448273940 0.564482 -0.290272
2454206480 0.557063 -0.288035
2460139020 0.549542 -0.288676
2466071560 0.561027 -0.304836
2472004100 0.564079 -0.300784
2477936640 0.565202 -0.26355
2483869180 0.56241 -0.286578
2489801720 0.556325 -0.284967
2495734260 0.562543 -0.295497
2501666800 0.56772 -0.297835
2507599340 0.570993 -0.294267
2513531880 0.563669 -0.291674
2519464420 0.553942 -0.287344
2525396960 0.563259 -0.287514
2531329500 0.560917 -0.293515
2537262040 0.560951 -0.28827
2543194580 0.553094 -0.285366
2549127120 0.545349 -0.284311
2555059660 0.546724 -0.289364
2560992200 0.55346 -0.292653
2566924740 0.554346 -0.293926
2572857280 0.555949 -0.28862
2578789820 0.543652 -0.284823
2584722360 0.548903 -0.289481
2590654900 0.551813 -0.290723
2596587440 0.550582 -0.296391
2602519980 0.545466 -0.296291
2608452520 0.539603 -0.29034
2614385060 0.541101 -0.296526
2620317600 0.541903 -0.29515
2626250140 0.546073 -0.292866
2632182680 0.54312 -0.297769
2638115220 0.528841 -0.289691
2644047760 0.534394 -0.292428
2649980300 0.532819 -0.294623
2655912840 0.54164 -0.295984
2661845380 0.535317 -0.292917
2667777920 0.532156 -0.289051
2673710460 0.529442 -0.291027
2679643000 0.531503 -0.293967
2685575540 0.528484 -0.299497
2691508080 0.530422 -0.288572
2697440620 0.518015 -0.296605
2703373160 0.516162 -0.295547
2709305700 0.516257 -0.298437
2715238240 0.537196 -0.299343
2721170780 0.528342 -0.29559
2727103320 0.520369 -0.298992
2733035860 0.522449 -0.295518
2738968400 0.526912 -0.299657
2744900940 0.530881 -0.296819
2750833480 0.537534 -0.288146
2756766020 0.529067 -0.284696
2762698560 0.519954 -0.294274
2768631100 0.525163 -0.30079
2774563640 0.539919 -0.290375
2780496180 0.529873 -0.295334
2786428720 0.524239 -0.292735
2792361260 0.514819 -0.291605
2798293800 0.520325 -0.309935
2804226340 0.520583 -0.300199
2810158880 0.515122 -0.300205
2816091420 0.514121 -0.303296
2822023960 0.50477 -0.294057
2827956500 0.507735 -0.312707
2833889040 0.515585 -0.327862
2839821580 0.523246 -0.315693
2845754120 0.512871 -0.296161
2851686660 0.510088 -0.292952
2857619200 0.520675 -0.303727
2863551740 0.51838 -0.297255
2869484280 0.508059 -0.289628
2875416820 0.499977 -0.295652
2881349360 0.502978 -0.289715
2887281900 0.511924 -0.298265
2893214440 0.504532 -0.298591
2899146980 0.509895 -0.307048
2905079520 0.502699 -0.296767
2911012060 0.502277 -0.300558
2916944600 0.50529 -0.304709
2922877140 0.502267 -0.309363
2928809680 0.496029 -0.302182
2934742220 0.489874 -0.310597
2940674760 0.481279 -0.310941
2946607300 0.49157 -0.309355
2952539840 0.498822 -0.311925
2958472380 0.497982 -0.309583
2964404920 0.497958 -0.303616
2970337460 0.492158 -0.295019
2976270000 0.493638 -0.300251
2982202540 0.498472 -0.302312
2988135080 0.49554 -0.309354
2994067620 0.488462 -0.304401
3000000160 0.0 0.0
