# HZ S RI R 50
10000 0.858662 -0.10638566666666667
2983231 2.571063333333333 -0.15603900000000004
5956462 0.6612359999999999 -0.747124
8929693 -0.10904333333333334 -0.456359
11902924 -0.11458966666666666 -0.318418
14876155 -0.10375999999999999 -0.21874866666666665
17849386 -0.08598666666666666 -0.14664466666666665
20822617 -0.06579733333333332 -0.09440699999999999
23795848 -0.04537233333333333 -0.056631999999999995
26769079 -0.025783666666666667 -0.029491999999999997
29742310 -0.007564666666666666 -0.010402333333333333
32715541 0.030873666666666667 0.0005809999999999999
35688772 0.08967233333333333 0.016257
38662003 0.1668133333333333 0.03698866666666666
41635234 0.2730903333333333 0.07529733333333334
44608465 0.3992613333333333 0.14040933333333333
47581696 0.5338636666666665 0.22528933333333334
50554927 0.6626783333333333 0.30258399999999996
53528158 0.7991146666666666 0.314058
56501389 0.9297706666666665 0.2137843333333333
59474620 0.9964193333333333 0.02150166666666667
62447851 1.0278223333333334 -0.04325966666666667
65421082 1.0639936666666667 0.005037999999999999
68394313 1.0904953333333331 -0.023773999999999997
71367544 1.1101323333333333 -0.004071
74340775 1.1156506666666666 -0.037712333333333334
77314006 1.1166873333333334 0.044351666666666664
80287237 1.1004343333333333 0.003150333333333333
83260468 1.071159 -0.06629533333333333
86233699 1.0404223333333333 -0.05654033333333333
89206930 1.003978 -0.02848233333333333
92180161 1.0231786666666665 -0.052450000000000004
95153392 1.0635219999999999 -0.04697866666666667
98126623 1.094372 0.122013
101099854 1.115616333333333 -0.037600666666666664
104073085 1.1238303333333333 -0.027442333333333332
107046316 1.1186003333333332 -0.019309
110019547 1.1027863333333334 -0.014636999999999999
112992778 1.0764346666666667 -0.016196
115966009 1.0434523333333332 -0.023264999999999997
118939240 1.003976 -0.03616733333333333
121912471 1.0197753333333333 -0.052097000000000004
124885702 1.0663269999999998 -0.06042666666666666
127858933 1.10589 -0.06315099999999998
130832164 1.1328303333333332 -0.05660933333333333
133805395 1.1449053333333334 -0.047527999999999994
136778626 1.1303936666666665 -0.030256999999999996
139751857 1.1144003333333332 -0.023227
142725088 1.0862219999999998 -0.022018
145698319 1.0476853333333331 -0.02840933333333333
148671550 1.004287 -0.042338333333333325
151644781 1.0114696666666667 -0.061663333333333334
154618012 1.0595266666666667 -0.07671133333333333
157591243 1.099739 -0.08423266666666665
160564474 1.13095 -0.08098666666666665
163537705 1.1479496666666666 -0.07073466666666667
166510936 1.1477373333333332 -0.05734433333333333
169484167 1.1303886666666665 -0.045488666666666656
172457398 1.0987813333333332 -0.038075333333333336
175430629 1.0562913333333332 -0.039571333333333326
178403860 1.006214 -0.04798033333333333
181377091 0.997308 -0.06722266666666667
184350322 1.0395096666666668 -0.08564633333333332
187323553 1.0759219999999998 -0.095754
190296784 1.104311 -0.09845833333333333
193270015 1.1225513333333332 -0.092721
196243246 1.126221333333333 -0.08094399999999999
199216477 1.1146596666666666 -0.06782333333333332
202189708 1.0890213333333332 -0.05734966666666667
205162939 1.051313 -0.05031366666666666
208136170 1.0041836666666666 -0.053126999999999994
211109401 0.98697 -0.06514933333333334
214082632 1.0257636666666667 -0.08043133333333333
217055863 1.0585149999999999 -0.08878266666666665
220029094 1.0842869999999998 -0.09038633333333335
223002325 1.099961 -0.08504033333333333
225975556 1.1029213333333332 -0.07517166666666666
228948787 1.0946496666666665 -0.06480566666666666
231922018 1.0733679999999999 -0.056062
234895249 1.0412709999999998 -0.051679
237868480 1.0009133333333333 -0.05246666666666667
240841711 0.9797593333333334 -0.06344166666666667
243814942 1.0204360000000001 -0.07432866666666665
246788173 1.0536919999999999 -0.079196
249761404 1.0808346666666666 -0.077847
252734635 1.0959439999999998 -0.07014066666666666
255707866 1.099022 -0.05958933333333333
258681097 1.089417333333333 -0.05092766666666666
261654328 1.0680176666666665 -0.044222333333333336
264627559 1.0374296666666665 -0.04339833333333333
267600790 0.9974676666666666 -0.04838633333333334
270574021 0.9714023333333334 -0.06007666666666667
273547252 1.0150806666666665 -0.072214
276520483 1.0537969999999999 -0.07713833333333332
279493714 1.0842783333333332 -0.07373199999999999
282466945 1.1011553333333333 -0.065117
285440176 1.1050849999999999 -0.05556066666666666
288413407 1.094981 -0.044693333333333335
291386638 1.0720876666666665 -0.03831
294359869 1.039797 -0.039148666666666665
297333100 0.9983966666666666 -0.045877333333333326
300306331 0.9611893333333335 -0.059628999999999995
303279562 1.0066593333333334 -0.08212866666666666
306252793 1.047984 -0.08545833333333333
309226024 1.0799809999999999 -0.09028366666666666
312199255 1.102721 -0.07695633333333332
315172486 1.108102 -0.07145533333333333
318145717 1.1012929999999999 -0.05282666666666667
321118948 1.076086 -0.049953000000000004
324092179 1.043411 -0.040980666666666665
327065410 0.9989383333333333 -0.05210133333333333
330038641 0.9529673333333333 -0.056445
333011872 0.9945073333333334 -0.08184766666666667
335985103 1.0339779999999998 -0.08422066666666667
338958334 1.0645086666666668 -0.09737833333333334
341931565 1.0881536666666665 -0.087883
344904796 1.0953423333333332 -0.08456599999999999
347878027 1.091251 -0.059454999999999994
350851258 1.071356 -0.062320999999999994
353824489 1.0395743333333334 -0.04355166666666666
356797720 0.9993149999999998 -0.04431833333333333
359770951 0.9519469999999999 -0.05423533333333333
362744182 0.9861493333333332 -0.07294599999999998
365717413 1.0227666666666666 -0.08392066666666666
368690644 1.0526749999999998 -0.08599133333333332
371663875 1.072906 -0.08343733333333332
374637106 1.0827863333333332 -0.07483866666666666
377610337 1.0782483333333333 -0.065362
380583568 1.060891 -0.055131333333333324
383556799 1.0316673333333333 -0.049023333333333335
386530030 0.9946026666666665 -0.05075833333333333
389503261 0.950358 -0.057014999999999996
392476492 0.977029 -0.07230833333333334
395449723 1.014095 -0.08234799999999999
398422954 1.0433473333333332 -0.085037
401396185 1.0645856666666664 -0.08157833333333332
404369416 1.07557 -0.07177466666666667
407342647 1.070342333333333 -0.06343033333333332
410315878 1.052539 -0.06980066666666666
413289109 1.0281523333333333 -0.05217666666666666
416262340 0.9903843333333333 -0.06635433333333332
419235571 0.949762 -0.06233966666666666
422208802 0.9679416666666666 -0.09000533333333333
425182033 1.0096833333333333 -0.08832999999999999
428155264 1.0413899999999998 -0.10228733333333331
431128495 1.0676839999999999 -0.087227
434101726 1.074358333333333 -0.09167866666666666
437074957 1.0739783333333333 -0.07022533333333333
440048188 1.056659 -0.07259966666666667
443021419 1.0299663333333333 -0.05533233333333333
445994650 0.9928543333333334 -0.06479599999999999
448967881 0.9505943333333332 -0.06752633333333333
451941112 0.9624236666666667 -0.090723
454914343 1.0044333333333333 -0.10510866666666666
457887574 1.0377789999999998 -0.11089033333333333
460860805 1.0635139999999998 -0.10814133333333334
463834036 1.079218 -0.08752099999999999
466807267 1.0766186666666666 -0.09014533333333333
469780498 1.060638 -0.07908099999999998
472753729 1.032792 -0.07279466666666666
475726960 0.9948616666666666 -0.07234099999999999
478700191 0.9501999999999999 -0.07895866666666665
481673422 0.9524226666666668 -0.09497833333333333
484646653 0.9913056666666666 -0.111579
487619884 1.025211333333333 -0.11990166666666666
490593115 1.0508069999999998 -0.12192
493566346 1.0659193333333334 -0.11674199999999998
496539577 1.0672323333333333 -0.106661
499512808 1.0561633333333333 -0.09407099999999999
502486039 1.0321369999999999 -0.08388799999999999
505459270 0.9959899999999999 -0.07993266666666667
508432501 0.9527859999999999 -0.081408
511405732 0.9455549999999999 -0.09604366666666667
514378963 0.9822339999999998 -0.11080233333333334
517352194 1.0127069999999998 -0.11923666666666666
520325425 1.0376353333333332 -0.11949966666666667
523298656 1.0503983333333333 -0.115983
526271887 1.0529696666666664 -0.10503799999999999
529245118 1.0429899999999999 -0.09609766666666666
532218349 1.021717 -0.086713
535191580 0.9910159999999999 -0.08435766666666666
538164811 0.9511200000000001 -0.08377433333333331
541138042 0.9394103333333332 -0.09451
544111273 0.9778213333333332 -0.108043
547084504 1.0104733333333331 -0.11539266666666666
550057735 1.0362926666666665 -0.11315866666666666
553030966 1.0537103333333333 -0.10524
556004197 1.0580470000000002 -0.09692333333333332
558977428 1.050862 -0.08579433333333333
561950659 1.0308226666666667 -0.07746266666666665
564923890 1.001674 -0.07206199999999999
567897121 0.966002 -0.073129
570870352 0.9489700000000001 -0.0818
573843583 0.9867423333333332 -0.09510533333333333
576816814 1.0217636666666667 -0.103132
579790045 1.0465323333333334 -0.10245333333333331
582763276 1.0612506666666666 -0.09631666666666666
585736507 1.065808333333333 -0.088584
588709738 1.0564776666666664 -0.080097
591682969 1.0342829999999998 -0.07517366666666667
594656200 1.004099 -0.074835
597629431 0.9651563333333333 -0.07971566666666666
600602662 0.9415986666666667 -0.09423999999999999
603575893 0.9846516666666667 -0.11037833333333333
606549124 1.02209 -0.11773999999999998
609522355 1.0524343333333332 -0.11550466666666666
612495586 1.0726459999999998 -0.10717733333333332
615468817 1.0778236666666667 -0.09352633333333334
618442048 1.066154 -0.07854933333333333
621415279 1.0422993333333335 -0.07098633333333333
624388510 1.0064529999999998 -0.067329
627361741 0.9629486666666667 -0.06958
630334972 0.9254149999999999 -0.08404400000000001
633308203 0.9656543333333334 -0.10183199999999999
636281434 1.0023813333333333 -0.11310566666666666
639254665 1.0312246666666667 -0.116313
642227896 1.0831226666666667 -0.10740266666666666
645201127 1.0551066666666666 -0.107651
648174358 1.0498509999999999 -0.08905633333333332
651147589 1.0285093333333333 -0.078953
654120820 0.9957776666666667 -0.07333599999999998
657094051 0.9480806666666666 -0.08240266666666665
660067282 0.9107006666666666 -0.07569033333333333
663040513 0.9473103333333333 -0.10028433333333332
666013744 0.9801793333333333 -0.11545899999999999
668986975 1.0122426666666666 -0.12047666666666665
671960206 1.0327963333333332 -0.11936166666666666
674933437 1.042382 -0.11525799999999999
677906668 1.0450506666666666 -0.09824433333333334
680879899 1.0292346666666665 -0.08393566666666666
683853130 1.0044396666666666 -0.07046966666666665
686826361 0.9674853333333333 -0.06548333333333332
689799592 0.9227163333333334 -0.06752166666666666
692772823 0.95007 -0.08785433333333333
695746054 0.9831663333333333 -0.09641699999999999
698719285 1.0081853333333333 -0.10015033333333334
701692516 1.025976 -0.100515
704665747 1.0315683333333334 -0.094299
707638978 1.030983 -0.08573333333333333
710612209 1.0130376666666665 -0.07905
713585440 0.9892686666666668 -0.07447533333333334
716558671 0.9586193333333333 -0.07331733333333332
719531902 0.9168876666666665 -0.07732299999999999
722505133 0.9443629999999998 -0.09464299999999999
725478364 0.9773183333333334 -0.105185
728451595 1.005639 -0.10591333333333333
731424826 1.0244126666666666 -0.10422233333333332
734398057 1.032751 -0.09649233333333332
737371288 1.0292526666666666 -0.08680399999999999
740344519 1.0162163333333334 -0.07821733333333333
743317750 0.9918016666666667 -0.07309933333333332
746290981 0.9589343333333332 -0.07402
749264212 0.9197866666666666 -0.08100366666666667
752237443 0.9389059999999999 -0.09527533333333334
755210674 0.9767136666666666 -0.10584666666666666
758183905 1.008479 -0.11004566666666667
761157136 1.0298043333333333 -0.10597999999999999
764130367 1.0405876666666665 -0.09836133333333333
767103598 1.037478333333333 -0.08545333333333333
770076829 1.023286 -0.07641066666666665
773050060 0.997665 -0.07314833333333332
776023291 0.963472 -0.07170233333333333
778996522 0.9215916666666667 -0.07733433333333334
781969753 0.9331793333333334 -0.093246
784942984 0.9705546666666667 -0.11048266666666667
787916215 1.0019779999999998 -0.115371
790889446 1.0270963333333332 -0.11788933333333332
793862677 1.0392029999999999 -0.11087666666666665
796835908 1.0396509999999999 -0.10092033333333333
799809139 1.026069 -0.08970833333333333
802782370 1.001 -0.08219499999999999
805755601 0.9674843333333333 -0.08093
808728832 0.9256106666666666 -0.083771
811702063 0.9288883333333333 -0.09940933333333332
814675294 0.964635 -0.11687499999999998
817648525 0.995259 -0.12518600000000002
820621756 1.0194053333333333 -0.12362466666666666
823594987 1.0342423333333333 -0.119658
826568218 1.035969 -0.10748466666666667
829541449 1.0264423333333332 -0.09626266666666666
832514680 1.0035263333333333 -0.08549766666666665
835487911 0.9708373333333333 -0.07948933333333333
838461142 0.9307913333333333 -0.08205766666666667
841434373 0.9248689999999999 -0.09201466666666666
844407604 0.9601123333333332 -0.11046299999999999
847380835 0.9895896666666666 -0.12022733333333332
850354066 1.0139963333333333 -0.12108966666666666
853327297 1.0280736666666668 -0.11748899999999998
856300528 1.029611 -0.10976466666666665
859273759 1.0226616666666666 -0.10096366666666667
862246990 1.0024653333333333 -0.08826200000000001
865220221 0.9727503333333334 -0.08645733333333333
868193452 0.9355189999999999 -0.086424
871166683 0.9243223333333332 -0.09576466666666668
874139914 0.9596993333333332 -0.11013066666666667
877113145 0.9896443333333332 -0.12005166666666667
880086376 1.011046 -0.12192866666666666
883059607 1.024619 -0.11520066666666667
886032838 1.0278463333333332 -0.105284
889006069 1.0180903333333333 -0.098746
891979300 0.9967716666666666 -0.08990766666666666
894952531 0.9679286666666667 -0.08710966666666667
897925762 0.9312706666666666 -0.08380733333333334
900898993 0.912039 -0.09527033333333332
903872224 0.9460433333333333 -0.11278733333333332
906845455 0.9766883333333333 -0.12258333333333334
909818686 1.0005636666666666 -0.1252933333333333
912791917 1.0180089999999997 -0.12023600000000001
915765148 1.0224376666666664 -0.11109633333333332
918738379 1.0147783333333331 -0.102539
921711610 0.9975476666666667 -0.091319
924684841 0.9683046666666666 -0.08604366666666666
927658072 0.9318583333333335 -0.08543733333333332
930631303 0.9063526666666666 -0.09634566666666666
933604534 0.9421536666666667 -0.10868633333333333
936577765 0.9727913333333333 -0.12008766666666666
939550996 0.9980159999999999 -0.12272533333333333
942524227 1.018597 -0.104161
945497458 1.025212 -0.097477
948470689 1.0184316666666666 -0.09837566666666667
951443920 0.9994086666666666 -0.08859666666666667
954417151 0.974016 -0.07643266666666666
957390382 0.9390623333333333 -0.07877366666666666
960363613 0.906691 -0.08330366666666666
963336844 0.9415216666666667 -0.09800433333333333
966310075 0.9712033333333334 -0.10827466666666666
969283306 0.9960143333333333 -0.11155499999999999
972256537 1.010681 -0.10504566666666666
975229768 1.0160046666666667 -0.100201
978202999 1.0093926666666666 -0.09167666666666666
981176230 0.9946780000000001 -0.082532
984149461 0.9689026666666667 -0.07982666666666667
987122692 0.9363786666666667 -0.080252
990095923 0.9012689999999999 -0.08522333333333332
993069154 0.9385163333333333 -0.09951333333333334
996042385 0.9699516666666665 -0.10811566666666667
999015616 0.9960686666666666 -0.10869400000000001
1001988847 1.0141773333333335 -0.10086166666666666
1004962078 1.0203389999999999 -0.09480233333333334
1007935309 1.0139086666666668 -0.08541766666666667
1010908540 0.9981973333333333 -0.076772
1013881771 0.9722413333333333 -0.07243266666666666
1016855002 0.9384293333333332 -0.07352966666666666
1019828233 0.9012646666666666 -0.08040333333333333
1022801464 0.9342823333333332 -0.09859733333333333
1025774695 0.9693603333333334 -0.11013466666666667
1028747926 0.9984306666666667 -0.11224466666666666
1031721157 1.0196976666666666 -0.10923666666666668
1034694388 1.0281529999999999 -0.10296533333333333
1037667619 1.0245419999999998 -0.09305399999999998
1040640850 1.0087203333333332 -0.08211766666666666
1043614081 0.9824833333333333 -0.07704099999999998
1046587312 0.9462733333333333 -0.07715999999999999
1049560543 0.9062726666666667 -0.08464866666666666
1052533774 0.9314006666666665 -0.10272066666666665
1055507005 0.9654286666666666 -0.117203
1058480236 0.9945256666666666 -0.125183
1061453467 1.0170713333333332 -0.12574466666666664
1064426698 1.028743 -0.11752766666666666
1067399929 1.0271666666666666 -0.10563833333333333
1070373160 1.0106913333333332 -0.10031966666666665
1073346391 0.987767 -0.07865533333333333
1076319622 0.9483349999999999 -0.08428033333333332
1079292853 0.909343 -0.07834333333333332
1082266084 0.92018 -0.10215933333333334
1085239315 0.9539476666666666 -0.11119866666666667
1088212546 0.9755486666666666 -0.1298723333333333
1091185777 1.000153 -0.12122166666666664
1094159008 1.007027 -0.12557633333333335
1097132239 1.0088233333333332 -0.10631966666666666
1100105470 0.9955949999999999 -0.10575599999999999
1103078701 0.9792266666666666 -0.08823366666666667
1106051932 0.9438610000000001 -0.08993999999999999
1109025163 0.9090196666666666 -0.076072
1111998394 0.9120786666666666 -0.10125933333333333
1114971625 0.9434386666666665 -0.10609333333333333
1117944856 0.9630830000000001 -0.12012166666666668
1120918087 0.981967 -0.11232733333333333
1123891318 0.988626 -0.12009166666666667
1126864549 0.9923243333333334 -0.10226233333333334
1129837780 0.9817830000000001 -0.10599233333333333
1132811011 0.9659806666666666 -0.08659933333333332
1135784242 0.9379763333333333 -0.09650866666666666
1138757473 0.9116540000000001 -0.08258499999999999
1141730704 0.9107013333333334 -0.10164366666666666
1144703935 0.9459713333333333 -0.102682
1147677166 0.96718 -0.11415833333333333
1150650397 0.9885626666666667 -0.10388366666666665
1153623628 0.995176 -0.10443633333333333
1156596859 0.9970146666666666 -0.08585566666666666
1159570090 0.9863339999999999 -0.07887766666666665
1162543321 0.965252 -0.07987666666666667
1165516552 0.9392883333333334 -0.075959
1168489783 0.9103096666666666 -0.08047533333333334
1171463014 0.9093893333333334 -0.09354799999999999
1174436245 0.9447323333333333 -0.10059466666666667
1177409476 0.9761353333333332 -0.103751
1180382707 0.9969973333333334 -0.100504
1183355938 1.0080696666666666 -0.09041433333333333
1186329169 1.0079909999999999 -0.08141499999999999
1189302400 0.9965393333333333 -0.0769
1192275631 0.9769733333333332 -0.07049699999999999
1195248862 0.9480106666666666 -0.07188499999999999
1198222093 0.9148193333333332 -0.08010066666666667
1201195324 0.9099126666666667 -0.09576333333333333
1204168555 0.9490863333333333 -0.10985400000000001
1207141786 0.984437 -0.11819199999999999
1210115017 1.0135523333333332 -0.11663166666666666
1213088248 1.0279933333333333 -0.10905699999999999
1216061479 1.0344479999999998 -0.09651366666666666
1219034710 1.0226023333333334 -0.08323666666666665
1222007941 0.9965333333333334 -0.07715866666666667
1224981172 0.9639446666666666 -0.07644033333333333
1227954403 0.9241803333333333 -0.07972299999999999
1230927634 0.9041286666666666 -0.09559933333333333
1233900865 0.9390716666666666 -0.11815899999999999
1236874096 0.9719176666666667 -0.13286133333333333
1239847327 0.9977566666666666 -0.14263466666666663
1242820558 1.018377 -0.13846566666666665
1245793789 1.026815 -0.12754933333333332
1248767020 1.0213753333333333 -0.11387033333333332
1251740251 1.00243 -0.09614933333333334
1254713482 0.9695126666666667 -0.08517799999999999
1257686713 0.9291143333333333 -0.08386866666666666
1260659944 0.8997653333333333 -0.08663333333333334
1263633175 0.929032 -0.10838966666666668
1266606406 0.9537146666666667 -0.12328066666666666
1269579637 0.9741043333333332 -0.12947666666666666
1272552868 0.9900716666666667 -0.12875866666666663
1275526099 0.9963423333333333 -0.125547
1278499330 0.994182 -0.11674633333333334
1281472561 0.9812916666666666 -0.10438733333333333
