# HZ S RI R 50
10000 1.0000073333333332 0.031089333333333333
2983231 1.5471546666666667 -0.9783246666666665
5956462 0.6602386666666666 -0.7469996666666666
8929693 -0.10901366666666668 -0.45639799999999997
11902924 -0.11458433333333334 -0.3184416666666666
14876155 -0.10383466666666666 -0.21868899999999997
17849386 -0.08602633333333333 -0.14671633333333334
20822617 -0.06585933333333334 -0.09441033333333333
23795848 -0.04538099999999999 -0.056615
26769079 -0.025781666666666665 -0.029484333333333335
29742310 -0.007566333333333333 -0.010402
32715541 0.030873 0.0005643333333333334
35688772 0.08732799999999999 0.014814
38662003 0.16576666666666667 0.03832266666666666
41635234 0.2738893333333333 0.07465033333333332
44608465 0.40038666666666667 0.13929066666666665
47581696 0.5351653333333333 0.2238803333333333
50554927 0.6648196666666666 0.30026699999999995
53528158 0.8017273333333332 0.31015333333333334
56501389 0.9322986666666666 0.2083723333333333
59474620 0.9966170000000001 0.014760666666666667
62447851 1.027704 -0.049805999999999996
65421082 1.0644096666666665 -0.0016346666666666673
68394313 1.0896756666666667 -0.030966333333333335
71367544 1.1094823333333332 -0.010989666666666665
74340775 1.1147353333333332 -0.045190999999999995
77314006 1.1172283333333333 0.038194
80287237 1.1015126666666666 -0.005213
83260468 1.0705083333333332 -0.07330900000000001
86233699 1.0388606666666667 -0.06288833333333334
89206930 1.002063 -0.034459666666666666
92180161 1.0238516666666666 -0.046759333333333326
95153392 1.0636413333333332 -0.04666499999999999
98126623 1.0945363333333333 0.12205666666666666
101099854 1.1151763333333333 -0.03566366666666666
104073085 1.1225626666666666 -0.026459666666666666
107046316 1.1192190000000002 -0.019332666666666668
110019547 1.1021796666666666 -0.012714666666666666
112992778 1.077299 -0.014904
115966009 1.0430483333333331 -0.022095999999999998
118939240 1.0030013333333332 -0.03539766666666666
121912471 1.019963 -0.051525666666666664
124885702 1.0667483333333332 -0.060282333333333334
127858933 1.1057493333333333 -0.06160966666666666
130832164 1.1321796666666666 -0.055581
133805395 1.144673 -0.04504333333333333
136778626 1.1294333333333333 -0.027594999999999998
139751857 1.114103 -0.021171
142725088 1.0858469999999998 -0.02069033333333333
145698319 1.0484736666666665 -0.026913333333333334
148671550 1.003885 -0.040170333333333336
151644781 1.011277 -0.06048233333333333
154618012 1.0584433333333332 -0.07602333333333333
157591243 1.1002376666666667 -0.08273633333333333
160564474 1.1309156666666667 -0.07950766666666666
163537705 1.1474836666666666 -0.06980066666666668
166510936 1.1472033333333331 -0.055423
169484167 1.1297586666666666 -0.044239
172457398 1.0978919999999999 -0.036267
175430629 1.055699 -0.03781333333333334
178403860 1.0056423333333333 -0.046160999999999994
181377091 0.9974016666666665 -0.06550366666666665
184350322 1.0388233333333332 -0.08485866666666667
187323553 1.0756906666666666 -0.09542599999999998
190296784 1.1041526666666668 -0.09703266666666667
193270015 1.1211563333333332 -0.09204066666666666
196243246 1.1253533333333332 -0.08022466666666667
199216477 1.113972 -0.06648
202189708 1.0884019999999999 -0.05595566666666666
205162939 1.0504366666666665 -0.05016099999999999
208136170 1.0034243333333333 -0.05169966666666666
211109401 0.9855626666666666 -0.064387
214082632 1.024838 -0.07991933333333333
217055863 1.0574706666666667 -0.08736133333333332
220029094 1.0834783333333333 -0.08932966666666667
223002325 1.0981226666666666 -0.084008
225975556 1.1029846666666665 -0.07431133333333333
228948787 1.093546 -0.06409933333333334
231922018 1.0731183333333334 -0.05545033333333333
234895249 1.0404213333333332 -0.051131666666666666
237868480 0.9994519999999999 -0.05276499999999999
240841711 0.979082 -0.06256866666666666
243814942 1.0189723333333334 -0.074582
246788173 1.0534166666666667 -0.07840933333333333
249761404 1.0788099999999998 -0.07771133333333333
252734635 1.0948626666666663 -0.06885466666666665
255707866 1.0979326666666664 -0.059613
258681097 1.0886976666666666 -0.049853999999999996
261654328 1.066822 -0.04419833333333334
264627559 1.0357126666666665 -0.04370466666666667
267600790 0.996323 -0.04840133333333333
270574021 0.9707309999999999 -0.059763666666666666
273547252 1.014424 -0.07112366666666665
276520483 1.0530599999999999 -0.076582
279493714 1.0826163333333334 -0.073353
282466945 1.0992966666666666 -0.06578666666666666
285440176 1.1043126666666665 -0.05451366666666666
288413407 1.0937699999999997 -0.044864
291386638 1.0706186666666666 -0.03858266666666666
294359869 1.037483 -0.038329333333333326
297333100 0.9965923333333333 -0.045784
300306331 0.9606986666666666 -0.059337
303279562 1.0063943333333332 -0.07580233333333333
306252793 1.0469849999999998 -0.083901
309226024 1.0804243333333332 -0.08429833333333334
312199255 1.1014393333333332 -0.07657133333333332
315172486 1.1074453333333334 -0.06606266666666666
318145717 1.098916 -0.053424
321118948 1.0759183333333333 -0.044267666666666663
324092179 1.041502 -0.040298
327065410 0.9991203333333332 -0.045221
330038641 0.9512266666666666 -0.056859
333011872 0.994903 -0.077177
335985103 1.0363446666666665 -0.09135333333333331
338958334 1.0638679999999998 -0.09335366666666667
341931565 1.05392 -0.11105066666666666
344904796 1.095427 -0.08028633333333333
347878027 1.089197 -0.06777
350851258 1.0695383333333333 -0.056869
353824489 1.0377173333333334 -0.05293766666666667
356797720 0.9965503333333334 -0.04875933333333333
359770951 0.9485766666666666 -0.06322433333333333
362744182 0.9830346666666665 -0.08125199999999999
365717413 1.0192756666666667 -0.09177466666666667
368690644 1.0491526666666666 -0.09703533333333332
371663875 1.0701096666666667 -0.09523999999999999
374637106 1.0786333333333333 -0.08612699999999998
377610337 1.0734083333333333 -0.07632566666666665
380583568 1.0575706666666664 -0.06692833333333333
383556799 1.028925 -0.061599333333333325
386530030 0.9919516666666667 -0.061992
389503261 0.9480016666666666 -0.068246
392476492 0.9735713333333332 -0.08473199999999999
395449723 1.0113363333333334 -0.09600533333333333
398422954 1.0405546666666665 -0.09752166666666665
401396185 1.0608389999999999 -0.095586
404369416 1.0715379999999999 -0.08844266666666667
407342647 1.066742 -0.078729
410315878 1.0510016666666666 -0.07166566666666666
413289109 1.024489 -0.066799
416262340 0.9888763333333334 -0.06825433333333333
419235571 0.9476313333333334 -0.075873
422208802 0.9683526666666668 -0.09213633333333333
425182033 1.0065393333333335 -0.10351466666666666
428155264 1.0407739999999999 -0.10494566666666667
431128495 1.0628536666666666 -0.10249866666666665
434101726 1.0738613333333333 -0.09335666666666667
437074957 1.0718323333333333 -0.08409699999999999
440048188 1.056422 -0.07491866666666666
443021419 1.0274673333333333 -0.070442
445994650 0.9905576666666667 -0.07287566666666667
448967881 0.9594726666666666 -0.06296633333333332
451941112 0.9600483333333334 -0.099558
454914343 1.0007043333333332 -0.11321899999999999
457887574 1.0355539999999999 -0.1196
460860805 1.0614933333333334 -0.11688266666666666
463834036 1.080061 -0.09303366666666665
466807267 1.0749836666666666 -0.09782766666666666
469780498 1.0598763333333334 -0.08685100000000001
472753729 1.0316260000000002 -0.07945266666666667
475726960 0.9940776666666666 -0.07741866666666666
478700191 0.9489889999999999 -0.08464266666666666
481673422 0.9510206666666665 -0.10022966666666666
484646653 0.9899313333333333 -0.11851066666666665
487619884 1.0232473333333332 -0.12628899999999998
490593115 1.0495023333333333 -0.12475066666666668
493566346 1.065061 -0.121504
496539577 1.067527333333333 -0.10815533333333334
499512808 1.0562763333333332 -0.09633066666666668
502486039 1.031752 -0.08623833333333333
505459270 0.9961623333333334 -0.079796
508432501 0.952834 -0.08313599999999999
511405732 0.9461303333333333 -0.09447066666666666
514378963 0.9821096666666667 -0.10977566666666667
517352194 1.01277 -0.11782700000000002
520325425 1.0361573333333332 -0.11950366666666667
523298656 1.048483 -0.12041633333333332
526271887 1.053605333333333 -0.09840633333333333
529245118 1.041373 -0.10127966666666666
532218349 1.0214356666666666 -0.08418033333333333
535191580 0.9881953333333332 -0.08437166666666668
538164811 0.9521763333333333 -0.07378533333333333
541138042 0.937766 -0.09527366666666666
544111273 0.978598 -0.096642
547084504 1.0094333333333332 -0.11474066666666667
550057735 1.0382116666666665 -0.10342799999999999
553030966 1.051709 -0.107091
556004197 1.0589413333333333 -0.08299966666666667
558977428 1.047853 -0.08475333333333335
561950659 1.032630333333333 -0.06488499999999998
564923890 1.0009683333333332 -0.07163333333333333
567897121 0.9665516666666667 -0.060263333333333335
570870352 0.944963 -0.08153566666666665
573843583 0.9876653333333333 -0.08349266666666666
576816814 1.0194563333333333 -0.10034866666666667
579790045 1.0476239999999999 -0.08777199999999999
582763276 1.0599279999999998 -0.09259333333333332
585736507 1.0656109999999999 -0.07438533333333333
588709738 1.0545173333333333 -0.07764633333333333
591682969 1.0348726666666666 -0.060583
594656200 1.002205 -0.07247766666666666
597629431 0.9655256666666665 -0.06578033333333333
600602662 0.9395656666666665 -0.08459499999999999
603575893 0.984694 -0.10102799999999998
606549124 1.023022333333333 -0.10716266666666666
609522355 1.0530773333333334 -0.10499700000000001
612495586 1.0723613333333333 -0.09653633333333334
615468817 1.0770066666666667 -0.08478633333333332
618442048 1.0649076666666666 -0.07072033333333333
621415279 1.0405419999999999 -0.062397999999999995
624388510 1.005609 -0.05793666666666667
627361741 0.962583 -0.062675
630334972 0.9246926666666667 -0.07442666666666667
633308203 0.9648513333333333 -0.09436666666666667
636281434 1.0017073333333333 -0.10611133333333334
639254665 1.0309506666666668 -0.10932733333333333
642227896 1.0494836666666665 -0.10602033333333333
645201127 1.0560343333333333 -0.09547399999999998
648174358 1.0487929999999999 -0.08398299999999999
651147589 1.0265476666666666 -0.07309766666666667
654120820 0.9936103333333334 -0.06708333333333333
657094051 0.9530806666666667 -0.06711266666666667
660067282 0.8795756666666668 -0.089964
663040513 0.946382 -0.097064
666013744 0.9811836666666666 -0.10921133333333333
668986975 1.0115463333333332 -0.116361
671960206 1.03203 -0.11387333333333334
674933437 1.0446919999999997 -0.10710166666666666
677906668 1.042689 -0.09501966666666664
680879899 1.0287783333333334 -0.07962933333333333
683853130 1.0025456666666668 -0.07073399999999999
686826361 0.9644946666666666 -0.06539799999999998
689799592 0.9212446666666667 -0.065824
692772823 0.9517643333333333 -0.081956
695746054 0.9810399999999999 -0.09300866666666666
698719285 1.0069356666666667 -0.09957133333333332
701692516 1.0240006666666663 -0.10027799999999999
704665747 1.0315809999999996 -0.09105466666666667
707638978 1.027876 -0.083172
710612209 1.0120196666666665 -0.07954499999999999
713585440 0.988552 -0.07615133333333332
716558671 0.9554419999999999 -0.073447
719531902 0.9165766666666666 -0.07942099999999999
722505133 0.9422853333333334 -0.09563233333333333
725478364 0.9765856666666666 -0.10445499999999999
728451595 1.004267 -0.10850866666666666
731424826 1.023854 -0.10588233333333333
734398057 1.031828 -0.09796333333333332
737371288 1.028934 -0.08825933333333333
740344519 1.0139676666666666 -0.08013899999999999
743317750 0.989843 -0.075782
746290981 0.9579866666666665 -0.076457
749264212 0.923117 -0.06973066666666666
752237443 0.9383986666666666 -0.09920866666666667
755210674 0.975494 -0.10828266666666667
758183905 1.0070439999999998 -0.113458
761157136 1.028472 -0.10857833333333333
764130367 1.0399796666666665 -0.09844733333333333
767103598 1.0367136666666665 -0.09135333333333331
770076829 1.0215573333333332 -0.07827799999999999
773050060 0.9966553333333334 -0.07405133333333333
776023291 0.9622103333333333 -0.07253066666666666
778996522 0.9209999999999999 -0.07997166666666666
781969753 0.9330453333333333 -0.09668366666666667
784942984 0.9701933333333332 -0.11174233333333333
787916215 1.0018223333333334 -0.11830833333333332
790889446 1.0251353333333333 -0.11744133333333331
793862677 1.0388146666666667 -0.10922266666666665
796835908 1.0379286666666665 -0.10166199999999999
799809139 1.0265676666666665 -0.09037766666666666
802782370 1.0013763333333332 -0.081903
805755601 0.9663189999999999 -0.08091766666666667
808728832 0.9258356666666666 -0.08366033333333334
811702063 0.929009 -0.09925733333333334
814675294 0.9640706666666665 -0.113241
817648525 0.9967986666666666 -0.12240566666666666
820621756 1.0196800000000001 -0.122776
823594987 1.033278333333333 -0.11827633333333333
826568218 1.037230333333333 -0.10437933333333332
829541449 1.0258356666666666 -0.09385166666666667
832514680 1.0044033333333333 -0.081817
835487911 0.9711669999999999 -0.07820633333333334
838461142 0.9313319999999999 -0.07909133333333332
841434373 0.9267810000000001 -0.09053166666666668
844407604 0.9595606666666666 -0.10693199999999999
847380835 0.990755 -0.115415
850354066 1.01209 -0.11550233333333333
853327297 1.0275549999999998 -0.11250633333333333
856300528 1.0317353333333332 -0.10130366666666668
859273759 1.024168 -0.09412133333333333
862246990 1.0017989999999999 -0.084087
865220221 0.9745619999999999 -0.07797833333333333
868193452 0.9373579999999999 -0.08063166666666666
871166683 0.9245623333333334 -0.09053866666666666
874139914 0.959536 -0.10591266666666665
877113145 0.9897063333333334 -0.11221433333333333
880086376 1.0121076666666666 -0.11257766666666666
883059607 1.0269956666666666 -0.10778566666666667
886032838 1.0300223333333332 -0.098477
889006069 1.0188283333333334 -0.088478
891979300 0.9976166666666666 -0.080212
894952531 0.9686966666666668 -0.07611899999999999
897925762 0.931044 -0.07558066666666666
900898993 0.913191 -0.08684233333333333
903872224 0.9485709999999999 -0.10147633333333334
906845455 0.9785043333333334 -0.112537
909818686 1.0040743333333333 -0.11271733333333334
912791917 1.020252333333333 -0.10847366666666666
915765148 1.0241896666666666 -0.10288866666666666
918738379 1.016657 -0.09299466666666667
921711610 0.9972876666666666 -0.08232233333333333
924684841 0.9691403333333334 -0.07520933333333334
927658072 0.9332846666666665 -0.07603599999999999
930631303 0.9081916666666667 -0.08339633333333332
933604534 0.942986 -0.096674
936577765 0.9741533333333333 -0.108514
939550996 0.9991329999999998 -0.10986933333333333
942524227 1.0154773333333333 -0.10649966666666666
945497458 1.0220876666666667 -0.09850899999999999
948470689 1.0152843333333332 -0.08890299999999998
951443920 0.9999126666666666 -0.07662866666666665
954417151 0.972494 -0.07063166666666668
957390382 0.9384176666666667 -0.067495
960363613 0.9062356666666667 -0.075234
963336844 0.9419156666666667 -0.08750166666666666
966310075 0.9711523333333334 -0.099266
969283306 0.9942840000000001 -0.10091099999999999
972256537 1.009528 -0.09726466666666667
975229768 1.0154526666666666 -0.08933033333333332
978202999 1.0093366666666665 -0.08276533333333333
981176230 0.9932789999999999 -0.07564566666666667
984149461 0.9673819999999999 -0.07409333333333334
987122692 0.9347779999999999 -0.07327733333333333
990095923 0.900271 -0.08083066666666666
993069154 0.9364366666666666 -0.09614133333333333
996042385 0.9683573333333333 -0.10320700000000001
999015616 0.9952856666666667 -0.104602
1001988847 1.0110869999999998 -0.10088699999999998
1004962078 1.0181883333333333 -0.09201866666666665
1007935309 1.0129976666666667 -0.082785
1010908540 0.9958183333333332 -0.07485166666666666
1013881771 0.9702516666666666 -0.06799533333333332
1016855002 0.9368083333333332 -0.07318533333333332
1019828233 0.8989086666666666 -0.07983033333333334
1022801464 0.9320463333333333 -0.09663233333333333
1025774695 0.9684293333333331 -0.10762066666666666
1028747926 0.9965836666666666 -0.11472833333333332
1031721157 1.0179176666666665 -0.11063633333333334
1034694388 1.026148333333333 -0.104321
1037667619 1.0231506666666665 -0.09163499999999998
1040640850 1.0052016666666665 -0.081602
1043614081 0.9805416666666666 -0.07693999999999998
1046587312 0.9452016666666667 -0.07854966666666666
1049560543 0.903586 -0.087897
1052533774 0.9297056666666667 -0.10369766666666666
1055507005 0.9632719999999999 -0.12169466666666665
1058480236 0.9918953333333331 -0.13030233333333333
1061453467 1.0550583333333334 -0.11807666666666664
1064426698 1.027164 -0.11732499999999998
1067399929 1.0247613333333332 -0.11210833333333332
1070373160 1.0111339999999998 -0.09679166666666666
1073346391 0.984451 -0.08964999999999998
1076319622 0.9495476666666667 -0.08421400000000001
1079292853 0.9064823333333332 -0.08627233333333331
1082266084 0.921026 -0.10509966666666666
1085239315 0.9508349999999999 -0.11750066666666666
1088212546 0.9757859999999999 -0.12730566666666665
1091185777 0.9955286666666666 -0.13128966666666667
1094159008 1.006616 -0.12633866666666665
1097132239 1.0067293333333331 -0.11691599999999999
1100105470 0.9955886666666666 -0.10489766666666667
1103078701 0.976192 -0.093362
1106051932 0.9461189999999999 -0.08649333333333332
1109025163 0.9081133333333332 -0.083311
1111998394 0.9134296666666666 -0.09961733333333334
1114971625 0.9409423333333333 -0.108952
1117944856 0.9642333333333333 -0.116259
1120918087 0.981106 -0.11788933333333332
1123891318 0.9901083333333333 -0.113644
1126864549 0.9913436666666666 -0.111133
1129837780 0.9835443333333332 -0.09921466666666667
1132811011 0.9661719999999999 -0.09381333333333333
1135784242 0.9403079999999999 -0.08863666666666666
1138757473 0.9107273333333332 -0.09161533333333334
1141730704 0.9127373333333333 -0.09927266666666668
1144703935 0.9422533333333334 -0.10893
1147677166 0.9684429999999999 -0.11128666666666667
1150650397 0.9854330000000001 -0.10525433333333334
1153623628 0.9969926666666666 -0.09863033333333333
1156596859 0.9969636666666666 -0.09360433333333332
1159570090 0.9862289999999999 -0.08177966666666667
1162543321 0.9676089999999999 -0.07818766666666667
1165516552 0.9413869999999999 -0.07671566666666665
1168489783 0.9104436666666667 -0.07722866666666667
1171463014 0.9119539999999999 -0.09052433333333333
1174436245 0.9458946666666666 -0.099829
1177409476 0.976235 -0.09831466666666666
1180382707 0.9984669999999999 -0.09683766666666667
1183355938 1.0080256666666667 -0.08807833333333333
1186329169 1.0086339999999998 -0.079916
1189302400 0.9967736666666666 -0.071934
1192275631 0.9765716666666666 -0.06820599999999999
1195248862 0.9490469999999999 -0.07076633333333333
1198222093 0.9146296666666667 -0.07708533333333334
1201195324 0.910156 -0.09356133333333334
1204168555 0.951691 -0.10829633333333333
1207141786 0.9867649999999999 -0.11392533333333332
1210115017 1.0141343333333332 -0.11087666666666665
1213088248 1.029205333333333 -0.10559433333333335
1216061479 1.0338353333333334 -0.09149499999999999
1219034710 1.020756 -0.08114299999999999
1222007941 0.9972269999999999 -0.07353766666666667
1224981172 0.9635623333333332 -0.07190366666666666
1227954403 0.9243919999999999 -0.07592099999999999
1230927634 0.9045063333333334 -0.09027966666666666
1233900865 0.9402459999999999 -0.11289400000000001
1236874096 0.9728813333333333 -0.12658666666666665
1239847327 1.0008773333333334 -0.134807
1242820558 1.0196733333333334 -0.1354243333333333
1245793789 1.0281506666666664 -0.12137333333333333
1248767020 1.0235273333333332 -0.10391333333333333
1251740251 1.0036026666666666 -0.090386
1254713482 0.970468 -0.07936399999999999
1257686713 0.9282293333333334 -0.079434
1260659944 0.896255 -0.09237333333333332
1263633175 0.9273726666666666 -0.10451099999999999
1266606406 0.9529926666666666 -0.11879633333333334
1269579637 0.9754156666666667 -0.12598366666666666
1272552868 0.9889993333333333 -0.1263723333333333
1275526099 0.997701 -0.12169566666666666
1278499330 0.992807 -0.11148933333333333
1281472561 0.9813936666666666 -0.098055
1284445792 0.9575513333333334 -0.08781166666666665
1287419023 0.9247923333333334 -0.08128833333333332
