# HZ S RI R 50
10000000 0.117381 0.575215
15932540 0.302537 0.277927
21865080 0.404154 0.118025
27797620 0.482647 0.011255
33730160 0.571807 -0.017633
39662700 0.687138 -0.002525
45595240 0.816061 0.025398
51527780 0.944885 0.054555
57460320 1.023637 0.030547
63392860 1.005069 -0.02469
69325400 1.01297 -0.029762
75257940 1.015452 -0.032352
81190480 1.013264 -0.030553
87123020 1.001393 -0.031356
93055560 1.000039 -0.035134
98988100 1.00788 -0.036532
104920640 1.012437 -0.039816
110853180 1.006904 -0.039365
116785720 0.996628 -0.040662
122718260 0.99802 -0.039587
128650800 1.007359 -0.041824
134583340 1.016032 -0.041351
140515880 1.000278 -0.048707
146448420 0.992541 -0.047081
152380960 0.989618 -0.048306
158313500 0.998267 -0.048511
164246040 0.999948 -0.048737
170178580 0.997341 -0.048047
176111120 0.987091 -0.049966
182043660 0.982044 -0.051571
187976200 0.992378 -0.052025
193908740 0.99469 -0.051783
199841280 0.991282 -0.052251
205773820 0.981706 -0.053713
211706360 0.974436 -0.056515
217638900 0.987446 -0.056519
223571440 0.991635 -0.055591
229503980 0.987937 -0.057164
235436520 0.977468 -0.057837
241369060 0.969507 -0.061057
247301600 0.981931 -0.062953
253234140 0.987371 -0.060977
259166680 0.983738 -0.062326
265099220 0.974234 -0.061791
271031760 0.96416 -0.063651
276964300 0.976533 -0.066989
282896840 0.984459 -0.065122
288829380 0.979804 -0.064234
294761920 0.972504 -0.063064
300694460 0.955895 -0.068505
306627000 0.970793 -0.067707
312559540 0.977544 -0.069164
318492080 0.978209 -0.068457
324424620 0.977001 -0.036376
330357160 0.950483 -0.069909
336289700 0.963675 -0.072127
342222240 0.973555 -0.073597
348154780 0.972934 -0.070902
354087320 0.962148 -0.069186
360019860 0.944936 -0.071784
365952400 0.961071 -0.073578
371884940 0.967488 -0.07614
377817480 0.967596 -0.075407
383750020 0.957019 -0.073163
389682560 0.943089 -0.072373
395615100 0.954526 -0.077129
401547640 0.962481 -0.078352
407480180 0.961981 -0.077094
413412720 0.955174 -0.075241
419345260 0.939568 -0.073205
425277800 0.948227 -0.077779
431210340 0.956339 -0.079213
437142880 0.954978 -0.076308
443075420 0.949074 -0.074661
449007960 0.934674 -0.075348
454940500 0.943598 -0.075696
460873040 0.952242 -0.07599
466805580 0.952266 -0.076235
472738120 0.947315 -0.072837
478670660 0.93263 -0.073626
484603200 0.939301 -0.073425
490535740 0.945823 -0.075935
496468280 0.948065 -0.07572
502400820 0.941403 -0.073804
508333360 0.929504 -0.074651
514265900 0.935275 -0.07761
520198440 0.94393 -0.075852
526130980 0.945665 -0.076504
532063520 0.942433 -0.074355
537996060 0.927304 -0.07228
543928600 0.935881 -0.077365
549861140 0.948308 -0.078762
555793680 0.952504 -0.079164
561726220 0.950299 -0.079278
567658760 0.941863 -0.078192
573591300 0.94341 -0.078617
579523840 0.951823 -0.079314
585456380 0.949206 -0.078987
591388920 0.939324 -0.078207
597321460 0.922839 -0.078959
603254000 0.922321 -0.0818
609186540 0.93551 -0.083399
615119080 0.940352 -0.081238
621051620 0.936752 -0.079561
626984160 0.926799 -0.076401
632916700 0.925437 -0.077538
638849240 0.936269 -0.079576
644781780 0.941075 -0.078996
650714320 0.936998 -0.076904
656646860 0.924566 -0.074175
662579400 0.924315 -0.075139
668511940 0.937145 -0.075249
674444480 0.942109 -0.078463
680377020 0.942002 -0.071898
686309560 0.930937 -0.065915
692242100 0.920514 -0.06852
698174640 0.933857 -0.073417
704107180 0.936496 -0.07395
710039720 0.930773 -0.072551
715972260 0.918758 -0.075558
721904800 0.912408 -0.079229
727837340 0.924751 -0.08115
733769880 0.928933 -0.078229
739702420 0.925569 -0.078891
745634960 0.919576 -0.072274
751567500 0.913718 -0.07372
757500040 0.922466 -0.077927
763432580 0.927047 -0.077823
769365120 0.927113 -0.076123
775297660 0.92292 -0.059281
781230200 0.913156 -0.061942
787162740 0.920861 -0.082184
793095280 0.926947 -0.075917
799027820 0.924092 -0.07625
804960360 0.916315 -0.077272
810892900 0.906609 -0.080911
816825440 0.919081 -0.080467
822757980 0.925276 -0.07936
828690520 0.923847 -0.080504
834623060 0.915696 -0.076153
840555600 0.903257 -0.073632
846488140 0.919033 -0.076335
852420680 0.924817 -0.081196
858353220 0.923823 -0.07611
864285760 0.915594 -0.075283
870218300 0.903491 -0.076397
876150840 0.917295 -0.079013
882083380 0.926489 -0.079718
888015920 0.925033 -0.078905
893948460 1.042068 -0.032834
899881000 0.903818 -0.073203
905813540 0.918664 -0.079835
911746080 0.923861 -0.08228
917678620 0.926131 -0.083903
923611160 0.916582 -0.081045
929543700 0.90267 -0.083151
935476240 0.913266 -0.084262
941408780 0.920857 -0.089422
947341320 0.92237 -0.08583
953273860 0.916826 -0.085856
959206400 0.901635 -0.076619
965138940 0.91067 -0.087153
971071480 0.915423 -0.088401
977004020 0.919241 -0.086705
982936560 0.912764 -0.085881
988869100 0.902437 -0.086424
994801640 0.912702 -0.073104
1000734180 0.916831 -0.087118
1006666720 0.918205 -0.0873
1012599260 0.912767 -0.083055
1018531800 0.902724 -0.08293
1024464340 0.908543 -0.08121
1030396880 0.914497 -0.082701
1036329420 0.916716 -0.082966
1042261960 0.912357 -0.079923
1048194500 0.901343 -0.081511
1054127040 0.904353 -0.083101
1060059580 0.909917 -0.082811
1065992120 0.915588 -0.081604
1071924660 0.909525 -0.081948
1077857200 0.901184 -0.08079
1083789740 0.904704 -0.085688
1089722280 0.911578 -0.081875
1095654820 0.913733 -0.082054
1101587360 0.909495 -0.084381
1107519900 0.900327 -0.08413
1113452440 0.9035 -0.083492
1119384980 0.909014 -0.084309
1125317520 0.916585 -0.086168
1131250060 0.911358 -0.084832
1137182600 0.89827 -0.08655
1143115140 0.902585 -0.08758
1149047680 0.911081 -0.082389
1154980220 0.91533 -0.085319
1160912760 0.914579 -0.081537
1166845300 0.903481 -0.077214
1172777840 0.90314 -0.082858
1178710380 0.912696 -0.079593
1184642920 0.917806 -0.080597
1190575460 0.912128 -0.084244
1196508000 0.897797 -0.081448
1202440540 0.895731 -0.090159
1208373080 0.907191 -0.090243
1214305620 0.913597 -0.091481
1220238160 0.910506 -0.0856
1226170700 0.89969 -0.082393
1232103240 0.893503 -0.084466
1238035780 0.908588 -0.088747
1243968320 0.91196 -0.084548
1249900860 0.909554 -0.086331
1255833400 0.900379 -0.076462
1261765940 0.891547 -0.079494
1267698480 0.903486 -0.081366
1273631020 0.910264 -0.087251
1279563560 0.909111 -0.08455
1285496100 0.902117 -0.08579
1291428640 0.89202 -0.088791
1297361180 0.902451 -0.084577
1303293720 0.909373 -0.084332
1309226260 0.906793 -0.085434
1315158800 0.897654 -0.082365
1321091340 0.88571 -0.074671
1327023880 0.898601 -0.077619
1332956420 0.904611 -0.086602
1338888960 0.90495 -0.084337
1344821500 0.89705 -0.084521
1350754040 0.889312 -0.090182
1356686580 0.895677 -0.098409
1362619120 0.902367 -0.099045
1368551660 0.898219 -0.101384
1374484200 0.89125 -0.102797
1380416740 0.88325 -0.102956
1386349280 0.899096 -0.103844
1392281820 0.902594 -0.098145
1398214360 0.905642 -0.097143
1404146900 0.898226 -0.090893
1410079440 0.887296 -0.086772
1416011980 0.908221 -0.082663
1421944520 0.91038 -0.085613
1427877060 0.914053 -0.078224
1433809600 0.914768 -0.081372
1439742140 0.904076 -0.086773
1445674680 0.909674 -0.082469
1451607220 0.913985 -0.081972
1457539760 0.911056 -0.088259
1463472300 0.903449 -0.082623
1469404840 0.887847 -0.086364
1475337380 0.898348 -0.086702
1481269920 0.906186 -0.086957
1487202460 0.905567 -0.087043
1493135000 0.899866 -0.08258
1499067540 0.88551 -0.086257
1505000080 0.897366 -0.085552
1510932620 0.90779 -0.085936
1516865160 0.908493 -0.084382
1522797700 0.903951 -0.083206
1528730240 0.889925 -0.079915
1534662780 0.896935 -0.088544
1540595320 0.907425 -0.086199
1546527860 0.908491 -0.089918
1552460400 0.902396 -0.087006
1558392940 0.885444 -0.084301
1564325480 0.895232 -0.090302
1570258020 0.904793 -0.092555
1576190560 0.907552 -0.093936
1582123100 0.902357 -0.091435
1588055640 0.888814 -0.083548
1593988180 0.894831 -0.092706
1599920720 0.903847 -0.09467
1605853260 0.905192 -0.095995
1611785800 0.900981 -0.092651
1617718340 0.890625 -0.095592
1623650880 0.892728 -0.092646
1629583420 0.902966 -0.099536
1635515960 0.903784 -0.098765
1641448500 0.899275 -0.096695
1647381040 0.886595 -0.093185
1653313580 0.885049 -0.093589
1659246120 0.895733 -0.098517
1665178660 0.898494 -0.097816
1671111200 0.897722 -0.096672
1677043740 0.887245 -0.094257
1682976280 0.884939 -0.098134
1688908820 0.896559 -0.100729
1694841360 0.898528 -0.101612
1700773900 0.896783 -0.098889
1706706440 0.88689 -0.095621
1712638980 0.88667 -0.098612
1718571520 0.893809 -0.101797
1724504060 0.899476 -0.103445
1730436600 0.8943 -0.093303
1736369140 0.886193 -0.095671
1742301680 0.884453 -0.099296
1748234220 0.893141 -0.100187
1754166760 0.897342 -0.103285
1760099300 0.896999 -0.104814
1766031840 0.888701 -0.100041
1771964380 0.885362 -0.094473
1777896920 0.901909 -0.098246
1783829460 0.904971 -0.09527
1789762000 0.905185 -0.085678
1795694540 0.896858 -0.083417
1801627080 0.889901 -0.089089
1807559620 0.887179 -0.088136
1813492160 0.898562 -0.093392
1819424700 0.898974 -0.091386
1825357240 0.886228 -0.099975
1831289780 0.881765 -0.100478
1837222320 0.883044 -0.104169
1843154860 0.894297 -0.10444
1849087400 0.892434 -0.098298
1855019940 0.887752 -0.100153
1860952480 0.875063 -0.100807
1866885020 0.88936 -0.104189
1872817560 0.899345 -0.104156
1878750100 0.895636 -0.103781
1884682640 0.898711 -0.060229
1890615180 0.889707 -0.095027
1896547720 0.900662 -0.094182
1902480260 0.910663 -0.095125
1908412800 0.908693 -0.093531
1914345340 0.900599 -0.091768
1920277880 0.885698 -0.083196
1926210420 0.910916 -0.059849
1932142960 0.911675 -0.088828
1938075500 0.91531 -0.053627
1944008040 0.910787 -0.05193
1949940580 0.895948 -0.054942
1955873120 0.911087 -0.055058
1961805660 0.914302 -0.055031
1967738200 0.911609 -0.084666
1973670740 0.909137 -0.05261
1979603280 0.892801 -0.07344
1985535820 0.906014 -0.052301
1991468360 0.892276 -0.101328
1997400900 0.894451 -0.101723
2003333440 0.889277 -0.105002
2009265980 0.878054 -0.103734
2015198520 0.886259 -0.101957
2021131060 0.894706 -0.104664
2027063600 0.892648 -0.108246
2032996140 0.887449 -0.107108
2038928680 0.876894 -0.1056
2044861220 0.884938 -0.10185
2050793760 0.889874 -0.100022
2056726300 0.893889 -0.100427
2062658840 0.884954 -0.100597
2068591380 0.8717 -0.10129
2074523920 0.877588 -0.101905
2080456460 0.885333 -0.106913
2086389000 0.888295 -0.098325
2092321540 0.88363 -0.09655
2098254080 0.868011 -0.097738
2104186620 0.876819 -0.106425
2110119160 0.886908 -0.099565
2116051700 0.891066 -0.109086
2121984240 0.888223 -0.104464
2127916780 0.874765 -0.109375
2133849320 0.876278 -0.107712
2139781860 0.888709 -0.113819
2145714400 0.89225 -0.110101
2151646940 0.886362 -0.112625
2157579480 0.875169 -0.115998
2163512020 0.878353 -0.106599
2169444560 0.887118 -0.113829
2175377100 0.890822 -0.116787
2181309640 0.880687 -0.10789
2187242180 0.873261 -0.108913
2193174720 0.877422 -0.10733
2199107260 0.889705 -0.109464
2205039800 0.889807 -0.111366
2210972340 0.882597 -0.103266
2216904880 0.87978 -0.111183
2222837420 0.876577 -0.104198
2228769960 0.882445 -0.111038
2234702500 0.882264 -0.113397
2240635040 0.886991 -0.105114
2246567580 0.87568 -0.103995
2252500120 0.87273 -0.09941
2258432660 0.876073 -0.110801
2264365200 0.885623 -0.102329
2270297740 0.886035 -0.107197
2276230280 0.873149 -0.104652
2282162820 0.872954 -0.112115
2288095360 0.881719 -0.113659
2294027900 0.885342 -0.109048
2299960440 0.880687 -0.110687
2305892980 0.880117 -0.108677
2311825520 0.864277 -0.118358
2317758060 0.881888 -0.106584
2323690600 0.876207 -0.11465
2329623140 0.881493 -0.111176
2335555680 0.867817 -0.122502
2341488220 0.860043 -0.116061
2347420760 0.875505 -0.117514
2353353300 0.881872 -0.109818
2359285840 0.880001 -0.102704
2365218380 0.864021 -0.127914
2371150920 0.866154 -0.116068
2377083460 0.876663 -0.112157
2383016000 0.879364 -0.106609
2388948540 0.880807 -0.12039
2394881080 0.878336 -0.101965
2400813620 0.869146 -0.101702
2406746160 0.879638 -0.114548
2412678700 0.881859 -0.108942
2418611240 0.881991 -0.108703
2424543780 0.876979 -0.106246
2430476320 0.861751 -0.111786
2436408860 0.874073 -0.103547
2442341400 0.881829 -0.110592
2448273940 0.8832 -0.119745
2454206480 0.866946 -0.121373
2460139020 0.861389 -0.117798
2466071560 0.869365 -0.112841
2472004100 0.889215 -0.113703
2477936640 0.888445 -0.09259
2483869180 0.878729 -0.104256
2489801720 0.873186 -0.103933
2495734260 0.881126 -0.108072
2501666800 0.884945 -0.11781
2507599340 0.890469 -0.110004
2513531880 0.878698 -0.105761
2519464420 0.865538 -0.110538
2525396960 0.878859 -0.117254
2531329500 0.887074 -0.118827
2537262040 0.884793 -0.122702
2543194580 0.874046 -0.114886
2549127120 0.862794 -0.108667
2555059660 0.874034 -0.114796
2560992200 0.879936 -0.117333
2566924740 0.883392 -0.116922
2572857280 0.876722 -0.117967
2578789820 0.86816 -0.11463
2584722360 0.872328 -0.120293
2590654900 0.878025 -0.122658
2596587440 0.877373 -0.11319
2602519980 0.874702 -0.115525
2608452520 0.865479 -0.113388
2614385060 0.867749 -0.112938
2620317600 0.867153 -0.123103
2626250140 0.866886 -0.125129
2632182680 0.8693 -0.122977
2638115220 0.862604 -0.118607
2644047760 0.868793 -0.119346
2649980300 0.874557 -0.116968
2655912840 0.877483 -0.110998
2661845380 0.869314 -0.108706
2667777920 0.859782 -0.112744
2673710460 0.862963 -0.107312
2679643000 0.875714 -0.111727
2685575540 0.875687 -0.111465
2691508080 0.86675 -0.116848
2697440620 0.867757 -0.116517
2703373160 0.87129 -0.121483
2709305700 0.875689 -0.123535
2715238240 0.871769 -0.115812
2721170780 0.872702 -0.124665
2727103320 0.868805 -0.112189
2733035860 0.868414 -0.124504
2738968400 0.883948 -0.123596
2744900940 0.87765 -0.119206
2750833480 0.883714 -0.106649
2756766020 0.873453 -0.104915
2762698560 0.87004 -0.106599
2768631100 0.874762 -0.122927
2774563640 0.883183 -0.104317
2780496180 0.877212 -0.114971
2786428720 0.866516 -0.124298
2792361260 0.863278 -0.102415
2798293800 0.868645 -0.12562
2804226340 0.868887 -0.137015
2810158880 0.865892 -0.132624
2816091420 0.854179 -0.139157
2822023960 0.851279 -0.127782
2827956500 0.869919 -0.143381
2833889040 0.875582 -0.133555
2839821580 0.874263 -0.14879
2845754120 0.872038 -0.135078
2851686660 0.859307 -0.129477
2857619200 0.866531 -0.120684
2863551740 0.867002 -0.133578
2869484280 0.865633 -0.13245
2875416820 0.860338 -0.127092
2881349360 0.858098 -0.120629
2887281900 0.873399 -0.120412
2893214440 0.866111 -0.124963
2899146980 0.871283 -0.115194
2905079520 0.859749 -0.126789
2911012060 0.853207 -0.124191
2916944600 0.872277 -0.133874
2922877140 0.867638 -0.127378
2928809680 0.867282 -0.129737
2934742220 0.860715 -0.133245
2940674760 0.850151 -0.123177
2946607300 0.863523 -0.139376
2952539840 0.869503 -0.131266
2958472380 0.871614 -0.122138
2964404920 0.863151 -0.122817
2970337460 0.853458 -0.11264
2976270000 0.861121 -0.125743
2982202540 0.865179 -0.123231
2988135080 0.866348 -0.123797
2994067620 0.857804 -0.117992
3000000160 0.0 0.0
