# HZ S RI R 50
10000000 0.177439 0.627785
15932540 0.353718 0.294206
21865080 0.44994 0.102984
27797620 0.530967 -0.006805
33730160 0.616898 -0.051255
39662700 0.744008 -0.033784
45595240 0.856311 -0.019455
51527780 0.960383 0.006163
57460320 0.93231 -0.004697
63392860 0.844637 -0.060988
69325400 0.857996 -0.0347
75257940 0.860832 -0.068992
81190480 0.863364 -0.040977
87123020 0.852439 -0.07291
93055560 0.858268 -0.045213
98988100 0.863881 -0.081373
104920640 0.873304 -0.053231
110853180 0.87162 -0.053095
116785720 0.863138 -0.05431
122718260 0.8638 -0.058909
128650800 0.875691 -0.06128
134583340 0.878266 -0.09716
140515880 0.868433 -0.08658
146448420 0.861911 -0.087182
152380960 0.860216 -0.087952
158313500 0.869714 -0.091814
164246040 0.872575 -0.094235
170178580 0.870197 -0.096341
176111120 0.862242 -0.098414
182043660 0.858618 -0.100127
187976200 0.867385 -0.103912
193908740 0.870071 -0.105462
199841280 0.866957 -0.108397
205773820 0.857156 -0.110708
211706360 0.851798 -0.113003
217638900 0.862575 -0.118286
223571440 0.864875 -0.119703
229503980 0.861342 -0.120242
235436520 0.852447 -0.123195
241369060 0.843727 -0.128057
247301600 0.854093 -0.131882
253234140 0.857471 -0.13389
259166680 0.853885 -0.134836
265099220 0.843604 -0.137101
271031760 0.834245 -0.140118
276964300 0.843371 -0.144383
282896840 0.847075 -0.145691
288829380 0.844913 -0.146732
294761920 0.834502 -0.148807
300694460 0.821939 -0.150552
306627000 0.834386 -0.156373
312559540 0.838993 -0.15993
318492080 0.839661 -0.161094
324424620 0.82945 -0.161257
330357160 0.818221 -0.162279
336289700 0.829093 -0.167236
342222240 0.834792 -0.171941
348154780 0.834974 -0.171803
354087320 0.827398 -0.170251
360019860 0.814673 -0.169922
365952400 0.825466 -0.177736
371884940 0.831901 -0.180441
377817480 0.832403 -0.180761
383750020 0.825112 -0.180601
389682560 0.810826 -0.179943
395615100 0.820851 -0.186796
401547640 0.827217 -0.188135
407480180 0.825403 -0.188183
413412720 0.820386 -0.190214
419345260 0.806273 -0.186597
425277800 0.81321 -0.193102
431210340 0.819369 -0.196287
437142880 0.81818 -0.198949
443075420 0.812964 -0.197937
449007960 0.798503 -0.196716
454940500 0.805799 -0.199775
460873040 0.810927 -0.204463
466805580 0.810525 -0.205916
472738120 0.805582 -0.204307
478670660 0.792881 -0.202949
484603200 0.79644 -0.207561
490535740 0.802332 -0.210186
496468280 0.801664 -0.211711
502400820 0.794835 -0.211725
508333360 0.78396 -0.209809
514265900 0.786187 -0.217494
520198440 0.791924 -0.219162
526130980 0.791342 -0.221405
532063520 0.786983 -0.220281
537996060 0.775295 -0.220014
543928600 0.778824 -0.224726
549861140 0.785601 -0.231204
555793680 0.787425 -0.235328
561726220 0.78612 -0.236093
567658760 0.776123 -0.231547
573591300 0.775953 -0.235745
579523840 0.781396 -0.236723
585456380 0.777661 -0.237627
591388920 0.768055 -0.237818
597321460 0.753924 -0.237178
603254000 0.75202 -0.241242
609186540 0.791895 -0.238843
615119080 0.796046 -0.2379
621051620 0.793076 -0.23846
626984160 0.782785 -0.231723
632916700 0.779917 -0.238968
638849240 0.788178 -0.240497
644781780 0.792118 -0.242921
650714320 0.788104 -0.240414
656646860 0.775294 -0.236486
662579400 0.774202 -0.241576
668511940 0.784523 -0.242775
674444480 0.785354 -0.244614
680377020 0.787666 -0.240721
686309560 0.681923 -0.249374
692242100 0.772791 -0.237427
698174640 0.778265 -0.241283
704107180 0.777434 -0.247205
710039720 0.775614 -0.245961
715972260 0.762761 -0.246774
721904800 0.756526 -0.248127
727837340 0.763462 -0.254506
733769880 0.768404 -0.254344
739702420 0.764649 -0.254841
745634960 0.756691 -0.252734
751567500 0.748432 -0.253027
757500040 0.756953 -0.257553
763432580 0.760038 -0.257103
769365120 0.756312 -0.256008
775297660 0.749632 -0.253081
781230200 0.741388 -0.25331
787162740 0.749657 -0.259941
793095280 0.75102 -0.263226
799027820 0.747891 -0.264223
804960360 0.742922 -0.262666
810892900 0.731576 -0.261794
816825440 0.739687 -0.26661
822757980 0.74508 -0.266577
828690520 0.742645 -0.266595
834623060 0.735518 -0.261695
840555600 0.723495 -0.261561
846488140 0.731609 -0.269107
852420680 0.736504 -0.270279
858353220 0.734718 -0.270614
864285760 0.728205 -0.268608
870218300 0.715573 -0.265783
876150840 0.724373 -0.273114
882083380 0.731714 -0.273418
888015920 0.732332 -0.272922
893948460 0.724247 -0.272411
899881000 0.752794 -0.230408
905813540 0.721274 -0.275081
911746080 0.725858 -0.281015
917678620 0.724691 -0.277239
923611160 0.719434 -0.279111
929543700 0.705986 -0.273171
935476240 0.71323 -0.279455
941408780 0.715848 -0.285401
947341320 0.717287 -0.284163
953273860 0.712542 -0.281568
959206400 0.700276 -0.277723
965138940 0.704203 -0.283963
971071480 0.710632 -0.286383
977004020 0.709886 -0.286621
982936560 0.703467 -0.284289
988869100 0.693324 -0.281509
994801640 0.703839 -0.288573
1000734180 0.705255 -0.288912
1006666720 0.702601 -0.287447
1012599260 0.700295 -0.285276
1018531800 0.691072 -0.281503
1024464340 0.692504 -0.285764
1030396880 0.695533 -0.291443
1036329420 0.696923 -0.289782
1042261960 0.692953 -0.286776
1048194500 0.684342 -0.283162
1054127040 0.685146 -0.287094
1060059580 0.691518 -0.287101
1065992120 0.691378 -0.287911
1071924660 0.684842 -0.288
1077857200 0.676758 -0.284437
1083789740 0.677256 -0.287907
1089722280 0.682926 -0.291611
1095654820 0.686357 -0.290086
1101587360 0.684368 -0.284992
1107519900 0.67368 -0.287432
1113452440 0.668333 -0.292641
1119384980 0.678271 -0.291438
1125317520 0.677792 -0.291093
1131250060 0.674905 -0.29242
1137182600 0.664911 -0.291168
1143115140 0.665687 -0.291186
1149047680 0.668709 -0.294872
1154980220 0.673324 -0.298226
1160912760 0.673082 -0.291896
1166845300 0.664664 -0.288719
1172777840 0.661485 -0.291829
1178710380 0.667558 -0.293114
1184642920 0.665095 -0.297754
1190575460 0.664907 -0.294265
1196508000 0.65567 -0.290953
1202440540 0.65282 -0.292578
1208373080 0.680027 -0.2888
1214305620 0.682561 -0.293299
1220238160 0.682351 -0.287094
1226170700 0.671248 -0.282923
1232103240 0.66845 -0.283783
1238035780 0.674708 -0.287498
1243968320 0.67817 -0.290282
1249900860 0.67536 -0.285103
1255833400 0.667585 -0.279637
1261765940 0.660943 -0.281225
1267698480 0.66773 -0.285773
1273631020 0.672542 -0.288928
1279563560 0.668398 -0.289067
1285496100 0.66416 -0.287115
1291428640 0.658525 -0.281576
1297361180 0.66585 -0.290977
1303293720 0.666345 -0.288861
1309226260 0.665895 -0.28697
1315158800 0.657059 -0.283309
1321091340 0.650042 -0.279043
1327023880 0.656096 -0.283985
1332956420 0.657072 -0.287828
1338888960 0.655292 -0.290259
1344821500 0.653257 -0.28675
1350754040 0.64536 -0.286061
1356686580 0.649753 -0.294259
1362619120 0.648947 -0.296744
1368551660 0.647703 -0.299523
1374484200 0.644677 -0.29404
1380416740 0.63258 -0.300759
1386349280 0.640522 -0.300732
1392281820 0.648629 -0.301069
1398214360 0.648739 -0.298157
1404146900 0.64288 -0.295355
1410079440 0.638842 -0.286945
1416011980 0.64743 -0.29266
1421944520 0.650133 -0.294946
1427877060 0.657106 -0.288473
1433809600 0.65202 -0.29031
1439742140 0.643007 -0.287264
1445674680 0.648817 -0.292075
1451607220 0.649065 -0.291929
1457539760 0.646211 -0.29365
1463472300 0.640311 -0.288335
1469404840 0.628342 -0.288523
1475337380 0.634848 -0.290476
1481269920 0.638039 -0.29424
1487202460 0.637529 -0.293253
1493135000 0.633326 -0.291117
1499067540 0.621811 -0.287778
1505000080 0.628949 -0.291576
1510932620 0.63285 -0.294918
1516865160 0.63591 -0.294083
1522797700 0.63075 -0.294258
1528730240 0.618205 -0.289174
1534662780 0.624399 -0.294109
1540595320 0.631299 -0.296327
1546527860 0.628718 -0.301206
1552460400 0.623716 -0.296078
1558392940 0.614557 -0.291315
1564325480 0.616924 -0.293542
1570258020 0.621953 -0.299975
1576190560 0.626053 -0.298143
1582123100 0.622911 -0.296518
1588055640 0.611729 -0.295556
1593988180 0.61334 -0.298564
1599920720 0.616806 -0.305312
1605853260 0.620312 -0.303939
1611785800 0.616758 -0.302603
1617718340 0.607428 -0.300061
1623650880 0.606542 -0.303499
1629583420 0.614468 -0.303918
1635515960 0.613942 -0.304435
1641448500 0.609429 -0.301936
1647381040 0.602268 -0.296573
1653313580 0.60116 -0.296527
1659246120 0.608068 -0.302383
1665178660 0.606259 -0.302028
1671111200 0.603883 -0.301862
1677043740 0.598288 -0.296373
1682976280 0.595055 -0.299743
1688908820 0.604563 -0.298503
1694841360 0.605828 -0.303627
1700773900 0.602376 -0.299613
1706706440 0.596514 -0.298198
1712638980 0.594884 -0.294845
1718571520 0.601417 -0.299346
1724504060 0.599297 -0.305524
1730436600 0.598207 -0.301491
1736369140 0.588413 -0.300917
1742301680 0.588002 -0.300066
1748234220 0.596162 -0.30625
1754166760 0.596663 -0.30561
1760099300 0.597095 -0.302321
1766031840 0.591227 -0.298636
1771964380 0.585467 -0.298315
1777896920 0.593575 -0.301645
1783829460 0.603242 -0.301235
1789762000 0.597807 -0.299015
1795694540 0.591577 -0.295987
1801627080 0.588981 -0.29048
1807559620 0.606681 -0.291591
1813492160 0.606223 -0.294346
1819424700 0.600394 -0.299743
1825357240 0.6014 -0.296868
1831289780 0.587703 -0.296951
1837222320 0.596206 -0.300413
1843154860 0.59409 -0.305669
1849087400 0.594096 -0.301148
1855019940 0.592385 -0.297718
1860952480 0.57911 -0.296487
1866885020 0.587682 -0.301615
1872817560 0.593336 -0.299736
1878750100 0.580777 -0.31751
1884682640 0.59072 -0.296259
1890615180 0.579724 -0.291116
1896547720 0.589037 -0.29502
1902480260 0.591563 -0.298507
1908412800 0.587321 -0.298823
1914345340 0.58366 -0.294587
1920277880 0.573006 -0.291041
1926210420 0.581048 -0.296035
1932142960 0.587717 -0.296783
1938075500 0.582448 -0.305377
1944008040 0.578031 -0.296802
1949940580 0.570055 -0.289769
1955873120 0.578228 -0.295568
1961805660 0.584379 -0.294065
1967738200 0.579828 -0.298248
1973670740 0.580281 -0.291538
1979603280 0.570495 -0.285779
1985535820 0.581536 -0.28148
1991468360 0.57992 -0.294191
1997400900 0.579146 -0.298605
2003333440 0.572545 -0.293579
2009265980 0.567135 -0.292011
2015198520 0.572313 -0.290477
2021131060 0.57177 -0.30206
2027063600 0.570212 -0.302794
2032996140 0.565091 -0.30189
2038928680 0.560171 -0.296579
2044861220 0.563999 -0.294304
2050793760 0.56887 -0.298582
2056726300 0.567162 -0.298567
2062658840 0.562715 -0.290963
2068591380 0.5548 -0.29612
2074523920 0.55673 -0.294747
2080456460 0.561353 -0.302016
2086389000 0.563709 -0.300252
2092321540 0.558783 -0.299759
2098254080 0.552249 -0.294811
2104186620 0.495532 -0.326496
2110119160 0.558633 -0.304471
2116051700 0.559892 -0.30664
2121984240 0.559587 -0.30044
2127916780 0.550307 -0.295952
2133849320 0.551513 -0.306119
2139781860 0.556695 -0.306315
2145714400 0.558242 -0.306763
2151646940 0.555874 -0.306729
2157579480 0.553652 -0.303555
2163512020 0.545545 -0.30485
2169444560 0.550968 -0.308318
2175377100 0.553899 -0.307474
2181309640 0.553045 -0.309571
2187242180 0.547158 -0.303578
2193174720 0.546804 -0.300705
2199107260 0.551756 -0.306624
2205039800 0.555664 -0.306964
2210972340 0.552273 -0.301012
2216904880 0.551545 -0.298319
2222837420 0.54465 -0.298898
2228769960 0.549657 -0.30032
2234702500 0.549977 -0.302795
2240635040 0.549113 -0.301752
2246567580 0.543388 -0.298743
2252500120 0.543291 -0.297582
2258432660 0.545075 -0.302901
2264365200 0.546006 -0.305495
2270297740 0.542801 -0.300405
2276230280 0.535271 -0.298241
2282162820 0.535743 -0.297554
2288095360 0.53647 -0.30163
2294027900 0.535369 -0.304472
2299960440 0.537684 -0.29492
2305892980 0.526118 -0.302485
2311825520 0.525757 -0.297881
2317758060 0.527202 -0.301531
2323690600 0.533408 -0.30253
2329623140 0.530319 -0.295397
2335555680 0.534129 -0.294987
2341488220 0.526158 -0.302538
2347420760 0.525478 -0.303345
2353353300 0.530859 -0.303509
2359285840 0.52137 -0.312916
2365218380 0.523861 -0.302991
2371150920 0.513033 -0.310926
2377083460 0.518896 -0.317271
2383016000 0.536656 -0.311751
2388948540 0.522122 -0.315639
2394881080 0.524715 -0.303045
2400813620 0.519112 -0.30133
2406746160 0.531777 -0.302124
2412678700 0.532544 -0.302504
2418611240 0.530193 -0.304549
2424543780 0.528334 -0.301395
2430476320 0.525359 -0.292294
2436408860 0.528149 -0.304253
2442341400 0.52643 -0.304243
2448273940 0.525936 -0.307149
2454206480 0.525307 -0.310349
2460139020 0.5201 -0.296946
2466071560 0.520496 -0.308103
2472004100 0.529023 -0.308347
2477936640 0.532229 -0.306662
2483869180 0.532649 -0.30617
2489801720 0.523426 -0.307639
2495734260 0.528407 -0.309197
2501666800 0.536134 -0.310162
2507599340 0.533575 -0.308392
2513531880 0.526941 -0.299474
2519464420 0.517779 -0.291874
2525396960 0.524684 -0.304883
2531329500 0.526084 -0.300266
2537262040 0.527221 -0.301302
2543194580 0.520617 -0.301392
2549127120 0.509684 -0.296274
2555059660 0.515176 -0.298051
2560992200 0.516527 -0.304712
2566924740 0.519568 -0.301876
2572857280 0.518932 -0.300464
2578789820 0.507839 -0.294996
2584722360 0.511327 -0.303956
2590654900 0.511842 -0.305075
2596587440 0.514941 -0.306843
2602519980 0.510037 -0.305958
2608452520 0.506536 -0.301754
2614385060 0.509257 -0.303989
2620317600 0.511496 -0.30523
2626250140 0.508826 -0.305849
2632182680 0.51389 -0.29821
2638115220 0.497131 -0.301536
2644047760 0.4973 -0.305472
2649980300 0.501644 -0.306619
2655912840 0.50699 -0.306425
2661845380 0.501259 -0.304475
2667777920 0.492947 -0.296779
2673710460 0.49024 -0.301899
2679643000 0.498453 -0.305116
2685575540 0.490174 -0.302974
2691508080 0.489949 -0.311745
2697440620 0.480845 -0.308577
2703373160 0.487079 -0.305431
2709305700 0.493845 -0.311549
2715238240 0.497861 -0.30952
2721170780 0.493783 -0.312483
2727103320 0.483178 -0.308419
2733035860 0.484161 -0.312564
2738968400 0.499768 -0.307412
2744900940 0.49863 -0.309712
2750833480 0.505375 -0.304264
2756766020 0.494955 -0.303234
2762698560 0.493105 -0.301151
2768631100 0.488792 -0.305034
2774563640 0.496452 -0.304929
2780496180 0.498418 -0.304735
2786428720 0.489634 -0.300824
2792361260 0.485829 -0.298786
2798293800 0.482441 -0.320191
2804226340 0.489935 -0.316078
2810158880 0.478628 -0.308981
2816091420 0.477085 -0.298976
2822023960 0.477196 -0.310379
2827956500 0.483893 -0.325548
2833889040 0.487227 -0.324374
2839821580 0.486031 -0.310032
2845754120 0.475539 -0.302162
2851686660 0.478342 -0.302388
2857619200 0.484835 -0.311346
2863551740 0.475865 -0.305765
2869484280 0.481592 -0.313181
2875416820 0.477773 -0.303265
2881349360 0.463327 -0.297856
2887281900 0.465159 -0.310816
2893214440 0.476912 -0.309863
2899146980 0.476741 -0.311094
2905079520 0.474702 -0.308071
2911012060 0.465298 -0.304246
2916944600 0.463741 -0.308619
2922877140 0.463895 -0.311328
2928809680 0.460494 -0.316594
2934742220 0.454766 -0.314705
2940674760 0.447694 -0.315784
2946607300 0.46321 -0.318902
2952539840 0.467319 -0.314539
2958472380 0.466284 -0.314848
2964404920 0.468004 -0.308876
2970337460 0.459641 -0.302977
2976270000 0.459408 -0.309672
2982202540 0.465564 -0.310365
2988135080 0.461205 -0.314333
2994067620 0.455429 -0.309574
3000000160 0.0 0.0
