# HZ S RI R 50
10000 0.3553901666666667 -0.13971233333333333 -0.004182 -0.031813666666666664 0 0 0 0
2983231 0.22269566666666663 -0.154408 0.05433316666666667 0.0014591666666666663 0 0 0 0
5956462 0.17610366666666666 1.906869333333333 -0.001924 0.02436883333333333 0 0 0 0
8929693 0.172244 0.059235833333333335 0.044190999999999994 0.046556999999999994 0 0 0 0
11902924 0.24055899999999997 -0.03030883333333333 0.03213116666666667 0.0360495 0 0 0 0
14876155 0.23818466666666663 -0.251078 0.024149833333333332 0.02946683333333333 0 0 0 0
17849386 -0.08441066666666666 -0.5087508333333334 0.018416166666666664 0.024883999999999996 0 0 0 0
20822617 -0.5625083333333333 -0.2829791666666666 0.0140675 0.021483499999999996 0 0 0 0
23795848 -0.6248666666666667 0.12258233333333332 0.010629166666666665 0.018830666666666666 0 0 0 0
26769079 -0.517385 0.3554143333333333 0.007852 0.016698333333333332 0 0 0 0
29742310 -0.4041516666666666 0.4794768333333333 0.005561833333333333 0.014937333333333334 0 0 0 0
32715541 -0.44301749999999995 0.4600811666666667 0.005581833333333333 0.0148045 0 0 0 0
35688772 -0.4863546666666666 0.41368949999999993 0.005366 0.015450333333333333 0 0 0 0
38662003 -0.5706266666666666 0.3926345 0.006019666666666666 0.014804166666666667 0 0 0 0
41635234 -0.6581078333333332 0.3624138333333333 0.006524333333333333 0.014340499999999999 0 0 0 0
44608465 -0.7492993333333332 0.3171378333333333 0.006621999999999999 0.014506333333333333 0 0 0 0
47581696 -0.864671 0.26640716666666664 0.006844500000000001 0.014469166666666667 0 0 0 0
50554927 -0.9975535 0.19363983333333334 0.006438166666666666 0.015039166666666666 0 0 0 0
53528158 -1.196691 0.05132983333333333 0.007418999999999999 0.014317999999999999 0 0 0 0
56501389 -1.2529768333333333 -0.5304616666666666 0.009405333333333333 0.013235333333333335 0 0 0 0
59474620 0.012973499999999999 -0.2893458333333333 0.010471000000000001 0.013246166666666667 0 0 0 0
62447851 0.0011109999999999998 0.006200000000000001 -0.04099233333333333 0.04745966666666666 0 0 0 0
65421082 0.0012136666666666667 0.008458333333333333 -0.026290833333333333 0.043975 0 0 0 0
68394313 0.0013541666666666667 0.005719166666666666 -0.03840983333333334 0.05827333333333333 0 0 0 0
71367544 0.0014731666666666665 0.0054815 -0.034769666666666664 0.061530499999999995 0 0 0 0
74340775 0.0012345 0.0034908333333333328 -0.05012299999999999 0.08763883333333333 0 0 0 0
77314006 0.0016838333333333334 0.005016999999999999 -0.025488666666666663 0.06587466666666665 0 0 0 0
80287237 0.0013774999999999998 0.0027853333333333332 -0.0433205 0.1055295 0 0 0 0
83260468 0.0011105 0.001444 -0.06931083333333332 0.18259116666666667 0 0 0 0
86233699 0.0012481666666666665 0.0011669999999999999 -0.05539533333333333 0.21392783333333332 0 0 0 0
89206930 0.0015728333333333332 0.0010951666666666666 -0.020420166666666666 0.22098183333333332 0 0 0 0
92180161 0.0011246666666666666 0.0010101666666666666 -0.015993499999999997 0.21735983333333334 0 0 0 0
95153392 0.0005834999999999999 0.0012243333333333331 -0.010732166666666668 0.18007050000000002 0 0 0 0
98126623 -0.0022321666666666666 0.004012666666666666 0.020425166666666664 0.05157266666666666 0 0 0 0
101099854 -0.0005936666666666666 0.0014675 0.0015604999999999998 0.15289866666666665 0 0 0 0
104073085 -0.0011975 0.0015096666666666665 0.013428999999999998 0.143279 0 0 0 0
107046316 -0.0017956666666666663 0.0014898333333333335 0.024299499999999995 0.13148449999999998 0 0 0 0
110019547 -0.0023861666666666666 0.0013889999999999998 0.03182466666666667 0.11850866666666666 0 0 0 0
112992778 -0.002941333333333333 0.0011921666666666667 0.035870333333333324 0.1076895 0 0 0 0
115966009 -0.0034554999999999994 0.0009065 0.03771333333333333 0.09985333333333332 0 0 0 0
118939240 -0.0038874999999999995 0.0005275 0.04010116666666667 0.09555066666666667 0 0 0 0
121912471 -0.003925833333333333 0.00031249999999999995 0.0407585 0.09827166666666666 0 0 0 0
124885702 -0.003804333333333333 0.00017266666666666667 0.041791 0.10373133333333331 0 0 0 0
127858933 -0.0036690000000000004 1.0333333333333333e-05 0.0451515 0.10868449999999999 0 0 0 0
130832164 -0.0035163333333333336 -0.00019099999999999998 0.04994833333333333 0.11172166666666666 0 0 0 0
133805395 -0.003353333333333333 -0.0003948333333333333 0.053932666666666663 0.11350866666666666 0 0 0 0
136778626 -0.002917 -0.000714 0.06675133333333333 0.11819233333333332 0 0 0 0
139751857 -0.0026961666666666666 -0.0009131666666666667 0.07201883333333332 0.12295800000000001 0 0 0 0
142725088 -0.0024561666666666664 -0.0011108333333333332 0.08135516666666667 0.12864616666666664 0 0 0 0
145698319 -0.0021873333333333332 -0.0012855 0.09606583333333332 0.13271149999999998 0 0 0 0
148671550 -0.0018913333333333334 -0.0014370000000000001 0.11506866666666665 0.12956333333333334 0 0 0 0
151644781 -0.0018833333333333332 -0.0013371666666666666 0.119306 0.1241715 0 0 0 0
154618012 -0.0021296666666666664 -0.0010754999999999999 0.107957 0.12056599999999998 0 0 0 0
157591243 -0.0023691666666666666 -0.0008339999999999999 0.09385866666666666 0.11943783333333333 0 0 0 0
160564474 -0.0026076666666666666 -0.0006261666666666666 0.08065416666666667 0.12088366666666667 0 0 0 0
163537705 -0.0028451666666666664 -0.00045300000000000006 0.07076316666666667 0.12511216666666666 0 0 0 0
166510936 -0.0030838333333333334 -0.00031883333333333335 0.06531816666666665 0.13044916666666667 0 0 0 0
169484167 -0.0033105 -0.00023049999999999996 0.0657305 0.13502883333333332 0 0 0 0
172457398 -0.0035289999999999996 -0.00019049999999999997 0.07024166666666667 0.13628266666666664 0 0 0 0
175430629 -0.0037121666666666666 -0.00019983333333333333 0.07538966666666666 0.13300183333333332 0 0 0 0
178403860 -0.003888333333333333 -0.00024333333333333336 0.07726766666666665 0.12811616666666664 0 0 0 0
181377091 -0.003829 -0.00039866666666666664 0.07909283333333333 0.12782866666666667 0 0 0 0
184350322 -0.0035179999999999994 -0.0006363333333333334 0.082765 0.134488 0 0 0 0
187323553 -0.0031808333333333333 -0.0008841666666666666 0.09172183333333334 0.14452916666666665 0 0 0 0
190296784 -0.002818833333333333 -0.0011201666666666667 0.10924533333333333 0.15369166666666667 0 0 0 0
193270015 -0.0024281666666666666 -0.001338 0.13314366666666663 0.15230749999999998 0 0 0 0
196243246 -0.002012333333333333 -0.0015348333333333334 0.150918 0.13847283333333332 0 0 0 0
199216477 -0.0015796666666666667 -0.0016836666666666666 0.1566115 0.12660216666666665 0 0 0 0
202189708 -0.0011365 -0.0017955000000000002 0.1556533333333333 0.12377316666666667 0 0 0 0
205162939 -0.0006934999999999999 -0.0018445 0.1590838333333333 0.13311699999999999 0 0 0 0
208136170 -0.0002683333333333333 -0.0018474999999999998 0.17178949999999998 0.15218133333333334 0 0 0 0
211109401 6.999999999999999e-06 -0.0017735 0.19480199999999998 0.180224 0 0 0 0
214082632 6.1e-05 -0.001637333333333333 0.22140249999999997 0.2075665 0 0 0 0
217055863 0.00011283333333333333 -0.0014908333333333332 0.2509131666666667 0.21253933333333333 0 0 0 0
220029094 0.00016583333333333332 -0.0013339999999999997 0.2616506666666667 0.19862733333333332 0 0 0 0
223002325 0.00021166666666666664 -0.0011710000000000002 0.2505158333333333 0.19428700000000002 0 0 0 0
225975556 0.0002475 -0.0010021666666666666 0.23046 0.20537450000000002 0 0 0 0
228948787 0.0002686666666666666 -0.0008261666666666667 0.21935 0.23369466666666666 0 0 0 0
231922018 0.0002738333333333333 -0.0006533333333333332 0.22284766666666667 0.2709688333333333 0 0 0 0
234895249 0.0002646666666666667 -0.0004881666666666666 0.2520343333333333 0.30322766666666656 0 0 0 0
237868480 0.00023983333333333335 -0.00033183333333333334 0.30209699999999995 0.30659616666666667 0 0 0 0
240841711 0.000149 -0.0002033333333333333 0.3153691666666666 0.2588258333333333 0 0 0 0
243814942 -8.5e-05 -0.00012799999999999997 0.2650901666666666 0.2210715 0 0 0 0
246788173 -0.0003263333333333333 -6.516666666666666e-05 0.2098095 0.2048718333333333 0 0 0 0
249761404 -0.0005715 -2.1666666666666664e-05 0.16490016666666665 0.20635083333333332 0 0 0 0
252734635 -0.0008154999999999999 -2e-06 0.13244666666666666 0.22160083333333336 0 0 0 0
255707866 -0.0010521666666666665 -7.166666666666667e-06 0.11478166666666664 0.24394549999999998 0 0 0 0
258681097 -0.0012778333333333333 -3.9e-05 0.1188475 0.2731815 0 0 0 0
261654328 -0.0014831666666666665 -0.00010216666666666667 0.15181566666666665 0.295251 0 0 0 0
264627559 -0.001666 -0.00018683333333333334 0.20386666666666667 0.2773323333333333 0 0 0 0
267600790 -0.0018108333333333331 -0.0002956666666666667 0.2177555 0.23136799999999996 0 0 0 0
270574021 -0.001919 -0.0004314999999999999 0.2059298333333333 0.20234383333333333 0 0 0 0
273547252 -0.0019523333333333333 -0.0006536666666666665 0.18720533333333336 0.20437849999999996 0 0 0 0
276520483 -0.0019525000000000002 -0.000887 0.19025316666666664 0.21996716666666663 0 0 0 0
279493714 -0.0019323333333333332 -0.0011351666666666665 0.21720599999999995 0.2374283333333333 0 0 0 0
282466945 -0.0018778333333333331 -0.0013844999999999999 0.273427 0.22072799999999998 0 0 0 0
285440176 -0.001784 -0.0016293333333333333 0.29477916666666665 0.15206016666666666 0 0 0 0
288413407 -0.0016558333333333332 -0.0018491666666666667 0.2647618333333333 0.107659 0 0 0 0
291386638 -0.0014865 -0.002054 0.22971316666666666 0.10099366666666666 0 0 0 0
294359869 -0.0012941666666666666 -0.0022329999999999997 0.20784499999999997 0.1150165 0 0 0 0
297333100 -0.0010785 -0.002365333333333333 0.20096533333333333 0.13953466666666667 0 0 0 0
300306331 -0.0008666666666666667 -0.0024328333333333333 0.2719028333333333 0.08166150000000001 0 0 0 0
303279562 -0.000791 -0.0022496666666666667 0.14207566666666666 0.1349213333333333 0 0 0 0
306252793 -0.0007104999999999999 -0.0020426666666666666 0.259578 0.15729466666666667 0 0 0 0
309226024 -0.0006371666666666666 -0.0018288333333333334 0.2614895 0.1693573333333333 0 0 0 0
312199255 -0.0005658333333333333 -0.0016073333333333332 0.26267216666666665 0.1804383333333333 0 0 0 0
315172486 -0.0005124999999999999 -0.0013740000000000002 0.2630186666666666 0.19161216666666664 0 0 0 0
318145717 -0.00047316666666666666 -0.001138 0.26186399999999993 0.20216116666666667 0 0 0 0
321118948 -0.0004556666666666667 -0.0008976666666666665 0.260872 0.21421816666666663 0 0 0 0
324092179 -0.00046099999999999993 -0.0006718333333333333 0.2587895 0.22543416666666666 0 0 0 0
327065410 -0.00048466666666666667 -0.0004571666666666667 0.259267 0.237184 0 0 0 0
330038641 -0.0005298333333333333 -0.0002663333333333333 0.2622268333333333 0.247236 0 0 0 0
333011872 -0.0007469999999999999 -0.0005624999999999998 0.26352 0.2311548333333333 0 0 0 0
335985103 -0.0009276666666666666 -0.0008716666666666666 0.2702163333333333 0.21275666666666665 0 0 0 0
338958334 -0.0011118333333333332 -0.0012228333333333332 0.2681153333333333 0.19145683333333333 0 0 0 0
341931565 -0.0012456666666666666 -0.0015864999999999998 0.26743783333333326 0.1714851666666667 0 0 0 0
344904796 -0.0013301666666666666 -0.0019595 0.26685933333333334 0.15344733333333332 0 0 0 0
347878027 -0.0013605 -0.0023346666666666663 0.26672866666666667 0.13615183333333333 0 0 0 0
350851258 -0.001336 -0.0027010000000000003 0.2673 0.11937466666666666 0 0 0 0
353824489 -0.0012556666666666666 -0.0030508333333333333 0.2671828333333333 0.10296683333333334 0 0 0 0
356797720 -0.0011171666666666665 -0.0033664999999999997 0.26617599999999997 0.08824183333333332 0 0 0 0
359770951 -0.0009459999999999999 -0.0036223333333333333 0.2662378333333333 0.07686516666666666 0 0 0 0
362744182 -0.0009349999999999999 -0.0033525 0.2676433333333333 0.09112 0 0 0 0
365717413 -0.0009473333333333332 -0.0030121666666666665 0.2696396666666666 0.1109635 0 0 0 0
368690644 -0.0009683333333333332 -0.0026701666666666666 0.27257116666666664 0.13195716666666665 0 0 0 0
371663875 -0.0010081666666666668 -0.0023055 0.27785099999999996 0.152158 0 0 0 0
374637106 -0.0010671666666666668 -0.0019486666666666667 0.2831075 0.16788016666666666 0 0 0 0
377610337 -0.0011516666666666667 -0.0015946666666666665 0.28605183333333334 0.17765483333333332 0 0 0 0
380583568 -0.0012601666666666668 -0.0012634999999999999 0.2835395 0.18147783333333334 0 0 0 0
383556799 -0.001396 -0.0009453333333333333 0.27673516666666664 0.18456899999999998 0 0 0 0
386530030 -0.0015511666666666664 -0.0006635 0.26837516666666666 0.18712866666666664 0 0 0 0
389503261 -0.0017246666666666664 -0.0004175 0.26087933333333335 0.1900285 0 0 0 0
392476492 -0.0018705 -0.0004438333333333333 0.25744899999999993 0.1869258333333333 0 0 0 0
395449723 -0.002010333333333333 -0.0005436666666666666 0.255787 0.17870966666666666 0 0 0 0
398422954 -0.002135 -0.0006579999999999998 0.253843 0.16740816666666664 0 0 0 0
401396185 -0.0022405 -0.0007916666666666668 0.24764866666666666 0.15485116666666665 0 0 0 0
404369416 -0.0023246666666666663 -0.0009435 0.23844100000000001 0.14564233333333335 0 0 0 0
407342647 -0.0023845 -0.0011011666666666665 0.23002416666666664 0.14266316666666665 0 0 0 0
410315878 -0.0024108333333333334 -0.0012729999999999998 0.22550283333333335 0.14388483333333332 0 0 0 0
413289109 -0.0024096666666666667 -0.0014459999999999998 0.22777516666666667 0.147474 0 0 0 0
416262340 -0.0023765 -0.0016198333333333334 0.23744916666666666 0.1497545 0 0 0 0
419235571 -0.0023114999999999993 -0.0017781666666666666 0.2531366666666666 0.14631516666666666 0 0 0 0
422208802 -0.0021745 -0.0017333333333333333 0.2667653333333333 0.145699 0 0 0 0
425182033 -0.002007 -0.0016004999999999997 0.27568499999999996 0.14488683333333333 0 0 0 0
428155264 -0.0018393333333333334 -0.001457 0.2775288333333333 0.145387 0 0 0 0
431128495 -0.0016660000000000002 -0.0012886666666666667 0.2779231666666666 0.15217433333333333 0 0 0 0
434101726 -0.0014948333333333335 -0.0011101666666666666 0.28009283333333335 0.1630293333333333 0 0 0 0
437074957 -0.0013265 -0.000914 0.28823766666666667 0.17530199999999999 0 0 0 0
440048188 -0.0011785 -0.0007098333333333333 0.300496 0.18196183333333332 0 0 0 0
443021419 -0.0010466666666666667 -0.000494 0.30993 0.18001433333333333 0 0 0 0
445994650 -0.0009373333333333332 -0.00027583333333333333 0.3099145 0.17434516666666666 0 0 0 0
448967881 -0.0008531666666666667 -5.599999999999999e-05 0.29810233333333336 0.17360683333333332 0 0 0 0
451941112 -0.0010178333333333333 -8.499999999999998e-05 0.2713945 0.17192383333333333 0 0 0 0
454914343 -0.0013036666666666665 -0.00026316666666666665 0.24709316666666664 0.175356 0 0 0 0
457887574 -0.0015811666666666665 -0.00047349999999999996 0.23651916666666664 0.1837415 0 0 0 0
460860805 -0.0018426666666666665 -0.0007143333333333333 0.2401355 0.190611 0 0 0 0
463834036 -0.0020768333333333333 -0.0009801666666666665 0.25603566666666666 0.18617483333333334 0 0 0 0
466807267 -0.0022724999999999993 -0.0012618333333333331 0.2719198333333333 0.166134 0 0 0 0
469780498 -0.0024341666666666665 -0.001568833333333333 0.273027 0.13790283333333334 0 0 0 0
472753729 -0.002543 -0.0018763333333333334 0.26409666666666665 0.11648016666666666 0 0 0 0
475726960 -0.002603833333333333 -0.002188 0.2547885 0.10661116666666666 0 0 0 0
478700191 -0.0026234999999999995 -0.0024926666666666665 0.2521583333333333 0.10238083333333334 0 0 0 0
481673422 -0.002665 -0.0025909999999999996 0.255084 0.10420333333333333 0 0 0 0
484646653 -0.0027569999999999995 -0.0025475 0.2597075 0.10547716666666668 0 0 0 0
487619884 -0.0028311666666666667 -0.0025091666666666665 0.260287 0.09862149999999999 0 0 0 0
490593115 -0.0028986666666666666 -0.0024598333333333334 0.25257533333333326 0.09136866666666665 0 0 0 0
493566346 -0.0029538333333333335 -0.002431666666666666 0.2386035 0.09046566666666667 0 0 0 0
496539577 -0.0029909999999999997 -0.002406833333333333 0.226099 0.09763883333333334 0 0 0 0
499512808 -0.0030236666666666663 -0.002369333333333333 0.22032183333333333 0.11046249999999999 0 0 0 0
502486039 -0.003031333333333333 -0.0023481666666666664 0.22338116666666663 0.12541116666666666 0 0 0 0
505459270 -0.0030293333333333327 -0.0023278333333333332 0.23695383333333334 0.13626716666666666 0 0 0 0
508432501 -0.0030113333333333333 -0.0023001666666666665 0.2580941666666666 0.13646883333333332 0 0 0 0
511405732 -0.002972166666666667 -0.0022584999999999997 0.27451649999999994 0.12317349999999999 0 0 0 0
514378963 -0.0029061666666666663 -0.0021834999999999997 0.2751683333333333 0.10704649999999999 0 0 0 0
517352194 -0.002827 -0.0020989999999999997 0.2646111666666667 0.1012765 0 0 0 0
520325425 -0.0027301666666666663 -0.002013333333333333 0.2538108333333333 0.1065175 0 0 0 0
523298656 -0.0026371666666666666 -0.0019108333333333334 0.2506618333333333 0.11870933333333333 0 0 0 0
526271887 -0.002535833333333333 -0.0018021666666666668 0.2571026666666667 0.13327433333333333 0 0 0 0
529245118 -0.0024316666666666666 -0.0016854999999999997 0.27315049999999996 0.13883316666666667 0 0 0 0
532218349 -0.002322 -0.0015615 0.2884241666666667 0.13126816666666666 0 0 0 0
535191580 -0.0022201666666666663 -0.0014294999999999998 0.2900299999999999 0.11713733333333333 0 0 0 0
538164811 -0.002126166666666667 -0.0013046666666666662 0.2794498333333333 0.10877833333333332 0 0 0 0
541138042 -0.0022823333333333333 -0.0011428333333333334 0.25725683333333327 0.11832083333333332 0 0 0 0
544111273 -0.0028591666666666665 -0.0009823333333333333 0.23041433333333333 0.1346113333333333 0 0 0 0
547084504 -0.0034473333333333335 -0.0008625 0.21376999999999996 0.15273116666666664 0 0 0 0
550057735 -0.004043166666666667 -0.0008001666666666667 0.2114748333333333 0.1676768333333333 0 0 0 0
553030966 -0.004624 -0.0007938333333333332 0.2258895 0.1713448333333333 0 0 0 0
556004197 -0.005180333333333333 -0.0008361666666666666 0.24278283333333334 0.15561833333333333 0 0 0 0
558977428 -0.005717999999999999 -0.0009848333333333332 0.242922 0.12428933333333332 0 0 0 0
561950659 -0.006186833333333333 -0.0011825 0.22816466666666668 0.099685 0 0 0 0
564923890 -0.006591833333333332 -0.0013791666666666668 0.20806416666666663 0.09029983333333332 0 0 0 0
567897121 -0.006905333333333333 -0.0016621666666666664 0.19623433333333332 0.09193583333333333 0 0 0 0
570870352 -0.007282833333333333 -0.0018331666666666665 0.1903733333333333 0.09780366666666668 0 0 0 0
573843583 -0.007958 -0.0017438333333333333 0.19099233333333335 0.10399399999999999 0 0 0 0
576816814 -0.008639166666666667 -0.0016766666666666668 0.1924588333333333 0.09970283333333332 0 0 0 0
579790045 -0.009323833333333333 -0.0017121666666666665 0.18920166666666666 0.08812216666666667 0 0 0 0
582763276 -0.009941333333333333 -0.0018053333333333333 0.17721166666666666 0.0776305 0 0 0 0
585736507 -0.010526999999999998 -0.001985333333333333 0.16201649999999998 0.07527883333333332 0 0 0 0
588709738 -0.011054166666666665 -0.0022034999999999997 0.15109033333333333 0.08011099999999999 0 0 0 0
591682969 -0.011514499999999999 -0.0024879999999999998 0.14684766666666665 0.089211 0 0 0 0
594656200 -0.011877333333333332 -0.0028615 0.15098933333333334 0.09856166666666667 0 0 0 0
597629431 -0.012118166666666666 -0.0032563333333333333 0.16368449999999998 0.10375333333333332 0 0 0 0
600602662 -0.0120635 -0.0037115 0.15272466666666668 0.07651933333333333 0 0 0 0
603575893 -0.010916499999999999 -0.004089499999999999 0.17165683333333331 0.15037816666666665 0 0 0 0
606549124 -0.0096295 -0.004323166666666666 0.18767683333333332 0.08609133333333333 0 0 0 0
609522355 -0.008206666666666666 -0.0044853333333333325 0.20270783333333334 0.0865185 0 0 0 0
612495586 -0.0067325 -0.004538333333333333 0.22070800000000002 0.08684733333333333 0 0 0 0
615468817 -0.0051955 -0.004455666666666667 0.2431741666666667 0.08711649999999999 0 0 0 0
618442048 -0.003663166666666667 -0.0042105 0.27250166666666664 0.08807216666666665 0 0 0 0
621415279 -0.002168666666666667 -0.003792833333333333 0.31240866666666667 0.08943783333333333 0 0 0 0
624388510 -0.0007318333333333333 -0.0032495 0.3664493333333333 0.08888033333333334 0 0 0 0
627361741 0.0005718333333333333 -0.0025696666666666667 0.4413948333333333 0.08717366666666666 0 0 0 0
