# HZ S RI R 50
10000000 0.142311 0.602921
15932540 0.326749 0.283379
21865080 0.426696 0.11378
27797620 0.50426 0.000986
33730160 0.595584 -0.03098
39662700 0.712898 -0.018598
45595240 0.838516 0.006534
51527780 0.951524 0.031221
57460320 0.978482 0.006004
63392860 0.922781 -0.040194
69325400 0.929823 -0.045728
75257940 0.932746 -0.049111
81190480 0.929122 -0.049556
87123020 0.918909 -0.050467
93055560 0.916988 -0.053615
98988100 0.925897 -0.058996
104920640 0.928902 -0.063221
110853180 0.922935 -0.06566
116785720 0.915104 -0.065151
122718260 0.913522 -0.069588
128650800 0.92672 -0.071846
134583340 0.930087 -0.072533
140515880 0.918656 -0.085222
146448420 0.909764 -0.080929
152380960 0.907326 -0.084335
158313500 0.914938 -0.08619
164246040 0.917035 -0.088166
170178580 0.914289 -0.089607
176111120 0.90575 -0.090416
182043660 0.901267 -0.09551
187976200 0.90999 -0.099565
193908740 0.91298 -0.100531
199841280 0.909053 -0.101698
205773820 0.90027 -0.104927
211706360 0.893744 -0.108146
217638900 0.904766 -0.111794
223571440 0.908416 -0.111473
229503980 0.905042 -0.114882
235436520 0.896084 -0.117925
241369060 0.887438 -0.121781
247301600 0.897381 -0.126106
253234140 0.902575 -0.127014
259166680 0.899626 -0.129083
265099220 0.890644 -0.129892
271031760 0.880395 -0.132535
276964300 0.891736 -0.13869
282896840 0.897069 -0.139341
288829380 0.895316 -0.141992
294761920 0.884013 -0.140916
300694460 0.872385 -0.143051
306627000 0.884145 -0.149367
312559540 0.889368 -0.151842
318492080 0.888459 -0.154183
324424620 0.87808 -0.153876
330357160 0.863318 -0.154906
336289700 0.877499 -0.161827
342222240 0.882698 -0.165116
348154780 0.881742 -0.165968
354087320 0.87102 -0.164378
360019860 0.857084 -0.164328
365952400 0.867906 -0.171448
371884940 0.873947 -0.175622
377817480 0.87285 -0.176437
383750020 0.863963 -0.17516
389682560 0.850453 -0.174512
395615100 0.858406 -0.181188
401547640 0.864883 -0.184147
407480180 0.86455 -0.185114
413412720 0.85644 -0.186355
419345260 0.843467 -0.183508
425277800 0.849896 -0.188372
431210340 0.853885 -0.19354
437142880 0.855412 -0.193105
443075420 0.846948 -0.191574
449007960 0.834696 -0.191647
454940500 0.840219 -0.197064
460873040 0.847402 -0.197807
466805580 0.846273 -0.202001
472738120 0.839176 -0.200757
478670660 0.826455 -0.198275
484603200 0.829943 -0.203575
490535740 0.837876 -0.206292
496468280 0.837253 -0.207433
502400820 0.830725 -0.207913
508333360 0.81819 -0.208747
514265900 0.822959 -0.21246
520198440 0.829749 -0.214406
526130980 0.829136 -0.216935
532063520 0.825061 -0.216393
537996060 0.811048 -0.213868
543928600 0.817506 -0.220652
549861140 0.826383 -0.224803
555793680 0.828862 -0.229346
561726220 0.826152 -0.225879
567658760 0.818332 -0.227383
573591300 0.818387 -0.231435
579523840 0.823771 -0.232066
585456380 0.820104 -0.233127
591388920 0.81197 -0.232251
597321460 0.796775 -0.230755
603254000 0.794327 -0.236018
609186540 0.802042 -0.2387
615119080 0.806583 -0.240807
621051620 0.803063 -0.238289
626984160 0.791835 -0.237952
632916700 0.788071 -0.24
638849240 0.798861 -0.243763
644781780 0.799772 -0.248147
650714320 0.797158 -0.24336
656646860 0.785186 -0.241204
662579400 0.782055 -0.242228
668511940 0.791261 -0.248137
674444480 0.797662 -0.248047
680377020 0.793107 -0.244867
686309560 0.785868 -0.237865
692242100 0.778721 -0.240278
698174640 0.782059 -0.247946
704107180 0.784418 -0.253161
710039720 0.778704 -0.250228
715972260 0.768505 -0.251217
721904800 0.762622 -0.25239
727837340 0.768302 -0.260087
733769880 0.77226 -0.258693
739702420 0.771414 -0.258582
745634960 0.762106 -0.254522
751567500 0.756465 -0.255508
757500040 0.763571 -0.259272
763432580 0.763706 -0.267204
769365120 0.762724 -0.265045
775297660 0.751487 -0.260841
781230200 0.745694 -0.259715
787162740 0.752668 -0.266411
793095280 0.755062 -0.270572
799027820 0.753805 -0.268196
804960360 0.748521 -0.266048
810892900 0.737829 -0.265602
816825440 0.746734 -0.268282
822757980 0.74983 -0.272586
828690520 0.749636 -0.269427
834623060 0.741261 -0.266556
840555600 0.729666 -0.265691
846488140 0.739595 -0.27126
852420680 0.741447 -0.277051
858353220 0.742209 -0.27325
864285760 0.733681 -0.271564
870218300 0.721909 -0.270241
876150840 0.732156 -0.277865
882083380 0.73574 -0.280113
888015920 0.73655 -0.279183
893948460 0.731332 -0.274257
899881000 0.71812 -0.274499
905813540 0.724711 -0.281744
911746080 0.727886 -0.285522
917678620 0.727311 -0.282126
923611160 0.721538 -0.285566
929543700 0.709719 -0.278873
935476240 0.715452 -0.28788
941408780 0.720314 -0.286209
947341320 0.717722 -0.29339
953273860 0.713126 -0.287363
959206400 0.702923 -0.281819
965138940 0.707443 -0.286853
971071480 0.708423 -0.295494
977004020 0.711143 -0.29299
982936560 0.703256 -0.292086
988869100 0.694656 -0.287073
994801640 0.704168 -0.295495
1000734180 0.701007 -0.297471
1006666720 0.701802 -0.296012
1012599260 0.6996 -0.290137
1018531800 0.688463 -0.290548
1024464340 0.693785 -0.292819
1030396880 0.696776 -0.292859
1036329420 0.696298 -0.295097
1042261960 0.692537 -0.293722
1048194500 0.685508 -0.289677
1054127040 0.686171 -0.292923
1060059580 0.690037 -0.29794
1065992120 0.692319 -0.29553
1071924660 0.688891 -0.292153
1077857200 0.674941 -0.294322
1083789740 0.676526 -0.298869
1089722280 0.682894 -0.299445
1095654820 0.682578 -0.300368
1101587360 0.68273 -0.297754
1107519900 0.67247 -0.292187
1113452440 0.671524 -0.295608
1119384980 0.678649 -0.29863
1125317520 0.679167 -0.298579
1131250060 0.67717 -0.296551
1137182600 0.665751 -0.297115
1143115140 0.663549 -0.30113
1149047680 0.671152 -0.305312
1154980220 0.676574 -0.300758
1160912760 0.671615 -0.300154
1166845300 0.663629 -0.2957
1172777840 0.659647 -0.296498
1178710380 0.667563 -0.300761
1184642920 0.66679 -0.303142
1190575460 0.664126 -0.299351
1196508000 0.651597 -0.299688
1202440540 0.653462 -0.297319
1208373080 0.655442 -0.306915
1214305620 0.658022 -0.311148
1220238160 0.658482 -0.303935
1226170700 0.647158 -0.30005
1232103240 0.645396 -0.300338
1238035780 0.650309 -0.302892
1243968320 0.6545 -0.304958
1249900860 0.651041 -0.303876
1255833400 0.647524 -0.296856
1261765940 0.637129 -0.295384
1267698480 0.643326 -0.301552
1273631020 0.645216 -0.305343
1279563560 0.643412 -0.303343
1285496100 0.743393 -0.333652
1291428640 0.632753 -0.29996
1297361180 0.635572 -0.305725
1303293720 0.639402 -0.30814
1309226260 0.636915 -0.305272
1315158800 0.631112 -0.301732
1321091340 0.624531 -0.298705
1327023880 0.628348 -0.304897
1332956420 0.614039 -0.328371
1338888960 0.629335 -0.304024
1344821500 0.623508 -0.308616
1350754040 0.617292 -0.305442
1356686580 0.621732 -0.313097
1362619120 0.623866 -0.309981
1368551660 0.618062 -0.316075
1374484200 0.61383 -0.312759
1380416740 0.608078 -0.30983
1386349280 0.613417 -0.317637
1392281820 0.620631 -0.3154
1398214360 0.620369 -0.314866
1404146900 0.616297 -0.310888
1410079440 0.60746 -0.305099
1416011980 0.618646 -0.311987
1421944520 0.626944 -0.310878
1427877060 0.627684 -0.31107
1433809600 0.626498 -0.305295
1439742140 0.615362 -0.304458
1445674680 0.619755 -0.304239
1451607220 0.619755 -0.307745
1457539760 0.616342 -0.309483
1463472300 0.61177 -0.305151
1469404840 0.597924 -0.304283
1475337380 0.601856 -0.312296
1481269920 0.607773 -0.311008
1487202460 0.607219 -0.313488
1493135000 0.602733 -0.308802
1499067540 0.589245 -0.306904
1505000080 0.596066 -0.31104
1510932620 0.602553 -0.314113
1516865160 0.604747 -0.324627
1522797700 0.601524 -0.310414
1528730240 0.588238 -0.309227
1534662780 0.594396 -0.310928
1540595320 0.59832 -0.314644
1546527860 0.595675 -0.316895
1552460400 0.591524 -0.313715
1558392940 0.579555 -0.312897
1564325480 0.583604 -0.316706
1570258020 0.588854 -0.319738
1576190560 0.592173 -0.317128
1582123100 0.586495 -0.319484
1588055640 0.579746 -0.312154
1593988180 0.580399 -0.315618
1599920720 0.585999 -0.319571
1605853260 0.58804 -0.320996
1611785800 0.583006 -0.318431
1617718340 0.574041 -0.315294
1623650880 0.574364 -0.318479
1629583420 0.582318 -0.321869
1635515960 0.580391 -0.323172
1641448500 0.574396 -0.321491
1647381040 0.56795 -0.311877
1653313580 0.567817 -0.312281
1659246120 0.571746 -0.320411
1665178660 0.573273 -0.318817
1671111200 0.571733 -0.319071
1677043740 0.562923 -0.317012
1682976280 0.561748 -0.316382
1688908820 0.566707 -0.324181
1694841360 0.569911 -0.318491
1700773900 0.568879 -0.316907
1706706440 0.561327 -0.313245
1712638980 0.557537 -0.315318
1718571520 0.566321 -0.318792
1724504060 0.565018 -0.319737
1730436600 0.559501 -0.324184
1736369140 0.55433 -0.317788
1742301680 0.550695 -0.318416
1748234220 0.558254 -0.322129
1754166760 0.55882 -0.32307
1760099300 0.557032 -0.323906
1766031840 0.551734 -0.318767
1771964380 0.550833 -0.318146
1777896920 0.558297 -0.319764
1783829460 0.560502 -0.320316
1789762000 0.560145 -0.318354
1795694540 0.555885 -0.312494
1801627080 0.549669 -0.3069
1807559620 0.549336 -0.316776
1813492160 0.555001 -0.322298
1819424700 0.54943 -0.320153
1825357240 0.541721 -0.317166
1831289780 0.53646 -0.319594
1837222320 0.543465 -0.32338
1843154860 0.542582 -0.325283
1849087400 0.54203 -0.322812
1855019940 0.537529 -0.325275
1860952480 0.526921 -0.319682
1866885020 0.538457 -0.32305
1872817560 0.540631 -0.326314
1878750100 0.540548 -0.324183
1884682640 0.533863 -0.319349
1890615180 0.525452 -0.315689
1896547720 0.532008 -0.321535
1902480260 0.537512 -0.324929
1908412800 0.535955 -0.322424
1914345340 0.529018 -0.320493
1920277880 0.521697 -0.314258
1926210420 0.528873 -0.317974
1932142960 0.531512 -0.320925
1938075500 0.530347 -0.321657
1944008040 0.52732 -0.322817
1949940580 0.516115 -0.313447
1955873120 0.522994 -0.320102
1961805660 0.526734 -0.319052
1967738200 0.522159 -0.320986
1973670740 0.523197 -0.313849
1979603280 0.513393 -0.310912
1985535820 0.519592 -0.316821
1991468360 0.519383 -0.320739
1997400900 0.517902 -0.321312
2003333440 0.519266 -0.3161
2009265980 0.512197 -0.310851
2015198520 0.513216 -0.321013
2021131060 0.513649 -0.326873
2027063600 0.507933 -0.328244
2032996140 0.507597 -0.324498
2038928680 0.503064 -0.316076
2044861220 0.504515 -0.3202
2050793760 0.508155 -0.325932
2056726300 0.505599 -0.322391
2062658840 0.504382 -0.322624
2068591380 0.496214 -0.318016
2074523920 0.495665 -0.324073
2080456460 0.504174 -0.326022
2086389000 0.504207 -0.326522
2092321540 0.497839 -0.323654
2098254080 0.49148 -0.32228
2104186620 0.495223 -0.323166
2110119160 0.498077 -0.329652
2116051700 0.497845 -0.328484
2121984240 0.498527 -0.329208
2127916780 0.487767 -0.321576
2133849320 0.491733 -0.327043
2139781860 0.492865 -0.333806
2145714400 0.497218 -0.332774
2151646940 0.497041 -0.328713
2157579480 0.489222 -0.323387
2163512020 0.488324 -0.33284
2169444560 0.488683 -0.332219
2175377100 0.492551 -0.331377
2181309640 0.486967 -0.331211
2187242180 0.486998 -0.326955
2193174720 0.481735 -0.328066
2199107260 0.490694 -0.329376
2205039800 0.493532 -0.332681
2210972340 0.493119 -0.32758
2216904880 0.491049 -0.323059
2222837420 0.485154 -0.319661
2228769960 0.489068 -0.326968
2234702500 0.490924 -0.328833
2240635040 0.483823 -0.330083
2246567580 0.477262 -0.328576
2252500120 0.474379 -0.32419
2258432660 0.48031 -0.332741
2264365200 0.483492 -0.323189
2270297740 0.480455 -0.326908
2276230280 0.471738 -0.32677
2282162820 0.472614 -0.32317
2288095360 0.471857 -0.324295
2294027900 0.474064 -0.320913
2299960440 0.47121 -0.326051
2305892980 0.470566 -0.32198
2311825520 0.462803 -0.322067
2317758060 0.464169 -0.326374
2323690600 0.470211 -0.329689
2329623140 0.472117 -0.319807
2335555680 0.465111 -0.322605
2341488220 0.466848 -0.31846
2347420760 0.461421 -0.332445
2353353300 0.46382 -0.328878
2359285840 0.456436 -0.335274
2365218380 0.449596 -0.334853
2371150920 0.445862 -0.336564
2377083460 0.457812 -0.336978
2383016000 0.466118 -0.334676
2388948540 0.459723 -0.329149
2394881080 0.46325 -0.330264
2400813620 0.452668 -0.32487
2406746160 0.458888 -0.331048
2412678700 0.46332 -0.325985
2418611240 0.45529 -0.333666
2424543780 0.45548 -0.321858
2430476320 0.442028 -0.325728
2436408860 0.450667 -0.332171
2442341400 0.457972 -0.33163
2448273940 0.450157 -0.332531
2454206480 0.450748 -0.330769
2460139020 0.44394 -0.332471
2466071560 0.446937 -0.331933
2472004100 0.455155 -0.341132
2477936640 0.453613 -0.336862
2483869180 0.455995 -0.335673
2489801720 0.450622 -0.324801
2495734260 0.457167 -0.335477
2501666800 0.459798 -0.33222
2507599340 0.461521 -0.328687
2513531880 0.454589 -0.32915
2519464420 0.451956 -0.323027
2525396960 0.447635 -0.32899
2531329500 0.447456 -0.329298
2537262040 0.448604 -0.328635
2543194580 0.439267 -0.32862
2549127120 0.437056 -0.322562
2555059660 0.441294 -0.324422
2560992200 0.439919 -0.327257
2566924740 0.437114 -0.331153
2572857280 0.433227 -0.329453
2578789820 0.434354 -0.322301
2584722360 0.43609 -0.32631
2590654900 0.438343 -0.331057
2596587440 0.43747 -0.331745
2602519980 0.433215 -0.334884
2608452520 0.426081 -0.330477
2614385060 0.428488 -0.332918
2620317600 0.431418 -0.334583
2626250140 0.431412 -0.337171
2632182680 0.425429 -0.326841
2638115220 0.418297 -0.329833
2644047760 0.421604 -0.328981
2649980300 0.423627 -0.332308
2655912840 0.42331 -0.33012
2661845380 0.419486 -0.333122
2667777920 0.416671 -0.328881
2673710460 0.417368 -0.32653
2679643000 0.413548 -0.331091
2685575540 0.363321 -0.24566
2691508080 0.41365 -0.330952
2697440620 0.409733 -0.328711
2703373160 0.406632 -0.326572
2709305700 0.414166 -0.334315
2715238240 0.410968 -0.338475
2721170780 0.419761 -0.332163
2727103320 0.405958 -0.328469
2733035860 0.408489 -0.332161
2738968400 0.419994 -0.332644
2744900940 0.420165 -0.332562
2750833480 0.426334 -0.323625
2756766020 0.41744 -0.326593
2762698560 0.409507 -0.325801
2768631100 0.42613 -0.322074
2774563640 0.415183 -0.333947
2780496180 0.416327 -0.328332
2786428720 0.407188 -0.327557
2792361260 0.408906 -0.328085
2798293800 0.409718 -0.329699
2804226340 0.409523 -0.329115
2810158880 0.405499 -0.335824
2816091420 0.392868 -0.341765
2822023960 0.390838 -0.334301
2827956500 0.391665 -0.344644
2833889040 0.410481 -0.337051
2839821580 0.409663 -0.337466
2845754120 0.391719 -0.334783
2851686660 0.407296 -0.329089
2857619200 0.407299 -0.326649
2863551740 0.396481 -0.34418
2869484280 0.393594 -0.329254
2875416820 0.39208 -0.326631
2881349360 0.389652 -0.335379
2887281900 0.38882 -0.325944
2893214440 0.387889 -0.329878
2899146980 0.394032 -0.330923
2905079520 0.391421 -0.327535
2911012060 0.382657 -0.327403
2916944600 0.386705 -0.337901
2922877140 0.383779 -0.335531
2928809680 0.38422 -0.337819
2934742220 0.371428 -0.342778
2940674760 0.368101 -0.33794
2946607300 0.37792 -0.337833
2952539840 0.385536 -0.34018
2958472380 0.384087 -0.337261
2964404920 0.382734 -0.333325
2970337460 0.379849 -0.325067
2976270000 0.380095 -0.333075
2982202540 0.382607 -0.334377
2988135080 0.378529 -0.335477
2994067620 0.379031 -0.326872
3000000160 0.0 0.0
