# HZ S RI R 50
10000000 0.130594 0.590665
15932540 0.315932 0.281308
21865080 0.416897 0.115933
27797620 0.494532 0.006489
33730160 0.584789 -0.024834
39662700 0.701697 -0.010949
45595240 0.828937 0.015894
51527780 0.971066 0.015755
57460320 0.999175 0.015083
63392860 0.95864 -0.035673
69325400 0.967486 -0.04251
75257940 0.969368 -0.044092
81190480 0.967156 -0.044167
87123020 0.954731 -0.045336
93055560 0.952687 -0.050787
98988100 0.961357 -0.054218
104920640 0.966691 -0.057951
110853180 0.960979 -0.0603
116785720 0.950409 -0.060389
122718260 0.950965 -0.061851
128650800 0.962325 -0.064658
134583340 0.970671 -0.065244
140515880 0.955296 -0.075061
146448420 0.946638 -0.073662
152380960 0.944142 -0.076104
158313500 0.95281 -0.079393
164246040 0.955653 -0.080293
170178580 0.95113 -0.082497
176111120 0.941413 -0.083424
182043660 0.93751 -0.086712
187976200 0.947459 -0.089504
193908740 0.951335 -0.090478
199841280 0.94807 -0.091652
205773820 0.938567 -0.094508
211706360 0.931842 -0.097716
217638900 0.94245 -0.100804
223571440 0.947454 -0.102779
229503980 0.944493 -0.10271
235436520 0.933478 -0.108061
241369060 0.925307 -0.110456
247301600 0.93784 -0.114219
253234140 0.942472 -0.116077
259166680 0.940547 -0.116568
265099220 0.929553 -0.117595
271031760 0.918674 -0.121942
276964300 0.93186 -0.125743
282896840 0.936694 -0.127314
288829380 0.934751 -0.127497
294761920 0.92451 -0.12772
300694460 0.912645 -0.130762
306627000 0.924196 -0.135755
312559540 0.931329 -0.138868
318492080 0.929924 -0.138068
324424620 0.92046 -0.139069
330357160 0.90397 -0.14258
336289700 0.916816 -0.149278
342222240 0.924042 -0.150318
348154780 0.922307 -0.150271
354087320 0.913403 -0.150412
360019860 0.895979 -0.149925
365952400 0.908795 -0.156894
371884940 0.915181 -0.160399
377817480 0.914461 -0.162304
383750020 0.907205 -0.158516
389682560 0.889969 -0.157766
395615100 0.901482 -0.165538
401547640 0.906956 -0.170127
407480180 0.906777 -0.171452
413412720 0.899385 -0.169786
419345260 0.885002 -0.167468
425277800 0.892448 -0.173567
431210340 0.897071 -0.17688
437142880 0.897496 -0.175748
443075420 0.890322 -0.176365
449007960 0.875331 -0.17482
454940500 0.883084 -0.179307
460873040 0.887778 -0.181961
466805580 0.887955 -0.184112
472738120 0.883615 -0.180703
478670660 0.869002 -0.182772
484603200 0.874732 -0.184314
490535740 0.880686 -0.189449
496468280 0.880549 -0.191406
502400820 0.87431 -0.189161
508333360 0.862221 -0.190117
514265900 0.865186 -0.192617
520198440 0.873102 -0.195756
526130980 0.872741 -0.196611
532063520 0.868385 -0.19525
537996060 0.855461 -0.195026
543928600 0.8622 -0.197166
549861140 0.869778 -0.205337
555793680 0.87354 -0.210359
561726220 0.872806 -0.207422
567658760 0.862369 -0.206892
573591300 0.864127 -0.207205
579523840 0.866458 -0.211801
585456380 0.866615 -0.211319
591388920 0.855779 -0.212976
597321460 0.840101 -0.208209
603254000 0.839338 -0.215845
609186540 0.849579 -0.217503
615119080 0.852872 -0.219745
621051620 0.847472 -0.218854
626984160 0.836477 -0.21398
632916700 0.836325 -0.215293
638849240 0.844856 -0.222363
644781780 0.846539 -0.223581
650714320 0.843323 -0.220931
656646860 0.833249 -0.219993
662579400 0.826789 -0.222186
668511940 0.838859 -0.226299
674444480 0.843408 -0.224432
680377020 0.841059 -0.221932
686309560 0.792351 -0.255434
692242100 0.823342 -0.218207
698174640 0.831107 -0.22623
704107180 0.832658 -0.226502
710039720 0.826796 -0.225352
715972260 0.813058 -0.225579
721904800 0.810111 -0.228777
727837340 0.81615 -0.235973
733769880 0.820365 -0.235743
739702420 0.817967 -0.232478
745634960 0.808453 -0.228966
751567500 0.80085 -0.232523
757500040 0.810491 -0.236121
763432580 0.813185 -0.237578
769365120 0.810485 -0.238478
775297660 0.802018 -0.233969
781230200 0.791969 -0.238384
787162740 0.802442 -0.240052
793095280 0.807875 -0.240561
799027820 0.803321 -0.241266
804960360 0.796553 -0.23982
810892900 0.785724 -0.240154
816825440 0.795509 -0.24523
822757980 0.800162 -0.246035
828690520 0.798545 -0.247205
834623060 0.790092 -0.241002
840555600 0.778515 -0.238442
846488140 0.787448 -0.246173
852420680 0.793718 -0.248269
858353220 0.793492 -0.245652
864285760 0.783031 -0.246342
870218300 0.770447 -0.244336
876150840 0.782105 -0.250354
882083380 0.787303 -0.252502
888015920 0.790712 -0.24836
893948460 0.780929 -0.251064
899881000 0.768937 -0.244242
905813540 0.776963 -0.249998
911746080 0.778763 -0.258648
917678620 0.780056 -0.25391
923611160 0.776313 -0.252322
929543700 0.760284 -0.255213
935476240 0.768092 -0.257392
941408780 0.769713 -0.263431
947341320 0.773628 -0.261348
953273860 0.766198 -0.258192
959206400 0.755718 -0.252097
965138940 0.759533 -0.25986
971071480 0.763061 -0.265487
977004020 0.762888 -0.26258
982936560 0.757917 -0.262909
988869100 0.746285 -0.256386
994801640 0.746432 -0.271033
1000734180 0.757224 -0.266381
1006666720 0.758356 -0.264629
1012599260 0.753816 -0.258859
1018531800 0.744286 -0.25636
1024464340 0.747395 -0.262753
1030396880 0.75092 -0.267343
1036329420 0.751439 -0.266497
1042261960 0.747881 -0.262643
1048194500 0.738464 -0.260393
1054127040 0.740368 -0.262276
1060059580 0.746507 -0.26801
1065992120 0.746688 -0.263051
1071924660 0.741855 -0.264744
1077857200 0.73113 -0.263711
1083789740 0.733456 -0.2644
1089722280 0.739566 -0.267712
1095654820 0.740802 -0.26627
1101587360 0.73964 -0.26631
1107519900 0.727149 -0.264979
1113452440 0.727129 -0.264918
1119384980 0.734131 -0.269478
1125317520 0.735489 -0.269078
1131250060 0.732216 -0.269508
1137182600 0.721581 -0.265069
1143115140 0.722826 -0.263521
1149047680 0.729841 -0.270941
1154980220 0.731888 -0.271068
1160912760 0.730768 -0.268074
1166845300 0.721992 -0.260976
1172777840 0.718331 -0.26443
1178710380 0.725098 -0.265688
1184642920 0.724578 -0.271385
1190575460 0.72414 -0.270095
1196508000 0.710226 -0.267816
1202440540 0.708272 -0.270681
1208373080 0.713828 -0.278451
1214305620 0.722761 -0.27021
1220238160 0.715558 -0.274871
1226170700 0.707196 -0.265833
1232103240 0.703167 -0.267855
1238035780 0.710448 -0.272389
1243968320 0.71386 -0.273828
1249900860 0.711377 -0.268395
1255833400 0.70346 -0.264097
1261765940 0.699686 -0.260281
1267698480 0.704023 -0.270267
1273631020 0.708032 -0.272165
1279563560 0.7055 -0.272022
1285496100 0.697259 -0.272112
1291428640 0.693335 -0.25834
1297361180 0.670602 -0.300778
1303293720 0.699591 -0.268157
1309226260 0.697099 -0.265694
1315158800 0.692951 -0.262759
1321091340 0.683664 -0.255633
1327023880 0.68825 -0.265372
1332956420 0.68944 -0.275446
1338888960 0.685224 -0.273319
1344821500 0.656102 -0.300124
1350754040 0.67178 -0.270591
1356686580 0.67798 -0.272698
1362619120 0.656358 -0.306258
1368551660 0.680583 -0.278653
1374484200 0.669592 -0.280477
1380416740 0.659545 -0.281654
1386349280 0.675516 -0.277956
1392281820 0.693374 -0.264754
1398214360 0.684473 -0.278469
1404146900 0.680447 -0.274852
1410079440 0.672085 -0.269686
1416011980 0.681533 -0.282519
1421944520 0.688923 -0.273338
1427877060 0.693755 -0.272788
1433809600 0.688897 -0.273552
1439742140 0.674633 -0.275833
1445674680 0.683645 -0.271448
1451607220 0.686532 -0.27327
1457539760 0.682927 -0.274467
1463472300 0.674382 -0.27341
1469404840 0.661775 -0.273249
1475337380 0.671027 -0.272541
1481269920 0.674249 -0.278321
1487202460 0.674125 -0.277202
1493135000 0.66845 -0.272508
1499067540 0.655275 -0.272219
1505000080 0.661571 -0.273918
1510932620 0.665886 -0.282695
1516865160 0.672792 -0.275274
1522797700 0.664433 -0.279124
1528730240 0.653224 -0.273883
1534662780 0.660664 -0.276789
1540595320 0.665449 -0.28106
1546527860 0.666888 -0.280117
1552460400 0.660426 -0.282882
1558392940 0.647572 -0.276457
1564325480 0.655229 -0.278521
1570258020 0.659944 -0.286067
1576190560 0.659993 -0.282601
1582123100 0.657624 -0.280808
1588055640 0.647579 -0.272863
1593988180 0.647291 -0.279757
1599920720 0.652326 -0.285644
1605853260 0.655437 -0.286171
1611785800 0.648977 -0.290618
1617718340 0.642865 -0.282951
1623650880 0.642245 -0.283612
1629583420 0.650301 -0.287942
1635515960 0.650188 -0.2871
1641448500 0.64769 -0.282844
1647381040 0.6357 -0.281721
1653313580 0.636998 -0.279138
1659246120 0.641322 -0.282986
1665178660 0.642056 -0.289583
1671111200 0.642768 -0.286563
1677043740 0.634899 -0.278087
1682976280 0.633054 -0.280305
1688908820 0.636239 -0.287633
1694841360 0.640533 -0.287942
1700773900 0.637713 -0.28525
1706706440 0.630899 -0.281543
1712638980 0.628766 -0.282153
1718571520 0.6331 -0.286418
1724504060 0.632532 -0.286964
1730436600 0.633369 -0.284654
1736369140 0.625625 -0.28286
1742301680 0.62403 -0.280115
1748234220 0.629535 -0.285344
1754166760 0.63451 -0.288313
1760099300 0.630836 -0.287878
1766031840 0.621862 -0.282776
1771964380 0.621393 -0.280552
1777896920 0.627504 -0.287042
1783829460 0.634975 -0.285238
1789762000 0.633542 -0.282369
1795694540 0.626664 -0.278583
1801627080 0.622572 -0.274785
1807559620 0.629461 -0.279941
1813492160 0.625493 -0.287626
1819424700 0.62216 -0.283662
1825357240 0.615722 -0.28513
1831289780 0.610212 -0.281227
1837222320 0.615136 -0.291773
1843154860 0.617984 -0.292906
1849087400 0.618534 -0.290007
1855019940 0.610963 -0.284823
1860952480 0.602488 -0.285286
1866885020 0.612522 -0.286604
1872817560 0.616665 -0.290363
1878750100 0.613658 -0.291863
1884682640 0.606772 -0.288864
1890615180 0.60277 -0.280581
1896547720 0.612116 -0.28484
1902480260 0.614727 -0.291155
1908412800 0.610882 -0.286842
1914345340 0.605896 -0.28298
1920277880 0.594471 -0.278952
1926210420 0.604985 -0.286569
1932142960 0.606723 -0.28872
1938075500 0.604666 -0.288015
1944008040 0.598286 -0.288202
1949940580 0.592577 -0.279294
1955873120 0.602289 -0.279491
1961805660 0.603052 -0.28431
1967738200 0.602869 -0.287161
1973670740 0.602452 -0.27765
1979603280 0.591471 -0.276038
1985535820 0.594884 -0.285849
1991468360 0.600951 -0.281946
1997400900 0.598713 -0.289974
2003333440 0.596433 -0.281092
2009265980 0.585727 -0.284028
2015198520 0.590271 -0.28886
2021131060 0.591586 -0.292265
2027063600 0.591871 -0.290215
2032996140 0.590585 -0.287678
2038928680 0.58029 -0.288624
2044861220 0.583922 -0.290839
2050793760 0.589434 -0.293816
2056726300 0.588347 -0.290456
2062658840 0.585214 -0.289996
2068591380 0.574777 -0.283467
2074523920 0.577736 -0.285284
2080456460 0.580931 -0.293173
2086389000 0.581786 -0.29661
2092321540 0.576077 -0.287968
2098254080 0.569083 -0.289511
2104186620 0.574287 -0.288464
2110119160 0.578569 -0.298419
2116051700 0.579277 -0.295986
2121984240 0.57473 -0.292183
2127916780 0.566515 -0.292023
2133849320 0.572475 -0.294688
2139781860 0.576362 -0.298136
2145714400 0.574641 -0.301037
2151646940 0.571941 -0.297829
2157579480 0.565325 -0.296625
2163512020 0.568624 -0.294993
2169444560 0.572942 -0.3041
2175377100 0.574595 -0.300726
2181309640 0.575471 -0.296494
2187242180 0.564845 -0.295406
2193174720 0.563124 -0.293816
2199107260 0.574354 -0.295759
2205039800 0.572749 -0.297205
2210972340 0.575201 -0.296642
2216904880 0.571253 -0.285357
2222837420 0.562734 -0.292219
2228769960 0.568383 -0.294273
2234702500 0.569526 -0.293676
2240635040 0.568076 -0.292084
2246567580 0.561201 -0.291017
2252500120 0.553488 -0.29469
2258432660 0.560078 -0.293792
2264365200 0.561209 -0.294665
2270297740 0.566507 -0.291807
2276230280 0.554313 -0.29555
2282162820 0.554847 -0.290769
2288095360 0.55494 -0.296724
2294027900 0.554129 -0.298251
2299960440 0.553464 -0.295291
2305892980 0.548003 -0.291844
2311825520 0.539343 -0.292959
2317758060 0.543813 -0.294403
2323690600 0.55537 -0.290484
2329623140 0.551297 -0.293482
2335555680 0.542527 -0.292622
2341488220 0.545109 -0.287246
2347420760 0.548539 -0.295221
2353353300 0.544387 -0.29837
2359285840 0.54133 -0.303245
2365218380 0.540105 -0.299831
2371150920 0.534245 -0.298981
2377083460 0.545756 -0.306975
2383016000 0.550285 -0.308578
2388948540 0.54837 -0.303069
2394881080 0.547828 -0.296633
2400813620 0.541482 -0.29022
2406746160 0.544155 -0.296013
2412678700 0.54341 -0.291113
2418611240 0.543599 -0.294957
2424543780 0.533349 -0.303443
2430476320 0.530276 -0.293424
2436408860 0.531378 -0.305136
2442341400 0.53847 -0.304085
2448273940 0.534372 -0.304056
2454206480 0.532497 -0.302544
2460139020 0.522325 -0.300648
2466071560 0.531562 -0.304494
2472004100 0.540921 -0.307348
2477936640 0.539167 -0.304924
2483869180 0.533446 -0.312722
2489801720 0.52812 -0.302621
2495734260 0.537012 -0.312605
2501666800 0.536724 -0.302681
2507599340 0.540032 -0.30862
2513531880 0.535244 -0.304592
2519464420 0.523099 -0.3023
2525396960 0.52894 -0.30519
2531329500 0.533977 -0.306344
2537262040 0.529971 -0.301651
2543194580 0.522358 -0.306733
2549127120 0.517136 -0.297466
2555059660 0.518466 -0.302349
2560992200 0.523603 -0.305708
2566924740 0.521958 -0.308038
2572857280 0.516656 -0.307143
2578789820 0.509733 -0.302112
2584722360 0.525285 -0.291897
2590654900 0.518407 -0.309158
2596587440 0.528159 -0.297943
2602519980 0.513339 -0.305613
2608452520 0.517902 -0.291009
2614385060 0.506559 -0.306962
2620317600 0.527576 -0.298316
2626250140 0.511362 -0.310581
2632182680 0.522322 -0.297949
2638115220 0.500318 -0.302808
2644047760 0.513166 -0.300374
2649980300 0.496502 -0.313864
2655912840 0.521035 -0.296689
2661845380 0.505155 -0.301572
2667777920 0.5112 -0.289168
2673710460 0.515156 -0.308154
2679643000 0.511934 -0.299613
2685575540 0.510387 -0.300658
2691508080 0.504376 -0.301301
2697440620 0.486429 -0.29927
2703373160 0.497096 -0.302728
2709305700 0.495008 -0.305122
2715238240 0.50257 -0.307057
2721170780 0.501515 -0.309407
2727103320 0.501225 -0.303205
2733035860 0.497208 -0.302182
2738968400 0.505892 -0.304307
2744900940 0.5038 -0.30519
2750833480 0.506347 -0.29795
2756766020 0.505141 -0.297444
2762698560 0.499151 -0.298689
2768631100 0.50175 -0.306374
2774563640 0.508107 -0.305817
2780496180 0.501446 -0.305587
2786428720 0.499244 -0.304429
2792361260 0.49033 -0.304821
2798293800 0.495138 -0.313568
2804226340 0.498251 -0.305563
2810158880 0.490748 -0.311645
2816091420 0.482597 -0.307034
2822023960 0.482412 -0.309753
2827956500 0.489642 -0.320685
2833889040 0.490504 -0.324442
2839821580 0.488595 -0.311094
2845754120 0.492029 -0.308555
2851686660 0.481263 -0.30907
2857619200 0.493371 -0.312621
2863551740 0.481513 -0.310782
2869484280 0.479099 -0.295411
2875416820 0.478067 -0.305879
2881349360 0.474134 -0.307397
2887281900 0.482925 -0.308346
2893214440 0.480562 -0.310246
2899146980 0.479207 -0.306697
2905079520 0.477447 -0.309075
2911012060 0.474275 -0.298436
2916944600 0.473672 -0.312293
2922877140 0.474875 -0.319578
2928809680 0.474078 -0.313477
2934742220 0.462494 -0.317586
2940674760 0.459045 -0.317794
2946607300 0.462997 -0.318691
2952539840 0.474798 -0.314468
2958472380 0.472857 -0.312404
2964404920 0.47107 -0.311882
2970337460 0.467156 -0.305778
2976270000 0.467631 -0.309661
2982202540 0.470924 -0.309483
2988135080 0.469895 -0.313119
2994067620 0.467392 -0.309432
3000000160 0.0 0.0
