# HZ S RI R 50
10000000 0.148609 0.609496
15932540 0.332806 0.284527
21865080 0.431949 0.112288
27797620 0.509015 -0.001297
33730160 0.600555 -0.033977
39662700 0.71828 -0.022932
45595240 0.843201 0.001267
51527780 0.951948 0.025514
57460320 0.96816 0.001093
63392860 0.903491 -0.039117
69325400 0.911895 -0.045639
75257940 0.915067 -0.048614
81190480 0.909453 -0.049122
87123020 0.901454 -0.051396
93055560 0.900737 -0.055591
98988100 0.907802 -0.061971
104920640 0.91273 -0.063297
110853180 0.907195 -0.064886
116785720 0.897457 -0.066165
122718260 0.897279 -0.069673
128650800 0.908787 -0.072688
134583340 0.914422 -0.075389
140515880 0.900387 -0.082639
146448420 0.893114 -0.08225
152380960 0.890573 -0.083665
158313500 0.898429 -0.087714
164246040 0.901628 -0.090805
170178580 0.897738 -0.091392
176111120 0.889189 -0.094487
182043660 0.884973 -0.096837
187976200 0.893107 -0.100564
193908740 0.896491 -0.102853
199841280 0.892906 -0.103299
205773820 0.88504 -0.105786
211706360 0.877705 -0.110697
217638900 0.887193 -0.114296
223571440 0.891022 -0.115668
229503980 0.888968 -0.117837
235436520 0.879225 -0.12037
241369060 0.871927 -0.124905
247301600 0.88208 -0.128224
253234140 0.886273 -0.130636
259166680 0.884917 -0.132361
265099220 0.874112 -0.13427
271031760 0.864159 -0.137928
276964300 0.877216 -0.140406
282896840 0.881441 -0.14343
288829380 0.87833 -0.146135
294761920 0.86916 -0.145315
300694460 0.856404 -0.147413
306627000 0.868264 -0.154397
312559540 0.874698 -0.158951
318492080 0.872415 -0.158226
324424620 0.864171 -0.158136
330357160 0.849465 -0.159235
336289700 0.861007 -0.166215
342222240 0.867378 -0.169998
348154780 0.866637 -0.171718
354087320 0.85826 -0.170064
360019860 0.842414 -0.171711
365952400 0.851725 -0.176685
371884940 0.85906 -0.18289
377817480 0.858098 -0.182549
383750020 0.850517 -0.181413
389682560 0.835558 -0.181016
395615100 0.84535 -0.18655
401547640 0.851042 -0.192341
407480180 0.851725 -0.192819
413412720 0.842974 -0.191403
419345260 0.827991 -0.191679
425277800 0.835238 -0.195992
431210340 0.841691 -0.20126
437142880 0.838936 -0.200652
443075420 0.832982 -0.200675
449007960 0.821891 -0.1998
454940500 0.82646 -0.204292
460873040 0.830982 -0.207068
466805580 0.832934 -0.208246
472738120 0.826898 -0.209144
478670660 0.813801 -0.208744
484603200 0.818811 -0.211005
490535740 0.824333 -0.216731
496468280 0.823153 -0.217759
502400820 0.816927 -0.217006
508333360 0.805281 -0.216241
514265900 0.808639 -0.221753
520198440 0.81419 -0.226733
526130980 0.815972 -0.226298
532063520 0.810281 -0.22662
537996060 0.799041 -0.225988
543928600 0.802093 -0.229557
549861140 0.810963 -0.236764
555793680 0.815794 -0.236984
561726220 0.811357 -0.241274
567658760 0.802955 -0.23742
573591300 0.803524 -0.242024
579523840 0.806907 -0.244216
585456380 0.806042 -0.245468
591388920 0.798123 -0.242598
597321460 0.783855 -0.24209
603254000 0.780337 -0.247166
609186540 0.789662 -0.25325
615119080 0.793727 -0.252733
621051620 0.790537 -0.250169
626984160 0.778257 -0.250413
632916700 0.777546 -0.252301
638849240 0.784651 -0.256516
644781780 0.787004 -0.258221
650714320 0.783143 -0.257169
656646860 0.773186 -0.256356
662579400 0.767449 -0.258707
668511940 0.77809 -0.260207
674444480 0.780066 -0.264149
680377020 0.77951 -0.259971
686309560 0.770834 -0.255848
692242100 0.76479 -0.254198
698174640 0.770177 -0.260384
704107180 0.770712 -0.264348
710039720 0.765018 -0.266289
715972260 0.753862 -0.266791
721904800 0.75341 -0.254847
727837340 0.759844 -0.262612
733769880 0.766061 -0.264575
739702420 0.763752 -0.262587
745634960 0.755483 -0.258544
751567500 0.748363 -0.259012
757500040 0.753202 -0.265185
763432580 0.757355 -0.267952
769365120 0.754487 -0.264591
775297660 0.745015 -0.266389
781230200 0.736925 -0.265047
787162740 0.745841 -0.267965
793095280 0.742867 -0.284705
799027820 0.740176 -0.283765
804960360 0.731028 -0.282996
810892900 0.722639 -0.282155
816825440 0.731751 -0.287094
822757980 0.736004 -0.285984
828690520 0.734615 -0.290021
834623060 0.726866 -0.285359
840555600 0.717236 -0.280171
846488140 0.723027 -0.291491
852420680 0.727468 -0.292966
858353220 0.727938 -0.290354
864285760 0.718888 -0.289211
870218300 0.707206 -0.288043
876150840 0.716123 -0.295514
882083380 0.72097 -0.297329
888015920 0.720614 -0.298714
893948460 0.714721 -0.297123
899881000 0.706104 -0.286699
905813540 0.710123 -0.297963
911746080 0.713234 -0.305817
917678620 0.71378 -0.302335
923611160 0.7033 -0.308098
929543700 0.694087 -0.298165
935476240 0.698929 -0.30674
941408780 0.705192 -0.308337
947341320 0.702995 -0.307996
953273860 0.69538 -0.307216
959206400 0.687599 -0.300067
965138940 0.692112 -0.306578
971071480 0.695035 -0.311175
977004020 0.692016 -0.315476
982936560 0.687195 -0.311723
988869100 0.677599 -0.309572
994801640 0.683753 -0.317294
1000734180 0.684624 -0.316557
1006666720 0.685657 -0.316001
1012599260 0.679924 -0.314228
1018531800 0.673201 -0.310129
1024464340 0.673379 -0.314022
1030396880 0.680199 -0.312791
1036329420 0.679459 -0.317959
1042261960 0.676038 -0.313273
1048194500 0.66505 -0.313054
1054127040 0.666151 -0.315777
1060059580 0.671406 -0.319057
1065992120 0.669664 -0.319305
1071924660 0.667686 -0.314986
1077857200 0.657911 -0.31456
1083789740 0.657318 -0.316345
1089722280 0.66499 -0.322057
1095654820 0.665153 -0.321645
1101587360 0.662052 -0.32008
1107519900 0.654603 -0.317896
1113452440 0.650591 -0.323098
1119384980 0.659502 -0.321916
1125317520 0.658144 -0.32383
1131250060 0.655203 -0.321704
1137182600 0.645509 -0.31992
1143115140 0.645312 -0.323439
1149047680 0.651577 -0.328559
1154980220 0.655362 -0.325747
1160912760 0.651602 -0.322789
1166845300 0.642518 -0.320482
1172777840 0.640166 -0.320839
1178710380 0.645521 -0.323515
1184642920 0.647883 -0.325896
1190575460 0.64344 -0.325049
1196508000 0.631639 -0.323772
1202440540 0.630702 -0.325069
1208373080 0.635918 -0.330453
1214305620 0.63894 -0.330182
1220238160 0.635594 -0.32942
1226170700 0.626398 -0.324446
1232103240 0.621559 -0.324534
1238035780 0.627468 -0.330282
1243968320 0.631136 -0.330637
1249900860 0.629634 -0.327816
1255833400 0.622204 -0.32183
1261765940 0.617444 -0.317974
1267698480 0.622995 -0.326001
1273631020 0.624018 -0.328623
1279563560 0.619143 -0.331602
1285496100 0.615773 -0.326817
1291428640 0.610801 -0.327096
1297361180 0.616783 -0.333057
1303293720 0.61785 -0.332976
1309226260 0.614014 -0.330177
1315158800 0.609453 -0.326099
1321091340 0.602605 -0.318959
1327023880 0.606927 -0.328332
1332956420 0.610407 -0.334769
1338888960 0.606456 -0.334717
1344821500 0.599028 -0.335786
1350754040 0.594564 -0.329723
1356686580 0.59911 -0.336598
1362619120 0.597957 -0.342591
1368551660 0.596808 -0.340203
1374484200 0.588693 -0.337086
1380416740 0.580904 -0.338813
1386349280 0.591511 -0.340859
1392281820 0.59046 -0.343741
1398214360 0.594221 -0.344438
1404146900 0.589133 -0.337034
1410079440 0.581792 -0.331598
1416011980 0.589048 -0.341244
1421944520 0.598003 -0.337561
1427877060 0.598389 -0.337759
1433809600 0.59714 -0.334055
1439742140 0.587618 -0.329013
1445674680 0.591 -0.334866
1451607220 0.593343 -0.334416
1457539760 0.590285 -0.337234
1463472300 0.579655 -0.336897
1469404840 0.569555 -0.33346
1475337380 0.577019 -0.335636
1481269920 0.578688 -0.339811
1487202460 0.576644 -0.341376
1493135000 0.570049 -0.338614
1499067540 0.560443 -0.333721
1505000080 0.565821 -0.341389
1510932620 0.573048 -0.340464
1516865160 0.571865 -0.343418
1522797700 0.567845 -0.339878
1528730240 0.555643 -0.33641
1534662780 0.56159 -0.340077
1540595320 0.562606 -0.346564
1546527860 0.566683 -0.346451
1552460400 0.558739 -0.345027
1558392940 0.551303 -0.342245
1564325480 0.552481 -0.344481
1570258020 0.55724 -0.348138
1576190560 0.558433 -0.347531
1582123100 0.558159 -0.344813
1588055640 0.545358 -0.343186
1593988180 0.545125 -0.347229
1599920720 0.54989 -0.350354
1605853260 0.550715 -0.354301
1611785800 0.552713 -0.348937
1617718340 0.543279 -0.346448
1623650880 0.539024 -0.354562
1629583420 0.544099 -0.35338
1635515960 0.546776 -0.353882
1641448500 0.543263 -0.348715
1647381040 0.534706 -0.342158
1653313580 0.53282 -0.346538
1659246120 0.538023 -0.351672
1665178660 0.538141 -0.350485
1671111200 0.534315 -0.351493
1677043740 0.529043 -0.344779
1682976280 0.526123 -0.348884
1688908820 0.532333 -0.353004
1694841360 0.533569 -0.354234
1700773900 0.531687 -0.34945
1706706440 0.525854 -0.346272
1712638980 0.522798 -0.34583
1718571520 0.528655 -0.349395
1724504060 0.527491 -0.351925
1730436600 0.523431 -0.354564
1736369140 0.51641 -0.347954
1742301680 0.51292 -0.35315
1748234220 0.522715 -0.352518
1754166760 0.524942 -0.355651
1760099300 0.522095 -0.357248
1766031840 0.518022 -0.350394
1771964380 0.511987 -0.347428
1777896920 0.515863 -0.357734
1783829460 0.523971 -0.3544
1789762000 0.522007 -0.350711
1795694540 0.517375 -0.346266
1801627080 0.512113 -0.343852
1807559620 0.514887 -0.352756
1813492160 0.511365 -0.350795
1819424700 0.509746 -0.352336
1825357240 0.505926 -0.352521
1831289780 0.492466 -0.34983
1837222320 0.501039 -0.355538
1843154860 0.499281 -0.360244
1849087400 0.502602 -0.357215
1855019940 0.496389 -0.356328
1860952480 0.486035 -0.352013
1866885020 0.491597 -0.359065
1872817560 0.495228 -0.3621
1878750100 0.472877 -0.370636
1884682640 0.492424 -0.354826
1890615180 0.487944 -0.347181
1896547720 0.49393 -0.351543
1902480260 0.49399 -0.358116
1908412800 0.49534 -0.354612
1914345340 0.485625 -0.353216
1920277880 0.478028 -0.35106
1926210420 0.485423 -0.35502
1932142960 0.485978 -0.356463
1938075500 0.481785 -0.358105
1944008040 0.475536 -0.35696
1949940580 0.469743 -0.352822
1955873120 0.477941 -0.357628
1961805660 0.481106 -0.355755
1967738200 0.477205 -0.356106
1973670740 0.479349 -0.34738
1979603280 0.4705 -0.347826
1985535820 0.474984 -0.351288
1991468360 0.475875 -0.356576
1997400900 0.476949 -0.359109
2003333440 0.465623 -0.358762
2009265980 0.463165 -0.350133
2015198520 0.467633 -0.350834
2021131060 0.465403 -0.362197
2027063600 0.470602 -0.35486
2032996140 0.462745 -0.35964
2038928680 0.457236 -0.349997
2044861220 0.458358 -0.356549
2050793760 0.457946 -0.364236
2056726300 0.461084 -0.356266
2062658840 0.458734 -0.353747
2068591380 0.449539 -0.352766
2074523920 0.451829 -0.355144
2080456460 0.457929 -0.353785
2086389000 0.458046 -0.362225
2092321540 0.460886 -0.327335
2098254080 0.446025 -0.354859
2104186620 0.446382 -0.362605
2110119160 0.451431 -0.361216
2116051700 0.45211 -0.360975
2121984240 0.449722 -0.363642
2127916780 0.442157 -0.360466
2133849320 0.442171 -0.363711
2139781860 0.446271 -0.368475
2145714400 0.447725 -0.367798
2151646940 0.447194 -0.363385
2157579480 0.439806 -0.362517
2163512020 0.442638 -0.363444
2169444560 0.444077 -0.368389
2175377100 0.446756 -0.367847
2181309640 0.442563 -0.364327
2187242180 0.43756 -0.360432
2193174720 0.437195 -0.361586
2199107260 0.442045 -0.362976
2205039800 0.443756 -0.363819
2210972340 0.444773 -0.362825
2216904880 0.434723 -0.357813
2222837420 0.438331 -0.35787
2228769960 0.442105 -0.359132
2234702500 0.44131 -0.368615
2240635040 0.440659 -0.361766
2246567580 0.439629 -0.349354
2252500120 0.431472 -0.356667
2258432660 0.433265 -0.358714
2264365200 0.436683 -0.365956
2270297740 0.431681 -0.359096
2276230280 0.422527 -0.356126
2282162820 0.422546 -0.354254
2288095360 0.425065 -0.362084
2294027900 0.419586 -0.364971
2299960440 0.42698 -0.358813
2305892980 0.411077 -0.357335
2311825520 0.412179 -0.354425
2317758060 0.418815 -0.358498
2323690600 0.418628 -0.359461
2329623140 0.411494 -0.35962
2335555680 0.421406 -0.350491
2341488220 0.416678 -0.352289
2347420760 0.41192 -0.361798
2353353300 0.41335 -0.364127
2359285840 0.404976 -0.370027
2365218380 0.397384 -0.367088
2371150920 0.397938 -0.367476
2377083460 0.405062 -0.372833
2383016000 0.416974 -0.367723
2388948540 0.401754 -0.379179
2394881080 0.413917 -0.359352
2400813620 0.403702 -0.360123
2406746160 0.407831 -0.371094
2412678700 0.411123 -0.357064
2418611240 0.404195 -0.364379
2424543780 0.396769 -0.366996
2430476320 0.394386 -0.357834
2436408860 0.394962 -0.362919
2442341400 0.397237 -0.367014
2448273940 0.406049 -0.36452
2454206480 0.398392 -0.366394
2460139020 0.389237 -0.361331
2466071560 0.397983 -0.376657
2472004100 0.403591 -0.373087
2477936640 0.391216 -0.356608
2483869180 0.405584 -0.370717
2489801720 0.398923 -0.359339
2495734260 0.407583 -0.36894
2501666800 0.408264 -0.367056
2507599340 0.406821 -0.364155
2513531880 0.403043 -0.362487
2519464420 0.397754 -0.35659
2525396960 0.397501 -0.359942
2531329500 0.396712 -0.36313
2537262040 0.398456 -0.359228
2543194580 0.396658 -0.359767
2549127120 0.386738 -0.351892
2555059660 0.384287 -0.360479
2560992200 0.388447 -0.362341
2566924740 0.388871 -0.362582
2572857280 0.390543 -0.357065
2578789820 0.382052 -0.358635
2584722360 0.383544 -0.361378
2590654900 0.387989 -0.365184
2596587440 0.383194 -0.365842
2602519980 0.382014 -0.36243
2608452520 0.379614 -0.35952
2614385060 0.375665 -0.365306
2620317600 0.380149 -0.361565
2626250140 0.375123 -0.365945
2632182680 0.372389 -0.362058
2638115220 0.371851 -0.359375
2644047760 0.368662 -0.361467
2649980300 0.37555 -0.362003
2655912840 0.377709 -0.360417
2661845380 0.370247 -0.362135
2667777920 0.362473 -0.359148
2673710460 0.366812 -0.355697
2679643000 0.37114 -0.355423
2685575540 0.365983 -0.358669
2691508080 0.357457 -0.362601
2697440620 0.356082 -0.358581
2703373160 0.346349 -0.356016
2709305700 0.365314 -0.366854
2715238240 0.359303 -0.364906
2721170780 0.36658 -0.363183
2727103320 0.358391 -0.358521
2733035860 0.352562 -0.357699
2738968400 0.362752 -0.361468
2744900940 0.373341 -0.361751
2750833480 0.367708 -0.360161
2756766020 0.364353 -0.357184
2762698560 0.367794 -0.350919
2768631100 0.368524 -0.357939
2774563640 0.362465 -0.366708
2780496180 0.363787 -0.361866
2786428720 0.358933 -0.359743
2792361260 0.354651 -0.356758
2798293800 0.353084 -0.365949
2804226340 0.346707 -0.366937
2810158880 0.348726 -0.357591
2816091420 0.347054 -0.355361
2822023960 0.333223 -0.361664
2827956500 0.355876 -0.367622
2833889040 0.354214 -0.373434
2839821580 0.355682 -0.371198
2845754120 0.356683 -0.363268
2851686660 0.345323 -0.359378
2857619200 0.348178 -0.351707
2863551740 0.347839 -0.365612
2869484280 0.338287 -0.359439
2875416820 0.33127 -0.358767
2881349360 0.337642 -0.350607
2887281900 0.345875 -0.363437
2893214440 0.34133 -0.357088
2899146980 0.34521 -0.36069
2905079520 0.338515 -0.353939
2911012060 0.334062 -0.356775
2916944600 0.337798 -0.357479
2922877140 0.335619 -0.364697
2928809680 0.328623 -0.363011
2934742220 0.325725 -0.365509
2940674760 0.312484 -0.36721
2946607300 0.322121 -0.367518
2952539840 0.327798 -0.370687
2958472380 0.328994 -0.365619
2964404920 0.329947 -0.360901
2970337460 0.327049 -0.351117
2976270000 0.329642 -0.359239
2982202540 0.327584 -0.359711
2988135080 0.328924 -0.359158
2994067620 0.32935 -0.354291
3000000160 0.0 0.0
