# HZ S RI R 50
10000000 0.14996 0.611277
15932540 0.334044 0.284648
21865080 0.433775 0.112041
27797620 0.510011 -0.002406
33730160 0.601868 -0.03544
39662700 0.719501 -0.024136
45595240 0.844366 0.000658
51527780 0.951919 0.024275
57460320 0.966234 0.00043
63392860 0.899428 -0.038545
69325400 0.907763 -0.045731
75257940 0.912521 -0.032475
81190480 0.906609 -0.047685
87123020 0.896667 -0.05092
93055560 0.894825 -0.05426
98988100 0.905363 -0.059981
104920640 0.908325 -0.063097
110853180 0.904521 -0.065994
116785720 0.893531 -0.065258
122718260 0.893186 -0.06745
128650800 0.904353 -0.071889
134583340 0.909684 -0.073154
140515880 0.895882 -0.082223
146448420 0.888789 -0.081622
152380960 0.886236 -0.084116
158313500 0.894417 -0.087841
164246040 0.897774 -0.089593
170178580 0.893133 -0.090266
176111120 0.885018 -0.093816
182043660 0.880658 -0.095716
187976200 0.889438 -0.099206
193908740 0.893471 -0.101191
199841280 0.889601 -0.103579
205773820 0.880648 -0.106109
211706360 0.875058 -0.10898
217638900 0.88504 -0.112791
223571440 0.888884 -0.116076
229503980 0.885175 -0.116376
235436520 0.875626 -0.119321
241369060 0.86798 -0.123501
247301600 0.879405 -0.127859
253234140 0.884629 -0.129973
259166680 0.881144 -0.131372
265099220 0.871219 -0.133794
271031760 0.861682 -0.136358
276964300 0.873617 -0.141058
282896840 0.877642 -0.144352
288829380 0.877783 -0.145001
294761920 0.866356 -0.146212
300694460 0.85437 -0.147987
306627000 0.86728 -0.154946
312559540 0.872624 -0.155555
318492080 0.870036 -0.158886
324424620 0.862936 -0.159042
330357160 0.847422 -0.160907
336289700 0.859758 -0.165901
342222240 0.865875 -0.168589
348154780 0.863586 -0.170275
354087320 0.857012 -0.168919
360019860 0.840158 -0.168773
365952400 0.853132 -0.177114
371884940 0.858003 -0.181658
377817480 0.855363 -0.182666
383750020 0.848365 -0.182102
389682560 0.834056 -0.180134
395615100 0.842989 -0.187867
401547640 0.848614 -0.192478
407480180 0.847381 -0.191153
413412720 0.839928 -0.190532
419345260 0.82717 -0.190172
425277800 0.834189 -0.196625
431210340 0.837797 -0.199942
437142880 0.838965 -0.200109
443075420 0.831961 -0.200323
449007960 0.818297 -0.201407
454940500 0.823111 -0.205096
460873040 0.829131 -0.20942
466805580 0.830557 -0.209347
472738120 0.824833 -0.208373
478670660 0.812285 -0.207582
484603200 0.815493 -0.213183
490535740 0.822057 -0.214419
496468280 0.822246 -0.216951
502400820 0.816226 -0.216884
508333360 0.802913 -0.217187
514265900 0.807092 -0.219959
520198440 0.813991 -0.225727
526130980 0.814785 -0.226508
532063520 0.809222 -0.224514
537996060 0.796423 -0.225766
543928600 0.800628 -0.230277
549861140 0.809803 -0.235253
555793680 0.813292 -0.238985
561726220 0.81249 -0.239536
567658760 0.802422 -0.238297
573591300 0.802965 -0.241652
579523840 0.806624 -0.244849
585456380 0.806971 -0.246243
591388920 0.795444 -0.242989
597321460 0.783169 -0.243963
603254000 0.779813 -0.247675
609186540 0.788306 -0.251437
615119080 0.793449 -0.252481
621051620 0.787545 -0.252088
626984160 0.777769 -0.250396
632916700 0.774659 -0.252898
638849240 0.782209 -0.257202
644781780 0.787315 -0.261718
650714320 0.78187 -0.258769
656646860 0.770891 -0.255853
662579400 0.768091 -0.257338
668511940 0.777494 -0.261208
674444480 0.777605 -0.263757
680377020 0.778112 -0.259655
686309560 0.770534 -0.256328
692242100 0.763591 -0.256175
698174640 0.769076 -0.264
704107180 0.76382 -0.279222
710039720 0.757074 -0.280319
715972260 0.748292 -0.277794
721904800 0.738341 -0.281915
727837340 0.748349 -0.286766
733769880 0.75063 -0.28985
739702420 0.747815 -0.288644
745634960 0.740734 -0.286242
751567500 0.733342 -0.284703
757500040 0.738344 -0.290594
763432580 0.742181 -0.294164
769365120 0.736955 -0.293648
775297660 0.729836 -0.291001
781230200 0.721074 -0.288465
787162740 0.73047 -0.294218
793095280 0.741667 -0.285251
799027820 0.740747 -0.285204
804960360 0.730388 -0.286277
810892900 0.72298 -0.283051
816825440 0.731652 -0.288404
822757980 0.734233 -0.292211
828690520 0.734452 -0.288839
834623060 0.726317 -0.287947
840555600 0.708164 -0.29618
846488140 0.723095 -0.293219
852420680 0.719111 -0.308105
858353220 0.725377 -0.294066
864285760 0.711234 -0.30546
870218300 0.706486 -0.290543
876150840 0.706547 -0.310023
882083380 0.719834 -0.301577
888015920 0.714109 -0.312687
893948460 0.712978 -0.297596
899881000 0.693621 -0.306615
905813540 0.707464 -0.301955
911746080 0.703052 -0.320511
917678620 0.71044 -0.305249
923611160 0.696385 -0.319914
929543700 0.692875 -0.301246
935476240 0.690228 -0.32203
941408780 0.700998 -0.313471
947341320 0.696539 -0.324617
953273860 0.696724 -0.309323
959206400 0.678821 -0.315342
965138940 0.690415 -0.309033
971071480 0.683932 -0.329442
977004020 0.69214 -0.314871
982936560 0.678895 -0.327518
988869100 0.676524 -0.311798
994801640 0.679315 -0.323978
1000734180 0.68509 -0.321247
1006666720 0.67777 -0.334418
1012599260 0.681045 -0.317333
1018531800 0.670745 -0.31257
1024464340 0.672765 -0.319091
1030396880 0.679327 -0.31963
1036329420 0.678087 -0.316762
1042261960 0.672012 -0.318472
1048194500 0.66581 -0.312669
1054127040 0.666087 -0.317682
1060059580 0.67104 -0.321824
1065992120 0.670909 -0.322446
1071924660 0.667606 -0.319773
1077857200 0.659027 -0.316945
1083789740 0.660092 -0.318067
1089722280 0.665788 -0.321228
1095654820 0.664899 -0.323233
1101587360 0.663871 -0.319387
1107519900 0.654016 -0.319678
1113452440 0.653067 -0.321281
1119384980 0.656873 -0.325927
1125317520 0.656931 -0.328483
1131250060 0.653341 -0.325913
1137182600 0.642029 -0.323399
1143115140 0.64249 -0.326276
1149047680 0.653741 -0.327354
1154980220 0.654698 -0.327566
1160912760 0.653206 -0.327612
1166845300 0.643701 -0.322392
1172777840 0.640071 -0.31989
1178710380 0.644854 -0.330044
1184642920 0.648853 -0.327162
1190575460 0.642374 -0.329065
1196508000 0.632514 -0.326723
1202440540 0.626541 -0.327607
1208373080 0.633139 -0.333941
1214305620 0.636695 -0.333663
1220238160 0.633027 -0.334609
1226170700 0.6282 -0.324506
1232103240 0.620519 -0.327917
1238035780 0.627435 -0.334612
1243968320 0.629211 -0.334533
1249900860 0.629749 -0.331021
1255833400 0.620893 -0.325676
1261765940 0.616141 -0.321807
1267698480 0.62066 -0.329924
1273631020 0.620543 -0.335245
1279563560 0.619953 -0.33647
1285496100 0.681415 -0.312573
1291428640 0.604908 -0.330007
1297361180 0.611126 -0.334433
1303293720 0.613459 -0.335988
1309226260 0.612098 -0.33384
1315158800 0.605005 -0.333158
1321091340 0.598387 -0.327992
1327023880 0.603546 -0.333758
1332956420 0.605186 -0.337965
1338888960 0.602584 -0.343366
1344821500 0.599431 -0.337136
1350754040 0.593077 -0.336381
1356686580 0.595267 -0.341833
1362619120 0.596804 -0.344255
1368551660 0.594893 -0.343797
1374484200 0.587 -0.344132
1380416740 0.57815 -0.342959
1386349280 0.587049 -0.345576
1392281820 0.590568 -0.35067
1398214360 0.591186 -0.34441
1404146900 0.589355 -0.340392
1410079440 0.579491 -0.338645
1416011980 0.586325 -0.341388
1421944520 0.595481 -0.343939
1427877060 0.595155 -0.341756
1433809600 0.594043 -0.339659
1439742140 0.584689 -0.334526
1445674680 0.588181 -0.338977
1451607220 0.586875 -0.343409
1457539760 0.588817 -0.340114
1463472300 0.579264 -0.339735
1469404840 0.568153 -0.336085
1475337380 0.572767 -0.343921
1481269920 0.577801 -0.343652
1487202460 0.574112 -0.344672
1493135000 0.568384 -0.343708
1499067540 0.560745 -0.344586
1505000080 0.562638 -0.345391
1510932620 0.570711 -0.346493
1516865160 0.569905 -0.346822
1522797700 0.562169 -0.34682
1528730240 0.552883 -0.345042
1534662780 0.559513 -0.346185
1540595320 0.564775 -0.350304
1546527860 0.561531 -0.351755
1552460400 0.558993 -0.349261
1558392940 0.548756 -0.341134
1564325480 0.547365 -0.350049
1570258020 0.554299 -0.353611
1576190560 0.55352 -0.353124
1582123100 0.554618 -0.350146
1588055640 0.54294 -0.346467
1593988180 0.541522 -0.351255
1599920720 0.546462 -0.356022
1605853260 0.549801 -0.356305
1611785800 0.547572 -0.354147
1617718340 0.53703 -0.35466
1623650880 0.538298 -0.356353
1629583420 0.542493 -0.35754
1635515960 0.542665 -0.358734
1641448500 0.537878 -0.356572
1647381040 0.5312 -0.352066
1653313580 0.531886 -0.350926
1659246120 0.531033 -0.360078
1665178660 0.533695 -0.35798
1671111200 0.530493 -0.35666
1677043740 0.523356 -0.35446
1682976280 0.524617 -0.350552
1688908820 0.528792 -0.358496
1694841360 0.531577 -0.355676
1700773900 0.527648 -0.358478
1706706440 0.523002 -0.350822
1712638980 0.522337 -0.349669
1718571520 0.521887 -0.35791
1724504060 0.52477 -0.355796
1730436600 0.521902 -0.354887
1736369140 0.515471 -0.353802
1742301680 0.508456 -0.35783
1748234220 0.517866 -0.362737
1754166760 0.519131 -0.362655
1760099300 0.517285 -0.361819
1766031840 0.50999 -0.354562
1771964380 0.507068 -0.352982
1777896920 0.51071 -0.362526
1783829460 0.518904 -0.357847
1789762000 0.519479 -0.35604
1795694540 0.512337 -0.351135
1801627080 0.506323 -0.349312
1807559620 0.51537 -0.354413
1813492160 0.506718 -0.362771
1819424700 0.505739 -0.360845
1825357240 0.498851 -0.35953
1831289780 0.494014 -0.3564
1837222320 0.497607 -0.366118
1843154860 0.496833 -0.365677
1849087400 0.496544 -0.365662
1855019940 0.492186 -0.358941
1860952480 0.482528 -0.35793
1866885020 0.487942 -0.364598
1872817560 0.49026 -0.367286
1878750100 0.493621 -0.368511
1884682640 0.488374 -0.358879
1890615180 0.481938 -0.355117
1896547720 0.483133 -0.364143
1902480260 0.489405 -0.365114
1908412800 0.484143 -0.363781
1914345340 0.480706 -0.357775
1920277880 0.474734 -0.354023
1926210420 0.482595 -0.35903
1932142960 0.47937 -0.364041
1938075500 0.482014 -0.360902
1944008040 0.478439 -0.359591
1949940580 0.468876 -0.351604
1955873120 0.474055 -0.357809
1961805660 0.476186 -0.362568
1967738200 0.476628 -0.363669
1973670740 0.474101 -0.358538
1979603280 0.46641 -0.349759
1985535820 0.471283 -0.357676
1991468360 0.470531 -0.363703
1997400900 0.472265 -0.360113
2003333440 0.467792 -0.357151
2009265980 0.457134 -0.356608
2015198520 0.46328 -0.358477
2021131060 0.462848 -0.365811
2027063600 0.459156 -0.367563
2032996140 0.460395 -0.358915
2038928680 0.45154 -0.360622
2044861220 0.45214 -0.365067
2050793760 0.455957 -0.366121
2056726300 0.456595 -0.365745
2062658840 0.454239 -0.356622
2068591380 0.44424 -0.360513
2074523920 0.447593 -0.359473
2080456460 0.450656 -0.367599
2086389000 0.451702 -0.367518
2092321540 0.44928 -0.363042
2098254080 0.442734 -0.35801
2104186620 0.44209 -0.362037
2110119160 0.444923 -0.369765
2116051700 0.44722 -0.370691
2121984240 0.439959 -0.371462
2127916780 0.437167 -0.366245
2133849320 0.437399 -0.368484
2139781860 0.440637 -0.370859
2145714400 0.443894 -0.374945
2151646940 0.43819 -0.37743
2157579480 0.431662 -0.369597
2163512020 0.430683 -0.373723
2169444560 0.436308 -0.374039
2175377100 0.434834 -0.374166
2181309640 0.439321 -0.370447
2187242180 0.431669 -0.369722
2193174720 0.435703 -0.365297
2199107260 0.436129 -0.371931
2205039800 0.437114 -0.370045
2210972340 0.441348 -0.368926
2216904880 0.428127 -0.362333
2222837420 0.429781 -0.363188
2228769960 0.43496 -0.368243
2234702500 0.434203 -0.368064
2240635040 0.431589 -0.370466
2246567580 0.425524 -0.363093
2252500120 0.427866 -0.36084
2258432660 0.426616 -0.368086
2264365200 0.427372 -0.366115
2270297740 0.424328 -0.369131
2276230280 0.413938 -0.366863
2282162820 0.41807 -0.363219
2288095360 0.414826 -0.366512
2294027900 0.419908 -0.36261
2299960440 0.411701 -0.369205
2305892980 0.411868 -0.360007
2311825520 0.409053 -0.35976
2317758060 0.406686 -0.362354
2323690600 0.413276 -0.362297
2329623140 0.4089 -0.365897
2335555680 0.410422 -0.362488
2341488220 0.396951 -0.364594
2347420760 0.402736 -0.367337
2353353300 0.40013 -0.37146
2359285840 0.401437 -0.373297
2365218380 0.390867 -0.374833
2371150920 0.387038 -0.375319
2377083460 0.387044 -0.384086
2383016000 0.405516 -0.375708
2388948540 0.40604 -0.375536
2394881080 0.403655 -0.375503
2400813620 0.398761 -0.366249
2406746160 0.402684 -0.375581
2412678700 0.404499 -0.368905
2418611240 0.401091 -0.367031
2424543780 0.392183 -0.370992
2430476320 0.389339 -0.366676
2436408860 0.393776 -0.368123
2442341400 0.394666 -0.3688
2448273940 0.396871 -0.377535
2454206480 0.394464 -0.366553
2460139020 0.386132 -0.365617
2466071560 0.391325 -0.366661
2472004100 0.394494 -0.370814
2477936640 0.399312 -0.37741
2483869180 0.394969 -0.381335
2489801720 0.390903 -0.37166
2495734260 0.398781 -0.374382
2501666800 0.396291 -0.373785
2507599340 0.401369 -0.372384
2513531880 0.399126 -0.363844
2519464420 0.389361 -0.364004
2525396960 0.393383 -0.362717
2531329500 0.396863 -0.365671
2537262040 0.390193 -0.36975
2543194580 0.386695 -0.361791
2549127120 0.376597 -0.359649
2555059660 0.379817 -0.363674
2560992200 0.380644 -0.366442
2566924740 0.381637 -0.365098
2572857280 0.379173 -0.364127
2578789820 0.37578 -0.361714
2584722360 0.377283 -0.365685
2590654900 0.380309 -0.37028
2596587440 0.380323 -0.368939
2602519980 0.375802 -0.368112
2608452520 0.373694 -0.366819
2614385060 0.369808 -0.366348
2620317600 0.372874 -0.36965
2626250140 0.375821 -0.372702
2632182680 0.370435 -0.368494
2638115220 0.359793 -0.365812
2644047760 0.364433 -0.363546
2649980300 0.364038 -0.372201
2655912840 0.372369 -0.372535
2661845380 0.362696 -0.368748
2667777920 0.367199 -0.361488
2673710460 0.357931 -0.363014
2679643000 0.360505 -0.369321
2685575540 0.300396 -0.337026
2691508080 0.359889 -0.366045
2697440620 0.347431 -0.36515
2703373160 0.34647 -0.364242
2709305700 0.351789 -0.372416
2715238240 0.355128 -0.369739
2721170780 0.361657 -0.367072
2727103320 0.355786 -0.367231
2733035860 0.353056 -0.36205
2738968400 0.361633 -0.366409
2744900940 0.358342 -0.370795
2750833480 0.360329 -0.363526
2756766020 0.34999 -0.361805
2762698560 0.364164 -0.357026
2768631100 0.351984 -0.365104
2774563640 0.352502 -0.367149
2780496180 0.363025 -0.363861
2786428720 0.352376 -0.356887
2792361260 0.349792 -0.363562
2798293800 0.355384 -0.358002
2804226340 0.345766 -0.374773
2810158880 0.346315 -0.371264
2816091420 0.339085 -0.36533
2822023960 0.336797 -0.355585
2827956500 0.337764 -0.379886
2833889040 0.343576 -0.380505
2839821580 0.344304 -0.376194
2845754120 0.35166 -0.364829
2851686660 0.344656 -0.360882
2857619200 0.337983 -0.362404
2863551740 0.345894 -0.377657
2869484280 0.340093 -0.36608
2875416820 0.332332 -0.357181
2881349360 0.324343 -0.356978
2887281900 0.330004 -0.361269
2893214440 0.338059 -0.367398
2899146980 0.335853 -0.364749
2905079520 0.333572 -0.362219
2911012060 0.331882 -0.358431
2916944600 0.325558 -0.364509
2922877140 0.326009 -0.370671
2928809680 0.323569 -0.370065
2934742220 0.31491 -0.371654
2940674760 0.308493 -0.368814
2946607300 0.313263 -0.375655
2952539840 0.319693 -0.374346
2958472380 0.326087 -0.368675
2964404920 0.324377 -0.367232
2970337460 0.323377 -0.357765
2976270000 0.327551 -0.358872
2982202540 0.321026 -0.366581
2988135080 0.323009 -0.365962
2994067620 0.320481 -0.364115
3000000160 0.0 0.0
