# HZ S RI R 50
10000 1.152182 -0.0271
1495879 1.207802 2.103459
2981758 1.413387 0.921306
4467637 1.288095 0.627834
5953516 1.329574 0.538021
7439395 1.359092 0.566114
8925274 5.882066 11.841681
10411153 0.661665 8.080466
11897032 -0.525645 5.684076
13382911 -0.892068 4.367055
14868790 -1.039442 3.546038
16354669 -1.099923 2.992647
17840548 -1.126354 2.597825
19326427 -1.142829 2.300376
20812306 -1.150638 2.076264
22298185 -1.155839 1.891233
23784064 -1.163187 1.748723
25269943 -1.175762 1.62931
26755822 -1.183689 1.526821
28241701 -1.192612 1.443711
29727580 -1.202307 1.374944
31213459 -0.996202 1.21071
32699338 -0.784912 1.030605
34185217 -0.599416 0.8588
35671096 -0.449823 0.690293
37156975 -0.322754 0.524219
38642854 -0.208088 0.360932
40128733 -0.103455 0.194249
41614612 0.004341 0.023341
43100491 0.121549 -0.155911
44586370 0.267566 -0.342097
46072249 0.468774 -0.513499
47558128 0.738698 -0.63544
49044007 1.049873 -0.63186
50529886 1.30442 -0.472033
52015765 1.353327 -0.255649
53501644 1.314079 -0.099608
54987523 1.221712 -0.033448
56473402 1.126457 -0.051875
57959281 1.063334 -0.061245
59445160 1.013651 -0.066384
60931039 0.998307 -0.072113
62416918 1.002061 -0.081319
63902797 1.005187 -0.089776
65388676 1.007035 -0.100727
66874555 1.008384 -0.097797
68360434 1.001743 -0.182826
69846313 1.014364 -0.076164
71332192 1.016971 -0.071699
72818071 1.013168 -0.11734
74303950 1.015078 -0.108406
75789829 1.018527 -0.042197
77275708 1.018267 -0.049918
78761587 1.016789 -0.046516
80247466 1.006518 -0.163594
81733345 1.009171 -0.115805
83219224 1.006873 -0.126984
84705103 0.999656 -0.152771
86190982 1.007444 -0.028249
87676861 0.993819 -0.145414
89162740 0.992862 -0.121074
90648619 0.991521 -0.140458
92134498 0.993826 -0.139502
93620377 1.00022 -0.108758
95106256 1.000411 -0.135533
96592135 1.002932 -0.135205
98078014 1.002972 -0.13184
99563893 1.008279 -0.130574
101049772 1.007063 -0.145346
102535651 1.007085 -0.146468
104021530 1.007328 -0.148767
105507409 1.006439 -0.150961
106993288 1.004804 -0.15067
108479167 1.005412 -0.152217
109965046 1.004041 -0.154256
111450925 1.003458 -0.155192
112936804 1.000906 -0.158141
114422683 0.997731 -0.158272
115908562 0.99455 -0.159562
117394441 0.991497 -0.161377
118880320 0.988454 -0.162657
120366199 0.985426 -0.164351
121852078 0.990003 -0.166811
123337957 0.993717 -0.168967
124823836 0.997153 -0.172621
126309715 1.001034 -0.174903
127795594 1.003008 -0.176387
129281473 1.005543 -0.177998
130767352 1.007144 -0.180943
132253231 1.008085 -0.183035
133739110 1.010563 -0.184993
135224989 0.993814 -0.194718
136710868 0.992353 -0.196435
138196747 0.992376 -0.197078
139682626 0.991066 -0.198697
141168505 0.990296 -0.198945
142654384 0.989175 -0.20134
144140263 0.987699 -0.199985
145626142 0.984783 -0.202584
147112021 0.982005 -0.202433
148597900 0.978656 -0.202641
150083779 0.974981 -0.203447
151569658 0.978228 -0.207021
153055537 0.982381 -0.210554
154541416 0.983951 -0.212855
156027295 0.985952 -0.214404
157513174 0.987249 -0.217304
158999053 0.990265 -0.22034
160484932 0.990126 -0.222643
161970811 0.990474 -0.223243
163456690 0.9914 -0.223916
164942569 0.990188 -0.227408
166428448 0.990168 -0.228173
167914327 0.988799 -0.229396
169400206 0.987857 -0.229963
170886085 0.986017 -0.233086
172371964 0.984393 -0.233775
173857843 0.981521 -0.235825
175343722 0.977831 -0.23786
176829601 0.97314 -0.238832
178315480 0.97089 -0.240118
179801359 0.965899 -0.242078
181287238 0.968221 -0.245363
182773117 0.9723 -0.247745
184258996 0.973251 -0.248538
185744875 0.97649 -0.252674
187230754 0.978323 -0.253922
188716633 0.978276 -0.25649
190202512 0.981658 -0.257386
191688391 0.980972 -0.259496
193174270 0.980428 -0.260466
194660149 0.981225 -0.262659
196146028 0.979175 -0.265183
197631907 0.977352 -0.265199
199117786 0.976356 -0.266873
200603665 0.973859 -0.270023
202089544 0.971307 -0.271933
203575423 0.968117 -0.271993
205061302 0.964696 -0.274622
206547181 0.961612 -0.274976
208033060 0.957576 -0.277658
209518939 0.951875 -0.27953
211004818 0.953524 -0.281262
212490697 0.956436 -0.283543
213976576 0.95873 -0.287673
215462455 0.962809 -0.289465
216948334 0.966377 -0.291781
218434213 0.966657 -0.29436
219920092 0.966521 -0.296267
221405971 0.968365 -0.298472
222891850 0.971366 -0.29889
224377729 0.969334 -0.300208
225863608 0.968501 -0.301152
227349487 0.967993 -0.304152
228835366 0.965676 -0.305771
230321245 0.963387 -0.308181
231807124 0.959239 -0.308694
233293003 0.957971 -0.310969
234778882 0.954565 -0.310379
236264761 0.950348 -0.311787
237750640 0.945226 -0.314776
239236519 0.941526 -0.316336
240722398 0.940429 -0.319424
242208277 0.945455 -0.32144
243694156 0.94677 -0.324771
245180035 0.950286 -0.327201
246665914 0.95185 -0.328781
248151793 0.953128 -0.332458
249637672 0.954834 -0.334039
251123551 0.955511 -0.336872
252609430 0.956185 -0.337695
254095309 0.95611 -0.339767
255581188 0.957084 -0.339974
257067067 0.954221 -0.341493
258552946 0.952062 -0.343775
260038825 0.951646 -0.344799
261524704 0.947386 -0.34578
263010583 0.944794 -0.347102
264496462 0.939671 -0.348888
265982341 0.93807 -0.347867
267468220 0.932157 -0.34957
268954099 0.92673 -0.351188
270439978 0.923732 -0.355328
271925857 0.928766 -0.356932
273411736 0.931215 -0.359441
274897615 0.933323 -0.363999
276383494 0.936559 -0.367423
277869373 0.93886 -0.368965
279355252 0.937894 -0.371777
280841131 0.941141 -0.373017
282327010 0.942292 -0.37615
283812889 0.940365 -0.376921
285298768 0.941128 -0.377776
286784647 0.938103 -0.379529
288270526 0.938219 -0.379999
289756405 0.937834 -0.379987
291242284 0.932396 -0.383033
292728163 0.928643 -0.383842
294214042 0.925421 -0.383309
295699921 0.922289 -0.385131
297185800 0.916599 -0.38439
298671679 0.910529 -0.38644
300157558 0.904156 -0.388346
301643437 0.910175 -0.390499
303129316 0.913544 -0.395651
304615195 0.916101 -0.399488
306101074 0.917712 -0.402401
307586953 0.920495 -0.404891
309072832 0.921432 -0.407519
310558711 0.920904 -0.409449
312044590 0.9217 -0.412176
313530469 0.922088 -0.414219
315016348 0.920654 -0.41602
316502227 0.919474 -0.416772
317988106 0.9186 -0.418762
319473985 0.916851 -0.419099
320959864 0.914687 -0.417622
322445743 0.91044 -0.420394
323931622 0.907333 -0.42056
325417501 0.90333 -0.422179
326903380 0.898939 -0.420413
328389259 0.89388 -0.421281
329875138 0.887168 -0.422751
331361017 0.889859 -0.425895
332846896 0.892616 -0.431043
334332775 0.895593 -0.434624
335818654 0.895397 -0.435966
337304533 0.900137 -0.439042
338790412 0.900362 -0.44136
340276291 0.901703 -0.446202
341762170 0.903392 -0.447241
343248049 0.90258 -0.449222
344733928 0.902371 -0.451091
346219807 0.89996 -0.452046
347705686 0.898252 -0.452737
349191565 0.897859 -0.452836
350677444 0.895168 -0.454231
352163323 0.89142 -0.453642
353649202 0.889488 -0.453116
355135081 0.884257 -0.455099
356620960 0.881535 -0.452545
358106839 0.876003 -0.453483
359592718 0.869573 -0.453269
361078597 0.872244 -0.455872
362564476 0.872501 -0.461607
364050355 0.876795 -0.46407
365536234 0.876687 -0.468653
367022113 0.878383 -0.47123
368507992 0.880045 -0.474472
369993871 0.881706 -0.475753
371479750 0.881598 -0.479502
372965629 0.881866 -0.479712
374451508 0.880034 -0.482898
375937387 0.880401 -0.482823
377423266 0.879633 -0.484285
378909145 0.877279 -0.485284
380395024 0.875044 -0.486141
381880903 0.872674 -0.484728
383366782 0.86866 -0.486004
384852661 0.866907 -0.486349
386338540 0.861827 -0.483011
387824419 0.857606 -0.484365
389310298 0.852576 -0.48521
390796177 0.850929 -0.484878
392282056 0.854326 -0.490681
393767935 0.854702 -0.494103
395253814 0.857411 -0.49767
396739693 0.858544 -0.500381
398225572 0.860097 -0.503253
399711451 0.860919 -0.505368
401197330 0.861053 -0.506792
402683209 0.859084 -0.509306
404169088 0.858912 -0.511421
405654967 0.858638 -0.513108
407140846 0.856582 -0.51433
408626725 0.855721 -0.514953
410112604 0.853263 -0.514037
411598483 0.850736 -0.51411
413084362 0.848116 -0.515212
414570241 0.843622 -0.513521
416056120 0.840276 -0.515224
417541999 0.836634 -0.513665
419027878 0.831173 -0.514492
420513757 0.829916 -0.514419
421999636 0.829373 -0.519471
423485515 0.831457 -0.521784
424971394 0.835647 -0.525081
426457273 0.83389 -0.530097
427943152 0.835796 -0.531358
429429031 0.835203 -0.534318
430914910 0.838467 -0.536411
432400789 0.837422 -0.538422
433886668 0.836407 -0.53957
435372547 0.833752 -0.540401
436858426 0.835839 -0.542039
438344305 0.832694 -0.5427
439830184 0.830874 -0.540722
441316063 0.827584 -0.543537
442801942 0.827841 -0.539332
444287821 0.821409 -0.542925
445773700 0.818255 -0.542969
447259579 0.815525 -0.541033
448745458 0.810134 -0.540384
450231337 0.805951 -0.540833
451717216 0.809719 -0.543091
453203095 0.810456 -0.548901
454688974 0.809076 -0.551534
456174853 0.811446 -0.55678
457660732 0.814738 -0.55761
459146611 0.81298 -0.560991
460632490 0.814367 -0.564422
462118369 0.81329 -0.565468
463604248 0.813474 -0.56549
465090127 0.812879 -0.567569
466576006 0.811632 -0.568291
468061885 0.809392 -0.570297
469547764 0.806913 -0.569285
471033643 0.948185 -0.658562
472519522 0.800946 -0.570322
474005401 0.797923 -0.570371
475491280 0.79599 -0.571699
476977159 0.790635 -0.568347
478463038 0.786987 -0.570589
479948917 0.781565 -0.569811
481434796 0.783599 -0.573188
482920675 0.786978 -0.574756
484406554 0.787232 -0.578886
485892433 0.788353 -0.583148
487378312 0.789497 -0.585959
488864191 0.78952 -0.587094
490350070 0.788874 -0.590188
491835949 0.790239 -0.589822
493321828 0.788773 -0.592998
494807707 0.788446 -0.594014
496293586 0.786755 -0.595684
497779465 0.785883 -0.595594
499265344 0.783046 -0.596112
500751223 0.780029 -0.597973
502237102 0.777363 -0.595426
503722981 0.776022 -0.596053
505208860 0.770598 -0.596009
506694739 0.767623 -0.593075
508180618 0.764275 -0.592604
509666497 0.757861 -0.593175
511152376 0.758949 -0.595015
512638255 0.760591 -0.599061
514124134 0.761945 -0.602957
515610013 0.762894 -0.607404
517095892 0.764287 -0.609622
518581771 0.76586 -0.611206
520067650 0.766829 -0.613371
521553529 0.766971 -0.613928
523039408 0.765219 -0.616099
524525287 0.76447 -0.618699
526011166 0.763016 -0.618769
527497045 0.764473 -0.617844
528982924 0.760651 -0.618807
530468803 0.758215 -0.620081
531954682 0.755194 -0.619061
533440561 0.753285 -0.617906
534926440 0.749465 -0.61918
536412319 0.742912 -0.616654
537898198 0.740377 -0.615425
539384077 0.738337 -0.613753
540869956 0.735408 -0.617279
542355835 0.737248 -0.619057
543841714 0.739035 -0.624593
545327593 0.739112 -0.626758
546813472 0.740844 -0.628367
548299351 0.740468 -0.630877
549785230 0.740338 -0.631287
551271109 0.74068 -0.631454
552756988 0.738978 -0.633883
554242867 0.73961 -0.633334
555728746 0.740224 -0.634261
557214625 0.736158 -0.63219
558700504 0.735737 -0.632431
560186383 0.733219 -0.630825
561672262 0.731574 -0.631475
563158141 0.725669 -0.63042
564644020 0.721402 -0.628353
566129899 0.716852 -0.627321
567615778 0.712639 -0.625054
569101657 0.706725 -0.623953
570587536 0.704115 -0.625184
572073415 0.705892 -0.629363
573559294 0.708864 -0.634337
575045173 0.707046 -0.639683
576531052 0.709491 -0.642713
578016931 0.71067 -0.646189
579502810 0.709966 -0.648049
580988689 0.710668 -0.653128
582474568 0.709812 -0.655668
583960447 0.711399 -0.658186
585446326 0.707089 -0.65934
586932205 0.706529 -0.660112
588418084 0.704862 -0.662675
589903963 0.704561 -0.662112
591389842 0.70083 -0.663643
592875721 0.697679 -0.664475
594361600 0.69601 -0.663576
595847479 0.692307 -0.664094
597333358 0.688064 -0.663248
598819237 0.684221 -0.663244
600305116 0.679494 -0.66217
601790995 0.683036 -0.665849
603276874 0.683658 -0.670467
604762753 0.684321 -0.67331
606248632 0.684802 -0.67768
607734511 0.686884 -0.681018
609220390 0.687341 -0.683242
610706269 0.689131 -0.683375
612192148 0.687462 -0.686661
613678027 0.687604 -0.687157
615163906 0.686003 -0.690235
616649785 0.684323 -0.690521
618135664 0.6837 -0.687389
619621543 0.680161 -0.691542
621107422 0.678877 -0.689029
622593301 0.677345 -0.687729
624079180 0.673749 -0.68572
625565059 0.670186 -0.684731
627050938 0.666961 -0.683445
628536817 0.664039 -0.680406
630022696 0.659698 -0.679055
631508575 0.660532 -0.682285
632994454 0.663462 -0.688358
634480333 0.661272 -0.691023
635966212 0.662067 -0.694239
637452091 0.661688 -0.695133
638937970 0.661612 -0.700585
640423849 0.662984 -0.701709
641909728 0.664034 -0.703408
643395607 0.661731 -0.703308
644881486 0.661649 -0.703855
646367365 0.658476 -0.706054
647853244 0.658416 -0.705006
649339123 0.657651 -0.703641
650825002 0.656785 -0.702111
652310881 0.653156 -0.700935
653796760 0.648177 -0.701533
655282639 0.644567 -0.699165
656768518 0.639343 -0.698629
658254397 0.636847 -0.695492
659740276 0.634869 -0.691725
661226155 0.634443 -0.69686
662712034 0.634082 -0.700795
664197913 0.635671 -0.707134
665683792 0.636372 -0.709466
667169671 0.636413 -0.71231
668655550 0.638419 -0.716541
670141429 0.641568 -0.716951
671627308 0.640153 -0.719937
673113187 0.638032 -0.723781
674599066 0.638201 -0.722823
676084945 0.639436 -0.723641
677570824 0.638289 -0.724863
679056703 0.635119 -0.726314
680542582 0.637338 -0.724908
682028461 0.634383 -0.725047
683514340 0.633293 -0.723946
685000219 0.630288 -0.721252
686486098 0.627741 -0.718115
687971977 0.627913 -0.716932
689457856 0.623769 -0.717135
690943735 0.623028 -0.717689
692429614 0.6198 -0.722972
693915493 0.622231 -0.727229
695401372 0.621482 -0.728591
696887251 0.618093 -0.730683
698373130 0.619893 -0.731586
699859009 0.62024 -0.733774
701344888 0.617084 -0.736485
702830767 0.618284 -0.734611
704316646 0.617555 -0.738349
705802525 0.616247 -0.737747
707288404 0.614209 -0.738891
708774283 0.610572 -0.737495
710260162 0.607762 -0.735497
711746041 0.605317 -0.734298
713231920 0.600186 -0.736867
714717799 0.600419 -0.734734
716203678 0.59177 -0.732476
717689557 0.59034 -0.728994
719175436 0.585446 -0.728545
720661315 0.582543 -0.72869
722147194 0.582399 -0.732129
723633073 0.585056 -0.736042
725118952 0.58719 -0.73834
726604831 0.586435 -0.742159
728090710 0.58488 -0.745342
729576589 0.585146 -0.747648
731062468 0.58954 -0.746465
732548347 0.584404 -0.749578
734034226 0.5858 -0.750504
735520105 0.584869 -0.751663
737005984 0.58597 -0.748601
738491863 0.581832 -0.750698
739977742 0.580118 -0.750928
741463621 0.578904 -0.749341
742949500 0.576018 -0.747553
744435379 0.573901 -0.746374
745921258 0.571884 -0.745498
747407137 0.568051 -0.743057
748893016 0.565795 -0.740363
750378895 0.56282 -0.739951
751864774 0.562321 -0.744022
753350653 0.561144 -0.749151
754836532 0.564281 -0.75128
756322411 0.562161 -0.754449
757808290 0.562553 -0.756923
759294169 0.562516 -0.758751
760780048 0.56318 -0.760614
762265927 0.565089 -0.762074
763751806 0.562848 -0.76372
765237685 0.563049 -0.763919
766723564 0.562022 -0.762775
768209443 0.556347 -0.765748
769695322 0.555365 -0.763993
771181201 0.526487 -0.77151
772667080 0.551514 -0.762754
774152959 0.551297 -0.760914
775638838 0.547835 -0.760652
777124717 0.544522 -0.758979
778610596 0.538259 -0.757243
780096475 0.538898 -0.753034
781582354 0.536387 -0.758127
783068233 0.537921 -0.762136
784554112 0.540449 -0.765025
786039991 0.542018 -0.767521
787525870 0.539363 -0.771637
789011749 0.540823 -0.773161
790497628 0.540284 -0.774106
791983507 0.537763 -0.776531
793469386 0.539175 -0.777524
794955265 0.539938 -0.77711
796441144 0.538493 -0.778369
797927023 0.533068 -0.780204
799412902 0.533285 -0.77667
800898781 0.531229 -0.776047
802384660 0.529039 -0.775728
803870539 0.527813 -0.772658
805356418 0.524955 -0.769873
806842297 0.519235 -0.770369
808328176 0.516608 -0.76833
809814055 0.514041 -0.76458
811299934 0.51475 -0.768123
812785813 0.514406 -0.772389
814271692 0.516673 -0.773929
815757571 0.513141 -0.779985
817243450 0.515069 -0.780319
818729329 0.51845 -0.78046
820215208 0.514965 -0.783943
821701087 0.515071 -0.785731
823186966 0.512932 -0.786191
824672845 0.510706 -0.785175
826158724 0.511622 -0.786895
827644603 0.51113 -0.786058
829130482 0.509979 -0.785743
830616361 0.508406 -0.784501
832102240 0.503371 -0.782863
833588119 0.501026 -0.782448
835073998 0.499164 -0.778663
836559877 0.497666 -0.776355
838045756 0.494294 -0.772552
839531635 0.487326 -0.77189
841017514 0.486516 -0.774856
842503393 0.490129 -0.779729
843989272 0.488179 -0.784193
845475151 0.490033 -0.785391
846961030 0.486296 -0.790287
848446909 0.487777 -0.79312
849932788 0.490036 -0.796129
851418667 0.489244 -0.796705
852904546 0.487062 -0.797388
854390425 0.489702 -0.800779
855876304 0.486875 -0.799927
857362183 0.48759 -0.798836
858848062 0.48638 -0.79889
860333941 0.485339 -0.796818
861819820 0.483236 -0.797455
863305699 0.478054 -0.796972
864791578 0.477475 -0.792421
866277457 0.476299 -0.789408
867763336 0.472237 -0.788511
869249215 0.468081 -0.785887
870735094 0.466727 -0.786751
872220973 0.464816 -0.791277
873706852 0.46413 -0.795251
875192731 0.466956 -0.797824
876678610 0.465847 -0.800914
878164489 0.46834 -0.801926
879650368 0.465877 -0.806228
881136247 0.466843 -0.806451
882622126 0.464915 -0.807893
884108005 0.464784 -0.809306
885593884 0.46391 -0.809393
887079763 0.462191 -0.811025
888565642 0.462569 -0.80704
890051521 0.459882 -0.808777
891537400 0.460334 -0.80403
893023279 0.455529 -0.80605
894509158 0.452303 -0.804277
895995037 0.45141 -0.801083
897480916 0.450155 -0.797051
898966795 0.44614 -0.794715
900452674 0.440329 -0.795981
901938553 0.440938 -0.800536
903424432 0.439983 -0.802771
904910311 0.440114 -0.806705
906396190 0.443887 -0.806902
907882069 0.441131 -0.808996
909367948 0.438267 -0.813703
910853827 0.439159 -0.815394
912339706 0.439738 -0.815364
913825585 0.44028 -0.8142
915311464 0.434298 -0.817777
916797343 0.432661 -0.815889
918283222 0.432476 -0.815195
919769101 0.434882 -0.81616
921254980 0.429478 -0.814289
922740859 0.431167 -0.812059
924226738 0.427668 -0.810781
925712617 0.425207 -0.808958
927198496 0.422889 -0.804763
928684375 0.419166 -0.804312
930170254 0.419067 -0.801458
931656133 0.417405 -0.804497
933142012 0.417479 -0.808045
934627891 0.417682 -0.810247
936113770 0.418725 -0.814415
937599649 0.415931 -0.816483
939085528 0.414483 -0.819491
940571407 0.415203 -0.8197
942057286 0.415854 -0.82035
943543165 0.412827 -0.823732
945029044 0.412116 -0.823809
946514923 0.410946 -0.82365
948000802 0.412125 -0.823051
949486681 0.40791 -0.824691
950972560 0.407399 -0.821219
952458439 0.405394 -0.820406
953944318 0.404951 -0.819619
955430197 0.402036 -0.818998
956916076 0.40396 -0.815754
958401955 0.400282 -0.810796
959887834 0.396168 -0.809228
961373713 0.393939 -0.81379
962859592 0.396486 -0.816749
964345471 0.395727 -0.819421
965831350 0.393185 -0.822046
967317229 0.394289 -0.824998
968803108 0.391577 -0.825751
970288987 0.393541 -0.82765
971774866 0.389197 -0.830841
973260745 0.391158 -0.829499
974746624 0.387146 -0.832267
976232503 0.386779 -0.832418
977718382 0.389549 -0.83096
979204261 0.384356 -0.831224
980690140 0.3846 -0.830268
982176019 0.380347 -0.831086
983661898 0.379251 -0.829083
985147777 0.377092 -0.827504
986633656 0.379418 -0.822347
988119535 0.36991 -0.823551
989605414 0.371421 -0.820835
991091293 0.370703 -0.821203
992577172 0.369341 -0.825836
994063051 0.368317 -0.828854
995548930 0.367952 -0.830923
997034809 0.369367 -0.833538
998520688 0.37085 -0.833542
1000006567 0.368495 -0.83479
1001492446 0.366705 -0.836228
1002978325 0.367561 -0.835785
1004464204 0.36963 -0.835827
1005950083 0.366714 -0.836318
1007435962 0.369243 -0.831957
1008921841 0.3648 -0.833432
1010407720 0.365541 -0.831831
1011893599 0.361382 -0.831522
1013379478 0.363036 -0.827312
1014865357 0.359866 -0.827068
1016351236 0.356248 -0.825488
1017837115 0.35614 -0.82087
1019322994 0.353181 -0.817751
1020808873 0.351589 -0.819006
1022294752 0.351754 -0.822282
1023780631 0.353319 -0.824477
1025266510 0.350648 -0.828835
1026752389 0.35242 -0.831311
1028238268 0.351792 -0.833512
1029724147 0.350837 -0.834031
1031210026 0.349153 -0.8359
1032695905 0.35298 -0.835482
