# HZ S RI R 50
10000 1.097945 -0.076702
1495879 0.7226826666666667 1.4570266666666665
2981758 0.5773456666666666 0.6888103333333334
4467637 0.5806140000000001 0.32714933333333335
5953516 0.6505713333333333 0.13815966666666668
7439395 0.7430513333333334 0.012717000000000001
8925274 1.057221 -0.06259533333333334
10411153 1.0976033333333335 0.03620466666666666
11897032 1.0877439999999998 0.16823533333333332
13382911 1.0215263333333333 0.2934676666666667
14868790 0.9188186666666667 0.3826863333333333
16354669 0.8056406666666667 0.43118799999999996
17840548 0.7005436666666666 0.44693000000000005
19326427 0.6102966666666666 0.4405316666666667
20812306 0.535983 0.42262299999999997
22298185 0.476095 0.398576
23784064 0.42785399999999996 0.37262100000000004
25269943 0.38887999999999995 0.346613
26755822 0.3566536666666667 0.3211443333333333
28241701 0.330926 0.297577
29727580 0.3086163333333333 0.27479633333333336
31213459 0.31939066666666666 0.2604976666666667
32699338 0.33628199999999997 0.246309
34185217 0.35179166666666667 0.23286300000000001
35671096 0.3672896666666667 0.21730799999999997
37156975 0.382749 0.19881933333333332
38642854 0.396881 0.18238066666666666
40128733 0.41132366666666664 0.15960933333333335
41614612 0.42422699999999997 0.148398
43100491 0.43804233333333337 0.12645566666666666
44586370 0.45167033333333334 0.10856533333333333
46072249 0.4654776666666667 0.08537966666666667
47558128 0.4803556666666666 0.06905666666666667
49044007 0.49646233333333334 0.05253733333333333
50529886 0.516053 0.03848
52015765 0.5379486666666667 0.009793666666666668
53501644 0.567241 -0.007818333333333335
54987523 0.6055776666666667 -0.030929333333333333
56473402 0.659048 -0.067301
57959281 0.7477386666666668 -0.07934233333333333
59445160 0.9044926666666667 -0.05138466666666667
60931039 0.9969766666666667 -0.01663466666666667
62416918 1.0012546666666668 -0.024007666666666667
63902797 1.0048599999999999 -0.03332266666666667
65388676 1.0078163333333332 -0.04133233333333333
66874555 1.010337 -0.037129999999999996
68360434 1.0081993333333334 -0.12053733333333333
69846313 1.0142793333333333 -0.0133
71332192 1.015244 -0.007252000000000001
72818071 1.015545666666667 -0.049995333333333336
74303950 1.0172926666666668 -0.041121333333333336
75789829 1.0151216666666667 0.026854
77275708 1.0158336666666667 0.018601333333333334
78761587 1.014705 0.025312666666666667
80247466 1.0108003333333333 -0.090235
81733345 1.0120120000000001 -0.04155166666666666
83219224 1.0092933333333332 -0.05230633333333334
84705103 1.0054483333333333 -0.07715300000000001
86190982 1.0022853333333333 0.048752666666666666
87676861 0.9992213333333333 -0.06696133333333333
89162740 0.9960383333333334 -0.04177500000000001
90648619 0.9941873333333334 -0.059762
92134498 0.998279 -0.05725433333333333
93620377 1.00281 -0.024759
95106256 1.0040889999999998 -0.04962366666666667
96592135 1.0064766666666667 -0.04963
98078014 1.0091223333333332 -0.043455333333333325
99563893 1.0113269999999999 -0.039064999999999996
101049772 1.011709 -0.05241066666666666
102535651 1.011997 -0.05280933333333334
104021530 1.0123296666666668 -0.052199
105507409 1.0129896666666667 -0.054441333333333335
106993288 1.0108313333333332 -0.05321766666666666
108479167 1.0107206666666666 -0.054575000000000005
109965046 1.0093573333333332 -0.053232
111450925 1.007188 -0.05475
112936804 1.0042586666666666 -0.053593
114422683 1.002965 -0.05342066666666667
115908562 1.0004406666666668 -0.05347466666666667
117394441 0.9973886666666667 -0.05437433333333333
118880320 0.9931706666666668 -0.05392666666666667
120366199 0.9904406666666666 -0.054768000000000004
121852078 0.9952393333333333 -0.05577566666666667
123337957 0.9987253333333332 -0.056550333333333334
124823836 1.0028753333333333 -0.05775366666666667
126309715 1.0054573333333332 -0.058459333333333335
127795594 1.008269 -0.059215
129281473 1.0106203333333335 -0.059838333333333334
130767352 1.012901 -0.059891
132253231 1.014582 -0.059359666666666665
133739110 1.0160606666666665 -0.060465333333333336
135224989 1.0012983333333334 -0.07170866666666666
136710868 1.002016 -0.07114133333333333
138196747 1.001993 -0.07163766666666667
139682626 1.0014896666666666 -0.071043
141168505 0.999707 -0.07113200000000001
142654384 0.9984916666666667 -0.07067033333333334
144140263 0.9970353333333333 -0.07036666666666667
145626142 0.9940563333333333 -0.07012700000000001
147112021 0.9923643333333333 -0.069509
148597900 0.9886866666666667 -0.06965033333333333
150083779 0.9853936666666666 -0.068913
151569658 0.9891899999999999 -0.070706
153055537 0.9917376666666667 -0.07122633333333334
154541416 0.9946420000000001 -0.07206833333333335
156027295 0.9966166666666667 -0.07292966666666667
157513174 0.9988400000000001 -0.07253166666666666
158999053 1.0009880000000002 -0.07367366666666665
160484932 1.0012753333333333 -0.073826
161970811 1.002193 -0.074443
163456690 1.0027103333333331 -0.07452366666666667
164942569 1.002988 -0.07515666666666666
166428448 1.0021143333333333 -0.07576699999999999
167914327 1.0009803333333334 -0.075035
169400206 1.0004756666666668 -0.07592533333333333
170886085 0.949322 -0.06858733333333333
172371964 0.9978423333333334 -0.07019966666666666
173857843 0.994583 -0.076845
175343722 0.9908936666666666 -0.07767800000000001
176829601 0.9884376666666667 -0.07802733333333332
178315480 0.9845736666666668 -0.078874
179801359 0.981216 -0.07928600000000001
181287238 0.9838886666666666 -0.080676
182773117 0.9863843333333332 -0.08150733333333333
184258996 0.9895403333333334 -0.088248
185744875 0.992393 -0.08226699999999999
187230754 0.9945276666666666 -0.08332166666666667
188716633 0.9955306666666667 -0.08383233333333333
190202512 0.9971553333333333 -0.08305833333333333
191688391 0.9983069999999999 -0.08439466666666666
193174270 0.998624 -0.08421333333333335
194660149 0.9985123333333333 -0.08513966666666667
196146028 0.9982523333333333 -0.085478
197631907 0.9974053333333334 -0.08616266666666667
199117786 0.9959883333333334 -0.08603533333333334
200603665 0.9949763333333334 -0.08674799999999999
202089544 0.9925546666666666 -0.087698
203575423 0.9899433333333333 -0.087633
205061302 0.9869503333333333 -0.08871833333333334
206547181 0.9835889999999999 -0.08931566666666667
208033060 0.9798279999999999 -0.09028533333333333
209518939 0.9765923333333334 -0.09148233333333333
211004818 0.977399 -0.09272566666666666
212490697 0.9813546666666667 -0.09399766666666666
213976576 0.9846136666666667 -0.09438200000000001
215462455 0.9869986666666666 -0.09478866666666667
216948334 0.9893586666666666 -0.09513433333333333
218434213 0.9910166666666665 -0.09521433333333333
219920092 0.9932793333333333 -0.09562966666666667
221405971 0.9940916666666667 -0.095156
222891850 0.993885 -0.09660400000000001
224377729 1.0423220000000002 -0.077896
225863608 0.9941056666666667 -0.09603966666666668
227349487 0.9948093333333333 -0.097035
228835366 0.9915376666666665 -0.09694566666666667
230321245 0.9898723333333334 -0.09774899999999999
231807124 0.9867159999999999 -0.09891333333333334
233293003 0.985106 -0.099199
234778882 0.9819663333333333 -0.10041233333333333
236264761 0.9785696666666667 -0.10121233333333333
237750640 0.9751916666666666 -0.10109533333333333
239236519 0.9706753333333333 -0.10252133333333334
240722398 0.9704253333333334 -0.10389666666666668
242208277 0.9734036666666667 -0.10553233333333334
243694156 0.9776626666666667 -0.105937
245180035 0.9803069999999999 -0.10611333333333334
246665914 0.9835573333333333 -0.10689133333333334
248151793 0.9849306666666666 -0.10664466666666668
249637672 0.986783 -0.10728566666666667
251123551 0.9882909999999999 -0.107221
252609430 0.9890013333333334 -0.10803133333333333
254095309 0.9889380000000001 -0.10747066666666666
255581188 0.9883236666666667 -0.108328
257067067 0.988142 -0.10856833333333334
258552946 0.9866003333333334 -0.10915066666666666
260038825 0.9847450000000001 -0.108918
261524704 0.9823593333333333 -0.109306
263010583 0.9797283333333334 -0.10928233333333333
264496462 0.9763523333333334 -0.109778
265982341 0.9733683333333333 -0.111106
267468220 0.9685206666666667 -0.111582
268954099 0.9640019999999999 -0.11355
270439978 0.9615486666666667 -0.11393366666666667
271925857 0.9661949999999999 -0.11489966666666666
273411736 0.9702493333333334 -0.11661866666666666
274897615 0.972902 -0.11680799999999998
276383494 0.9761176666666668 -0.11809966666666666
277869373 0.9794326666666665 -0.11802466666666667
279355252 0.9814000000000002 -0.11910333333333334
280841131 0.9816736666666667 -0.11952533333333333
282327010 0.9831193333333333 -0.11924266666666668
283812889 0.983332 -0.119209
285298768 0.98283 -0.11966233333333333
286784647 0.9824229999999999 -0.11980466666666667
288270526 0.9810976666666668 -0.11996666666666667
289756405 0.9786806666666666 -0.11930099999999999
291242284 0.9766493333333334 -0.119937
292728163 0.9741339999999999 -0.120546
294214042 0.9710756666666667 -0.120076
295699921 0.9673410000000001 -0.120746
297185800 0.9630343333333333 -0.12148733333333334
298671679 0.9585693333333333 -0.12208766666666666
300157558 0.954272 -0.12257966666666666
301643437 0.9579766666666667 -0.125063
303129316 0.9629249999999999 -0.12622466666666668
304615195 0.9653543333333333 -0.12798966666666667
306101074 0.9692789999999999 -0.12806933333333334
307586953 0.9721866666666666 -0.12857733333333332
309072832 0.9731650000000002 -0.12957433333333332
310558711 0.9759093333333334 -0.12979066666666664
312044590 0.9761556666666666 -0.13041233333333332
313530469 0.9771516666666668 -0.12983466666666665
315016348 0.9764223333333334 -0.13057766666666668
316502227 0.9766123333333333 -0.1298
317988106 0.975448 -0.129962
319473985 0.974026 -0.12956066666666666
320959864 0.970847 -0.12979733333333332
322445743 0.9687966666666666 -0.12974266666666667
323931622 0.9662153333333334 -0.13025466666666669
325417501 0.9625463333333334 -0.129907
326903380 0.9582566666666666 -0.13025699999999998
328389259 0.9535643333333335 -0.12969733333333333
329875138 0.9487263333333332 -0.12987766666666667
331361017 0.9507883333333332 -0.13321133333333335
332846896 0.9549823333333333 -0.13394333333333333
334332775 0.958243 -0.135952
335818654 0.9600463333333332 -0.13705633333333334
337304533 0.9631416666666667 -0.13734033333333334
338790412 0.9651196666666667 -0.13828300000000002
340276291 0.9655566666666666 -0.13813299999999998
341762170 0.9676526666666666 -0.13929233333333332
343248049 0.9665659999999999 -0.14017900000000003
344733928 0.967934 -0.139224
346219807 0.9663786666666666 -0.14055666666666666
347705686 0.9658263333333333 -0.13977233333333333
349191565 0.9638823333333333 -0.13996699999999998
350677444 0.961321 -0.14003533333333332
352163323 0.9580556666666666 -0.140641
353649202 0.9544603333333334 -0.13854
355135081 0.952265 -0.14018533333333336
356620960 0.9478443333333333 -0.13926033333333335
358106839 0.942881 -0.14164466666666667
359592718 0.9375286666666667 -0.14150166666666666
361078597 0.9393273333333333 -0.14228466666666664
362564476 0.9420673333333333 -0.144365
364050355 0.9464933333333333 -0.14600933333333332
365536234 0.9489686666666666 -0.146907
367022113 0.9515533333333334 -0.14837366666666665
368507992 0.9533873333333333 -0.14863666666666667
369993871 0.9553563333333334 -0.14954733333333334
371479750 0.9562993333333334 -0.14904166666666666
372965629 0.9564053333333332 -0.15037933333333334
374451508 0.9565423333333333 -0.15073533333333333
375937387 0.9565083333333333 -0.15067566666666668
377423266 0.9562773333333334 -0.14992733333333333
378909145 0.9532806666666667 -0.14971533333333334
380395024 0.9528016666666667 -0.14941400000000002
381880903 0.9503933333333334 -0.149514
383366782 0.9479863333333335 -0.148545
384852661 0.9432846666666667 -0.14905933333333335
386338540 0.9404013333333333 -0.14849133333333334
387824419 0.9362163333333333 -0.14816266666666666
389310298 0.9314749999999999 -0.14731533333333333
390796177 0.9315726666666667 -0.14918566666666666
392282056 0.934526 -0.15073466666666666
393767935 0.9369550000000001 -0.152492
395253814 0.9404106666666666 -0.15395299999999998
396739693 0.9425560000000001 -0.15433566666666668
398225572 0.9444683333333334 -0.15617666666666666
399711451 0.945577 -0.15647933333333333
401197330 0.9477169999999999 -0.15744633333333333
402683209 0.947863 -0.15747033333333335
404169088 0.9481163333333334 -0.15619566666666665
405654967 0.9471336666666668 -0.15809166666666666
407140846 0.9464929999999999 -0.157195
408626725 0.9451146666666667 -0.15799833333333332
410112604 0.9420186666666667 -0.16244099999999997
411598483 0.9403303333333334 -0.16172033333333333
413084362 0.940281 -0.15054333333333333
414570241 0.9337493333333334 -0.161139
416056120 0.933498 -0.14926133333333336
417541999 0.9267966666666666 -0.15950266666666668
419027878 0.9248620000000001 -0.14855966666666667
420513757 0.9204629999999999 -0.15949
421999636 0.9259996666666667 -0.15104766666666666
423485515 0.9267913333333334 -0.163444
424971394 0.932395 -0.15379299999999999
426457273 0.930927 -0.16668833333333333
427943152 0.9369733333333333 -0.156329
429429031 0.9346653333333332 -0.16824133333333333
430914910 0.9391746666666667 -0.156795
432400789 0.9371356666666667 -0.1684216666666667
433886668 0.939625 -0.15723833333333334
435372547 0.9373073333333334 -0.16808466666666666
436858426 0.939034 -0.15752233333333335
438344305 0.9356933333333334 -0.16799799999999998
439830184 0.9364833333333333 -0.15778933333333334
441316063 0.9306996666666666 -0.16806766666666664
442801942 0.9327610000000001 -0.15656899999999999
444287821 0.9269506666666668 -0.16702966666666666
445773700 0.926052 -0.15575866666666668
447259579 0.9197783333333334 -0.16680733333333334
448745458 0.9184496666666666 -0.15447766666666665
450231337 0.9130856666666666 -0.16089633333333334
451717216 0.9170213333333335 -0.1630636666666667
453203095 0.919291 -0.16197533333333333
454688974 0.9220233333333333 -0.16474233333333332
456174853 0.9244166666666667 -0.1667443333333333
457660732 0.9268723333333333 -0.16566666666666666
459146611 0.9280559999999999 -0.16741133333333336
460632490 0.9282706666666667 -0.16863399999999998
462118369 0.928982 -0.168628
463604248 0.9295200000000001 -0.16807833333333333
465090127 0.9288866666666666 -0.16779133333333332
466576006 0.9287103333333334 -0.16826
468061885 0.9276473333333334 -0.16767433333333334
469547764 0.9266726666666667 -0.1674186666666667
471033643 0.9243606666666667 -0.16653733333333334
472519522 0.922073 -0.16586466666666666
474005401 0.9194896666666666 -0.166039
475491280 0.9150786666666666 -0.16530999999999998
476977159 0.9119963333333333 -0.16484533333333334
478463038 0.958403 -0.17924533333333334
479948917 0.90367 -0.163998
481434796 0.9070943333333333 -0.16627299999999998
482920675 0.910479 -0.16776666666666665
484406554 0.9137933333333333 -0.16782
485892433 0.9153203333333333 -0.16917166666666664
487378312 0.9170959999999999 -0.17060766666666669
488864191 0.9178146666666667 -0.17015566666666668
490350070 0.9200026666666666 -0.17012033333333335
491835949 0.9209456666666668 -0.17037666666666665
493321828 0.9205203333333333 -0.1713313333333333
494807707 0.9214413333333334 -0.17046833333333333
496293586 0.9212583333333333 -0.171368
497779465 0.9169693333333333 -0.17546399999999998
499265344 0.9192156666666667 -0.170146
500751223 0.9212520000000001 -0.16055933333333333
502237102 0.9146406666666667 -0.16908233333333333
503722981 0.9124636666666667 -0.16893766666666665
505208860 0.9076216666666665 -0.16818533333333333
506694739 0.9050923333333333 -0.16845966666666667
508180618 0.90178 -0.16956000000000002
509666497 0.897134 -0.16817666666666667
511152376 0.8989090000000001 -0.168864
512638255 0.9017936666666667 -0.17045833333333335
514124134 0.9055466666666666 -0.17184366666666664
515610013 0.9066256666666667 -0.172342
517095892 0.9088536666666668 -0.17374933333333334
518581771 0.9108836666666665 -0.17390333333333333
520067650 0.9123549999999999 -0.17304533333333336
521553529 0.9129396666666666 -0.1745556666666667
523039408 0.9157860000000001 -0.168503
524525287 0.9138016666666666 -0.173826
526011166 0.9122149999999999 -0.173817
527497045 0.9110866666666667 -0.17430533333333334
528982924 0.9114113333333332 -0.17267033333333334
530468803 0.9082243333333334 -0.1741626666666667
531954682 0.9073403333333333 -0.17248366666666667
533440561 0.9036656666666666 -0.1726633333333333
534926440 0.9010336666666667 -0.17241833333333334
536412319 0.897372 -0.17224033333333333
537898198 0.8933006666666667 -0.17129033333333332
539384077 0.8894836666666667 -0.170824
540869956 0.889862 -0.1733296666666667
542355835 0.8924643333333334 -0.17318100000000003
543841714 0.8927233333333334 -0.17288133333333333
545327593 0.8969243333333333 -0.17315533333333333
546813472 0.8983639999999999 -0.17351666666666668
548299351 0.8988056666666666 -0.173095
549785230 0.8997229999999999 -0.17332033333333333
551271109 0.9005473333333334 -0.1728896666666667
552756988 0.9005676666666668 -0.17132266666666665
554242867 0.9012553333333333 -0.17049366666666665
555728746 0.8994810000000001 -0.170022
557214625 0.8983686666666667 -0.16982700000000003
558700504 0.8961023333333333 -0.16935566666666668
560186383 0.8939913333333335 -0.16916933333333337
561672262 0.8903226666666666 -0.16776
563158141 0.885709 -0.16717366666666666
564644020 0.8837616666666666 -0.16632933333333333
566129899 0.879039 -0.16542466666666666
567615778 0.8749903333333333 -0.16688433333333333
569101657 0.8701146666666667 -0.16470666666666667
570587536 0.8678236666666667 -0.16591633333333333
572073415 0.871664 -0.16810766666666666
573559294 0.8745826666666666 -0.169481
575045173 0.8782293333333334 -0.171405
576531052 0.8807276666666667 -0.172914
578016931 0.8821563333333334 -0.17485900000000001
579502810 0.884376 -0.17551366666666665
580988689 0.8865996666666667 -0.17667833333333335
582474568 0.8864436666666666 -0.17744066666666666
583960447 0.88598 -0.17861400000000002
585446326 0.8872336666666666 -0.17934366666666665
586932205 0.8872293333333334 -0.179566
588418084 0.8863280000000001 -0.17976133333333333
589903963 0.8851456666666667 -0.17962566666666666
591389842 0.8834836666666668 -0.18084666666666668
592875721 0.8810159999999999 -0.1798223333333333
594361600 0.8785496666666667 -0.18044800000000003
595847479 0.8753343333333333 -0.18001866666666666
597333358 0.8729356666666668 -0.18122800000000003
598819237 0.868588 -0.18186533333333332
600305116 0.8660869999999999 -0.1830523333333333
601790995 0.8712750000000001 -0.183817
603276874 0.8747483333333332 -0.18588866666666667
604762753 0.8771793333333333 -0.1855433333333333
606248632 0.8801893333333334 -0.18741166666666667
607734511 0.8814056666666666 -0.189295
609220390 0.883861 -0.18941133333333335
610706269 0.8857806666666667 -0.18797366666666662
612192148 0.8862026666666667 -0.18953699999999998
613678027 0.8868586666666666 -0.18822033333333332
615163906 0.886841 -0.18964099999999998
616649785 0.8866346666666667 -0.18942099999999998
618135664 0.8860086666666668 -0.18760033333333334
619621543 0.8439776666666666 -0.17663333333333334
621107422 0.8826933333333334 -0.18536700000000003
622593301 0.8815026666666667 -0.18556466666666668
624079180 0.878318 -0.18434266666666665
625565059 0.8746636666666666 -0.183789
627050938 0.8707716666666667 -0.18331266666666665
628536817 0.8671186666666667 -0.1840996666666667
630022696 0.862402 -0.18147433333333332
631508575 0.867264 -0.18312866666666663
632994454 0.8698073333333333 -0.18598166666666668
634480333 0.8725446666666666 -0.187732
635966212 0.874549 -0.18747166666666668
637452091 0.877871 -0.18875233333333333
638937970 0.8799896666666666 -0.19021033333333334
640423849 0.8808406666666667 -0.19018733333333335
641909728 0.8822506666666667 -0.19081599999999999
643395607 0.8828756666666666 -0.18962866666666667
644881486 0.8824703333333334 -0.19026866666666667
646367365 0.8819313333333333 -0.18746233333333331
647853244 0.8814203333333334 -0.18914466666666666
649339123 0.880283 -0.18731733333333334
650825002 0.8789443333333332 -0.188298
