# HZ S RI R 50
10000 1.0073883333333333 -0.22277
1495879 1.0587446666666667 1.2881296666666666
2981758 0.5772293333333333 0.6890016666666666
4467637 0.5805543333333333 0.32711533333333337
5953516 0.6505503333333333 0.138179
7439395 0.7429873333333333 0.012895000000000002
8925274 1.056946 -0.06270300000000001
10411153 1.0979976666666666 0.035941
11897032 1.0881429999999999 0.16795033333333334
13382911 1.0219816666666668 0.29311133333333333
14868790 0.9197733333333332 0.383523
16354669 0.805954 0.43267533333333336
17840548 0.701193 0.44822499999999993
19326427 0.6107779999999999 0.44205099999999997
20812306 0.5442586666666666 0.4317553333333333
22298185 0.47562499999999996 0.400328
23784064 0.427545 0.3737296666666667
25269943 0.3883473333333333 0.3475683333333333
26755822 0.3565403333333334 0.3225383333333333
28241701 0.3303696666666667 0.298819
29727580 0.30858633333333335 0.27699433333333334
31213459 0.3185616666666667 0.261801
32699338 0.3353683333333333 0.24759733333333334
34185217 0.35104533333333326 0.234536
35671096 0.36682533333333334 0.2188846666666667
37156975 0.38217300000000004 0.20048999999999997
38642854 0.396806 0.18368566666666664
40128733 0.41149233333333335 0.161238
41614612 0.424061 0.14970733333333333
43100491 0.4378933333333333 0.128128
44586370 0.451301 0.11030466666666666
46072249 0.4656166666666666 0.08756233333333334
47558128 0.4804116666666667 0.071007
49044007 0.49665333333333334 0.05463866666666667
50529886 0.5160436666666667 0.04091066666666667
52015765 0.5378989999999999 0.012423000000000002
53501644 0.566841 -0.004847
54987523 0.6055583333333333 -0.028021666666666667
56473402 0.6588593333333334 -0.06350366666666667
57959281 0.7469956666666667 -0.07469466666666667
59445160 0.9043046666666666 -0.045823
60931039 0.995873 -0.009259000000000002
62416918 1.0008816666666667 -0.017415
63902797 1.0037526666666665 -0.025691333333333333
65388676 1.0068653333333335 -0.03338133333333333
66874555 1.008491 -0.029409666666666667
68360434 1.0073756666666667 -0.11156133333333333
69846313 1.0124676666666665 -0.004426333333333333
71332192 1.0138936666666665 0.001309
72818071 1.0135623333333335 -0.041623
74303950 1.0144126666666666 -0.037616666666666666
75789829 1.013261 0.036506666666666666
77275708 1.013554 0.028068
78761587 1.0122246666666668 0.035197
80247466 1.0101950000000002 -0.08086533333333334
81733345 1.0111313333333334 -0.032288333333333336
83219224 1.0077783333333332 -0.041778333333333334
84705103 1.004565666666667 -0.066058
86190982 0.9996499999999999 0.057792
87676861 0.9976453333333334 -0.056538
89162740 0.9938146666666667 -0.030971333333333333
90648619 0.992446 -0.047785
92134498 0.9961313333333334 -0.04474166666666666
93620377 0.9999606666666666 -0.012579666666666668
95106256 1.001693333333333 -0.03829
96592135 1.0043943333333332 -0.037555
98078014 1.006886 -0.031202333333333332
99563893 1.0081926666666667 -0.027258
101049772 1.009796 -0.039879
102535651 1.0094813333333332 -0.03961333333333333
104021530 1.0094283333333334 -0.04069833333333333
105507409 1.0098846666666665 -0.039778
106993288 1.009477 -0.03945133333333333
108479167 1.0090426666666668 -0.039495
109965046 1.0067846666666667 -0.03982466666666667
111450925 1.0048436666666667 -0.039459
112936804 1.0022783333333334 -0.039595
114422683 0.9998153333333333 -0.039788333333333335
115908562 0.9976636666666666 -0.03913
117394441 0.9939876666666666 -0.038648999999999996
118880320 0.990077 -0.038446666666666664
120366199 0.9870606666666667 -0.03900733333333333
121852078 0.9917933333333333 -0.03999166666666667
123337957 0.9952743333333333 -0.04044866666666667
124823836 0.9982466666666667 -0.041544
126309715 1.001627 -0.04166566666666666
127795594 1.004959666666667 -0.042195333333333335
129281473 1.0075043333333333 -0.042186999999999995
130767352 1.0084203333333335 -0.04239199999999999
132253231 1.0103063333333333 -0.041483
133739110 1.0133463333333335 -0.041881333333333326
135224989 0.9991066666666667 -0.053524333333333333
136710868 0.9989873333333333 -0.052885999999999996
138196747 0.9986966666666667 -0.052707333333333335
139682626 0.9976816666666667 -0.05160599999999999
141168505 0.996978 -0.052045
142654384 0.9957146666666666 -0.05035533333333333
144140263 0.9937836666666667 -0.05075166666666667
145626142 0.9907386666666667 -0.04945733333333333
147112021 0.9883766666666666 -0.04854
148597900 0.9848453333333334 -0.048125
150083779 0.981669 -0.048872
151569658 0.9852716666666668 -0.048570333333333326
153055537 0.9887306666666666 -0.050384333333333337
154541416 0.9907850000000001 -0.05016466666666666
156027295 0.99336 -0.05078133333333334
157513174 0.9941863333333334 -0.05049133333333333
158999053 0.9969596666666667 -0.05157
160484932 0.9985379999999999 -0.051328000000000006
161970811 0.9987533333333333 -0.05114066666666667
163456690 0.9994853333333333 -0.05184
164942569 0.9994436666666666 -0.05131533333333333
166428448 0.9990960000000001 -0.05110633333333334
167914327 0.997108 -0.05084366666666667
169400206 0.9976763333333333 -0.050328000000000005
170886085 0.9952200000000001 -0.050940000000000006
172371964 0.9925453333333333 -0.050903
173857843 0.9893489999999999 -0.057210000000000004
175343722 0.9820023333333333 -0.06998766666666667
176829601 0.9839926666666668 -0.057561
178315480 0.9808376666666666 -0.05872566666666667
179801359 0.9765443333333333 -0.059911
181287238 0.9780190000000001 -0.05972433333333333
182773117 0.98141 -0.06044666666666667
184258996 0.9846926666666667 -0.06028566666666666
185744875 0.9869806666666667 -0.060855
187230754 0.989062 -0.060799
188716633 0.9907016666666667 -0.061907333333333335
190202512 0.9917823333333334 -0.06073200000000001
191688391 0.9928986666666666 -0.06163099999999999
193174270 0.9930913333333334 -0.061463333333333335
194660149 0.9936186666666668 -0.06159333333333333
196146028 0.9931199999999999 -0.06124300000000001
197631907 0.9935566666666666 -0.05445366666666667
199117786 0.992663 -0.05506133333333333
200603665 0.9906013333333333 -0.055688999999999995
202089544 0.9885746666666666 -0.05541733333333334
203575423 0.9828376666666667 -0.068685
205061302 0.9838703333333333 -0.050146
206547181 0.9786486666666666 -0.062515
208033060 0.9780816666666667 -0.05233933333333333
209518939 0.9712459999999999 -0.06440266666666666
211004818 0.9747136666666666 -0.05244533333333334
212490697 0.9759956666666666 -0.06624999999999999
213976576 0.9812439999999999 -0.053113
215462455 0.982217 -0.065794
216948334 0.986851 -0.05385633333333334
218434213 0.986799 -0.06630333333333334
219920092 0.9900653333333334 -0.05314866666666667
221405971 0.9883693333333333 -0.065963
222891850 0.9917950000000001 -0.05396833333333333
224377729 0.9966063333333334 -0.049571333333333335
225863608 0.9914516666666667 -0.05408733333333334
227349487 0.9876073333333334 -0.066312
228835366 0.9896350000000002 -0.053956000000000004
230321245 0.9852543333333333 -0.06598866666666667
231807124 0.9854059999999999 -0.05341933333333334
233293003 0.9812136666666667 -0.06640833333333333
234778882 0.9807503333333333 -0.05422733333333333
236264761 0.9738939999999999 -0.06821266666666666
237750640 0.9727410000000001 -0.05619066666666667
239236519 0.9658236666666666 -0.06961966666666666
240722398 0.9684573333333333 -0.057896
242208277 0.9696306666666666 -0.07036666666666667
243694156 0.9760019999999999 -0.05893666666666666
245180035 0.9763043333333333 -0.07076766666666666
246665914 0.9811526666666667 -0.05953866666666666
248151793 0.983171 -0.065336
249637672 0.9843866666666666 -0.064749
251123551 0.9857766666666666 -0.064556
252609430 0.986199 -0.06453199999999999
254095309 0.9862893333333335 -0.06492099999999999
255581188 0.9862129999999999 -0.06432966666666667
257067067 0.9852626666666667 -0.06386433333333334
258552946 0.9839289999999999 -0.06496133333333333
260038825 0.9824006666666666 -0.064269
261524704 0.9801096666666668 -0.06466266666666666
263010583 0.9771169999999999 -0.06429133333333333
264496462 0.974479 -0.06459733333333334
265982341 0.9705149999999999 -0.06578033333333333
267468220 0.9673373333333334 -0.06605866666666667
268954099 0.962646 -0.06656866666666666
270439978 0.9600763333333333 -0.06817266666666666
271925857 0.9648446666666667 -0.06896466666666666
273411736 0.9686896666666667 -0.06871866666666666
274897615 0.9722463333333334 -0.06935033333333333
276383494 0.9754646666666668 -0.06952966666666666
277869373 0.9781783333333333 -0.07042866666666668
279355252 0.9805056666666667 -0.06963033333333334
280841131 0.9809206666666667 -0.069799
282327010 0.9827296666666667 -0.06837233333333334
283812889 0.9826566666666666 -0.06855266666666666
285298768 0.9827833333333333 -0.068737
286784647 0.9818993333333333 -0.06876766666666667
288270526 0.980984 -0.06775833333333332
289756405 0.9796889999999999 -0.068604
291242284 0.9771583333333335 -0.06800066666666667
292728163 0.974094 -0.06777466666666666
294214042 0.970829 -0.06934833333333333
295699921 0.9668756666666667 -0.06858966666666667
297185800 0.9634433333333332 -0.068415
298671679 0.9584826666666667 -0.06974333333333334
300157558 0.9549593333333334 -0.06977833333333333
301643437 0.9593266666666667 -0.07121966666666667
303129316 0.9637509999999999 -0.071428
304615195 0.9670776666666668 -0.072021
306101074 0.9705456666666666 -0.07232000000000001
307586953 0.9732683333333333 -0.07281366666666667
309072832 0.9749206666666668 -0.07300233333333334
310558711 0.9772526666666668 -0.07287033333333333
312044590 0.9788583333333333 -0.07241266666666667
313530469 0.9795276666666667 -0.07205033333333334
315016348 0.9789276666666668 -0.07120966666666667
316502227 0.9787276666666668 -0.07062566666666666
317988106 0.9777593333333333 -0.07234366666666668
319473985 0.9752413333333333 -0.07042999999999999
320959864 0.9987703333333333 -0.04721500000000001
322445743 0.9717383333333333 -0.07111733333333332
323931622 0.9689326666666668 -0.07000433333333334
325417501 0.9643320000000001 -0.07079133333333333
326903380 0.9610996666666667 -0.070651
328389259 0.956035 -0.07059533333333334
329875138 0.9508996666666666 -0.071656
331361017 0.955197 -0.07148666666666666
332846896 0.9589080000000001 -0.07329766666666666
334332775 0.9618923333333332 -0.07390833333333334
335818654 0.965259 -0.075185
337304533 0.9678733333333334 -0.07565766666666666
338790412 0.9698853333333334 -0.075809
340276291 0.9710000000000001 -0.076275
341762170 0.972644 -0.07573433333333333
343248049 0.9730136666666667 -0.07478966666666666
344733928 0.974457 -0.074909
346219807 0.9724596666666668 -0.07530266666666667
347705686 0.970976 -0.07566333333333335
349191565 0.9690460000000001 -0.07579166666666666
350677444 0.967243 -0.07548533333333333
352163323 0.9651746666666666 -0.07568333333333332
353649202 0.9599353333333335 -0.07909766666666666
355135081 0.9586566666666667 -0.075118
356620960 0.953888 -0.074598
358106839 0.9500293333333333 -0.07499
359592718 0.9442613333333334 -0.07651266666666667
361078597 0.9460616666666667 -0.07652933333333334
362564476 0.9497526666666666 -0.07846299999999999
364050355 0.9533320000000001 -0.079549
365536234 0.9572526666666666 -0.08009466666666666
367022113 0.9598810000000001 -0.07955
368507992 0.9624863333333334 -0.08023233333333334
369993871 0.96394 -0.08177466666666666
371479750 0.9650759999999999 -0.08140833333333335
372965629 0.966881 -0.08112466666666666
374451508 0.966126 -0.081451
375937387 0.9661763333333333 -0.07922833333333333
377423266 0.9656453333333334 -0.08014066666666665
378909145 0.9648753333333332 -0.08078600000000001
380395024 0.9631863333333334 -0.07802366666666667
381880903 0.9609213333333333 -0.078243
383366782 0.9583613333333334 -0.07830066666666667
384852661 0.9548493333333333 -0.07800033333333334
386338540 0.9513593333333334 -0.07712000000000001
387824419 0.9465513333333333 -0.07742866666666666
389310298 0.9418443333333334 -0.07674333333333333
390796177 0.9424723333333334 -0.07809866666666666
392282056 0.946057 -0.079843
393767935 0.9491543333333334 -0.07957933333333334
395253814 0.951812 -0.08190266666666667
396739693 0.9553153333333334 -0.08192833333333333
398225572 0.957378 -0.08218133333333333
399711451 0.9588653333333333 -0.082151
401197330 0.9599416666666668 -0.08155233333333334
402683209 0.9606643333333333 -0.082482
404169088 0.9614426666666667 -0.08294766666666668
405654967 0.962584 -0.08166766666666667
407140846 0.9607033333333334 -0.08106133333333333
408626725 0.9595856666666668 -0.08034633333333334
410112604 0.9576996666666666 -0.08127433333333334
411598483 0.9567293333333332 -0.07920533333333334
413084362 0.9537746666666665 -0.078932
414570241 0.950774 -0.07905566666666666
416056120 0.9474443333333333 -0.07845
417541999 0.9433456666666666 -0.07859733333333334
419027878 0.9385963333333334 -0.07690566666666666
420513757 0.9373503333333333 -0.077643
421999636 0.9412570000000001 -0.07872933333333333
423485515 0.9444536666666666 -0.08039
424971394 0.9475466666666668 -0.08181166666666667
426457273 0.949789 -0.082725
427943152 0.95289 -0.08264700000000001
429429031 0.9543313333333333 -0.08282666666666667
430914910 0.9551286666666666 -0.08325500000000001
432400789 0.956335 -0.08356966666666665
433886668 0.9572293333333333 -0.08353666666666666
435372547 0.9566253333333333 -0.082315
436858426 0.9556273333333333 -0.08248866666666667
438344305 0.9557616666666666 -0.082127
439830184 0.9532746666666666 -0.08246933333333333
441316063 0.9528953333333333 -0.08008366666666666
442801942 0.950288 -0.08061866666666667
444287821 0.9467033333333333 -0.080784
445773700 0.944244 -0.08072066666666666
447259579 0.9407209999999999 -0.08024666666666667
448745458 0.93676 -0.07997933333333333
450231337 0.933134 -0.07810733333333335
451717216 0.9367929999999999 -0.07968533333333333
453203095 0.9411166666666667 -0.07979466666666667
454688974 0.9444089999999999 -0.08029766666666667
456174853 0.9468283333333334 -0.08223066666666667
457660732 0.9489506666666667 -0.08267933333333334
459146611 0.949501 -0.08298533333333333
460632490 0.9521786666666666 -0.08285866666666666
462118369 0.952905 -0.08293533333333333
463604248 0.9535649999999999 -0.08215666666666667
465090127 0.9525313333333333 -0.08328400000000001
466576006 0.9522976666666666 -0.08181266666666666
468061885 0.9511626666666667 -0.081531
469547764 0.9510379999999999 -0.08025333333333333
471033643 0.948298 -0.08052733333333333
472519522 0.9463396666666668 -0.08030866666666668
474005401 0.9426663333333334 -0.08073899999999999
475491280 0.940584 -0.07892533333333333
476977159 0.9368553333333334 -0.07964733333333333
478463038 0.9333796666666667 -0.07986933333333333
479948917 0.9290470000000001 -0.07860866666666667
481434796 0.9338613333333333 -0.074183
482920675 0.9362783333333334 -0.08115633333333334
484406554 0.9389676666666666 -0.08072166666666668
485892433 0.941464 -0.08154433333333333
487378312 0.9433453333333333 -0.08356000000000001
488864191 0.946056 -0.08200233333333333
490350070 0.9477693333333334 -0.08151533333333334
491835949 0.9488036666666667 -0.08224666666666668
493321828 0.9485809999999999 -0.08273133333333334
494807707 0.9497833333333333 -0.081965
496293586 0.9498703333333335 -0.08185333333333333
497779465 0.9491736666666667 -0.08206799999999999
499265344 0.9461213333333333 -0.08699433333333334
500751223 0.945107 -0.08065466666666667
502237102 0.9433549999999999 -0.08041100000000001
503722981 0.9407793333333334 -0.07916733333333333
505208860 0.9381013333333333 -0.07971666666666667
506694739 0.935333 -0.08072333333333333
508180618 0.9309836666666667 -0.07996766666666667
509666497 0.9278553333333334 -0.07920400000000001
511152376 0.9289563333333334 -0.08028366666666666
512638255 0.9323723333333334 -0.080899
514124134 0.935521 -0.08069766666666667
515610013 0.9390879999999999 -0.08187866666666667
517095892 0.9410473333333332 -0.08178799999999999
518581771 0.9425926666666666 -0.08256000000000001
520067650 0.9439783333333334 -0.08140866666666667
521553529 0.944967 -0.08258866666666667
523039408 0.9453276666666666 -0.082274
524525287 0.9476806666666667 -0.081579
526011166 0.9451473333333333 -0.082664
527497045 0.9443933333333333 -0.08188233333333333
528982924 0.9445796666666665 -0.08182366666666667
530468803 0.9424803333333333 -0.08073866666666667
531954682 0.9407739999999999 -0.08091233333333334
533440561 0.9384033333333334 -0.08044166666666668
534926440 0.9345176666666667 -0.08025566666666666
536412319 0.9318093333333333 -0.080686
537898198 0.9285953333333333 -0.07836533333333333
539384077 0.923289 -0.08056199999999998
540869956 0.9233113333333334 -0.080027
542355835 0.926756 -0.080761
543841714 0.92972 -0.080241
545327593 0.9335976666666667 -0.08003
546813472 0.9340493333333333 -0.07873233333333333
548299351 0.9365586666666667 -0.080261
549785230 0.9369966666666666 -0.08086800000000001
551271109 0.9373066666666666 -0.07899933333333334
552756988 0.937077 -0.07825733333333335
554242867 0.9368746666666666 -0.077483
555728746 0.9354063333333333 -0.07659166666666667
557214625 0.9347983333333333 -0.07652099999999999
558700504 0.9321926666666668 -0.07476833333333334
560186383 0.9303623333333334 -0.07351266666666667
561672262 0.927953 -0.07478733333333333
563158141 0.9240456666666667 -0.07447833333333333
564644020 0.9204426666666666 -0.07267133333333332
566129899 0.9172093333333334 -0.07289966666666667
567615778 0.9127923333333333 -0.07302866666666667
569101657 0.9075503333333333 -0.07402966666666667
570587536 0.9068313333333333 -0.07325133333333333
572073415 0.909265 -0.075413
573559294 0.9144 -0.07597866666666667
575045173 0.9175196666666667 -0.078518
576531052 0.9200606666666666 -0.07940366666666666
578016931 0.923434 -0.07906733333333334
579502810 0.925415 -0.08100366666666668
580988689 0.928369 -0.08086266666666667
582474568 0.9286146666666667 -0.08184766666666667
583960447 0.9291973333333333 -0.08169733333333333
585446326 0.930157 -0.082409
586932205 0.9305573333333333 -0.08341066666666667
588418084 0.9289656666666667 -0.08416666666666667
589903963 0.9284530000000001 -0.08392633333333333
591389842 0.9275806666666667 -0.083357
592875721 0.924961 -0.08456399999999999
594361600 0.9233756666666667 -0.08428066666666667
595847479 0.9213119999999999 -0.08302166666666666
597333358 0.9180863333333332 -0.08513466666666665
598819237 0.9139906666666667 -0.085453
600305116 0.9128056666666667 -0.08544166666666668
601790995 0.9156663333333334 -0.086599
603276874 0.9212973333333334 -0.08729366666666666
604762753 0.9248216666666668 -0.08640866666666668
606248632 0.9273570000000001 -0.089185
607734511 0.9302096666666667 -0.089256
609220390 0.9329086666666667 -0.08727800000000001
610706269 0.935177 -0.08904000000000001
612192148 0.9358286666666666 -0.08817666666666667
613678027 0.9360193333333333 -0.087731
615163906 0.9380273333333333 -0.08866666666666667
616649785 0.9370786666666667 -0.08803
618135664 0.937434 -0.08573700000000001
619621543 0.9351250000000001 -0.085677
621107422 0.9335943333333333 -0.08616633333333333
622593301 0.931474 -0.08414366666666667
624079180 0.9295073333333334 -0.08378600000000001
625565059 0.9259343333333333 -0.08439200000000001
627050938 0.922308 -0.082713
628536817 0.918571 -0.08129466666666667
630022696 0.9136246666666666 -0.08236733333333333
631508575 0.961178 -0.092084
632994454 0.921294 -0.08477933333333333
634480333 0.924721 -0.08729966666666666
635966212 0.928633 -0.08551366666666667
637452091 0.931277 -0.08811766666666666
638937970 0.9328900000000001 -0.08764733333333334
640423849 0.9361476666666667 -0.08825766666666668
641909728 0.9362676666666667 -0.08678400000000001
643395607 0.9373456666666665 -0.08792033333333334
644881486 0.9384413333333333 -0.08761133333333333
646367365 0.9386866666666668 -0.08649766666666665
647853244 0.9360546666666666 -0.08576800000000001
649339123 0.9365686666666667 -0.08465233333333333
650825002 0.9343640000000001 -0.08466566666666668
652310881 0.93228 -0.08462733333333333
653796760 0.9299836666666668 -0.08455800000000001
655282639 0.9262673333333334 -0.082546
656768518 0.9227663333333332 -0.08216733333333333
658254397 0.9176513333333333 -0.08245033333333333
659740276 0.913589 -0.080741
