# HZ S RI R 50
10000 1.0449633333333332 -0.068496
1495879 1.1166266666666667 0.9774843333333333
2981758 0.5771046666666667 0.6885493333333333
4467637 0.580453 0.32711533333333337
5953516 0.650413 0.13816799999999999
7439395 0.7428646666666667 0.013012333333333334
8925274 1.0570373333333334 -0.06287166666666666
10411153 1.0980059999999998 0.035552
11897032 1.0885763333333334 0.167871
13382911 1.0226046666666666 0.293928
14868790 0.920475 0.384152
16354669 0.807452 0.43348000000000003
17840548 0.7013606666666666 0.44965733333333335
19326427 0.6106136666666667 0.44356066666666666
20812306 0.5365576666666667 0.4257976666666667
22298185 0.4762026666666666 0.40201033333333336
23784064 0.427611 0.37591966666666665
25269943 0.38823199999999997 0.3491976666666667
26755822 0.3564046666666667 0.324016
28241701 0.33005866666666667 0.30066433333333337
29727580 0.30799 0.278505
31213459 0.31836133333333333 0.263671
32699338 0.33542099999999997 0.24921533333333332
34185217 0.3508366666666667 0.23618533333333333
35671096 0.3665146666666666 0.2206786666666667
37156975 0.3821623333333333 0.20214599999999996
38642854 0.39656766666666665 0.18565566666666666
40128733 0.4111393333333333 0.16330966666666666
41614612 0.42438899999999996 0.151898
43100491 0.438012 0.1305336666666667
44586370 0.45211099999999993 0.112371
46072249 0.46574866666666664 0.08963166666666667
47558128 0.48106933333333335 0.07353933333333333
49044007 0.4977133333333334 0.05699233333333333
50529886 0.5168743333333333 0.043650999999999995
52015765 0.539213 0.015112
53501644 0.568038 -0.00179
54987523 0.607105 -0.024603333333333335
56473402 0.6613386666666666 -0.06006566666666666
57959281 0.7494993333333334 -0.070235
59445160 0.9061993333333334 -0.03913333333333333
60931039 0.9999533333333334 -0.0017873333333333333
62416918 1.0029379999999999 -0.010208
63902797 1.0064823333333333 -0.017359666666666666
65388676 1.0097536666666667 -0.025387999999999997
66874555 1.0123423333333335 -0.02038
68360434 1.0108023333333334 -0.10377399999999999
69846313 1.0163216666666666 0.004608999999999999
71332192 1.0169533333333334 0.010603
72818071 1.018538 -0.03295033333333333
74303950 1.0183763333333333 -0.02351866666666667
75789829 1.0166343333333334 0.04559166666666667
77275708 1.016504 0.03729733333333333
78761587 1.016043 0.044211
80247466 1.0156793333333332 -0.071346
81733345 1.0144440000000001 -0.022194000000000002
83219224 1.0124906666666666 -0.031367
84705103 1.0092323333333333 -0.05642966666666668
86190982 1.003154 0.06851033333333333
87676861 1.0024570000000002 -0.04566
89162740 0.9995756666666668 -0.020227
90648619 0.9985866666666666 -0.037851
92134498 1.001133 -0.034798333333333334
93620377 1.0048856666666666 -0.0019083333333333333
95106256 1.0081523333333335 -0.02798566666666667
96592135 1.0101376666666668 -0.025478
98078014 1.0122669999999998 -0.019830333333333335
99563893 1.0142066666666667 -0.015756666666666665
101049772 1.016019 -0.027766000000000002
102535651 1.0163849999999999 -0.028203000000000002
104021530 1.0169689999999998 -0.02849566666666667
105507409 1.016133 -0.027527666666666662
106993288 1.016051 -0.027678666666666667
108479167 1.015713 -0.028093666666666666
109965046 1.0145206666666666 -0.027441999999999998
111450925 1.0122039999999999 -0.027290333333333333
112936804 1.0098933333333333 -0.026959
114422683 1.0069636666666666 -0.026055
115908562 1.005661 -0.025966
117394441 1.0013613333333333 -0.025548
118880320 0.9974566666666668 -0.025506333333333336
120366199 0.9959376666666667 -0.026688666666666666
121852078 0.9994593333333333 -0.026839666666666664
123337957 1.004555 -0.027699333333333336
124823836 1.0080253333333333 -0.028959000000000002
126309715 1.0118393333333333 -0.028429
127795594 1.0146163333333333 -0.028500333333333332
129281473 1.0166193333333333 -0.029752666666666667
130767352 1.019110666666667 -0.028591999999999996
132253231 1.0216306666666666 -0.028926999999999998
133739110 1.0223993333333334 -0.027329333333333334
135224989 1.0097093333333333 -0.03984666666666667
136710868 1.0100193333333334 -0.039612
138196747 1.0101036666666667 -0.03895
139682626 1.009417 -0.03839066666666666
141168505 1.0082149999999999 -0.037719333333333334
142654384 1.0071153333333331 -0.03714666666666666
144140263 1.0061103333333334 -0.036643666666666665
145626142 1.0039223333333334 -0.03616333333333333
147112021 1.0014613333333333 -0.034903666666666666
148597900 0.9975869999999999 -0.03484966666666667
150083779 0.9945579999999999 -0.032794
151569658 0.9983573333333333 -0.03360066666666667
153055537 1.0011919999999999 -0.034633
154541416 1.0044163333333334 -0.03478866666666666
156027295 1.0065906666666666 -0.03559433333333333
157513174 1.0096176666666667 -0.035346999999999996
158999053 1.0105593333333331 -0.036760999999999995
160484932 1.0128743333333334 -0.03554533333333333
161970811 1.0134290000000001 -0.035649999999999994
163456690 1.014094 -0.035561
164942569 1.014476 -0.03619266666666667
166428448 1.0149343333333334 -0.03554433333333334
167914327 1.013355 -0.035171
169400206 1.0127113333333335 -0.035395666666666666
170886085 1.009392 -0.04129666666666667
172371964 1.009421 -0.03557966666666667
173857843 0.9988116666666667 -0.053336999999999996
175343722 1.004276 -0.03583733333333333
176829601 1.0007226666666666 -0.03568733333333333
178315480 0.9981043333333334 -0.036828
179801359 0.9936013333333333 -0.037151333333333335
181287238 0.9967683333333334 -0.038524
182773117 1.0002573333333333 -0.03826366666666666
184258996 1.0032103333333333 -0.03881966666666667
185744875 1.0060973333333332 -0.039293
187230754 1.0086596666666667 -0.039269
188716633 1.0101343333333332 -0.039697666666666666
190202512 1.0116106666666667 -0.03915866666666667
191688391 1.0125523333333335 -0.03854633333333333
193174270 1.0140143333333334 -0.03875166666666666
194660149 1.014248 -0.03986
196146028 1.0134166666666669 -0.038227000000000004
197631907 1.013594 -0.03969466666666666
199117786 1.0121229999999999 -0.03959933333333333
200603665 1.010613 -0.04008333333333333
202089544 1.0085216666666668 -0.04040533333333333
203575423 1.0063630000000001 -0.04037533333333333
205061302 1.0031356666666666 -0.04129533333333333
206547181 0.9997533333333334 -0.04200566666666666
208033060 0.997661 -0.04173866666666667
209518939 0.9935743333333332 -0.04374166666666667
211004818 0.9953876666666667 -0.04427766666666667
212490697 0.9985883333333333 -0.04455566666666666
213976576 1.002694 -0.04496633333333333
215462455 1.0052753333333333 -0.04574333333333334
216948334 1.0082129999999998 -0.045697999999999996
218434213 1.0100266666666666 -0.04588133333333333
219920092 1.012659 -0.045311333333333335
221405971 1.0134666666666667 -0.04511266666666667
222891850 1.0135803333333333 -0.04566033333333334
224377729 1.014297 -0.044778000000000005
225863608 1.0142106666666668 -0.04534266666666667
227349487 1.0135196666666666 -0.044157
228835366 1.0129983333333332 -0.044887
230321245 1.0102786666666665 -0.04543333333333333
231807124 1.0093293333333333 -0.045388000000000005
233293003 1.006372 -0.04672066666666667
234778882 1.0035976666666666 -0.047247333333333336
236264761 1.0001939999999998 -0.047789000000000005
237750640 0.9966396666666667 -0.048806999999999996
239236519 0.9922636666666667 -0.049992
240722398 0.992117 -0.050321666666666674
242208277 0.9962823333333333 -0.05133533333333334
243694156 1.0004503333333332 -0.051644
245180035 1.00451 -0.051305666666666666
246665914 1.0067016666666666 -0.05199433333333334
248151793 1.0094613333333333 -0.05169066666666666
249637672 1.0111649999999999 -0.05178033333333334
251123551 1.0118963333333333 -0.05187766666666666
252609430 1.0137883333333333 -0.052193333333333335
254095309 1.0143443333333333 -0.05234033333333334
255581188 1.0142313333333333 -0.050665999999999996
257067067 1.0131113333333333 -0.05153766666666667
258552946 1.0120816666666668 -0.05193433333333334
260038825 1.010562 -0.05156466666666667
261524704 1.0083303333333333 -0.05174366666666667
263010583 1.0057916666666664 -0.05322266666666667
264496462 1.0027113333333333 -0.05284833333333333
265982341 0.9986543333333332 -0.053833
267468220 0.9954033333333334 -0.054502333333333326
268954099 0.9908603333333333 -0.054959666666666664
270439978 0.989544 -0.056971
271925857 0.994342 -0.057413
273411736 0.9979236666666665 -0.05848366666666666
274897615 1.0022116666666665 -0.058407999999999995
276383494 1.0053659999999998 -0.059085
277869373 1.0081176666666665 -0.05883066666666667
279355252 1.0097693333333333 -0.05897333333333333
280841131 1.0119643333333332 -0.058910333333333335
282327010 1.0135853333333333 -0.05872766666666667
283812889 1.0145546666666665 -0.052103000000000003
285298768 1.014235 -0.051864999999999994
286784647 1.0147303333333333 -0.05178866666666667
288270526 1.011363 -0.06422866666666667
289756405 1.0112266666666667 -0.057929666666666664
291242284 1.0077960000000001 -0.06316966666666667
292728163 1.0065133333333334 -0.052244000000000006
294214042 1.0020316666666667 -0.06408433333333333
295699921 1.0004123333333332 -0.053385666666666665
297185800 0.9937303333333333 -0.06610066666666667
298671679 0.9917133333333333 -0.05442366666666667
300157558 0.987551 -0.060496
301643437 0.9922686666666666 -0.06090266666666666
303129316 0.997436 -0.061624000000000005
304615195 1.0014426666666667 -0.06332166666666666
306101074 1.0047903333333332 -0.062917
307586953 1.008032 -0.06377566666666666
309072832 1.0110026666666667 -0.06393666666666667
310558711 1.012333 -0.06354433333333333
312044590 1.013498 -0.06375033333333334
313530469 1.0148356666666667 -0.063033
315016348 1.0147496666666667 -0.06338666666666667
316502227 1.0148016666666666 -0.062504
317988106 1.0135189999999998 -0.06237033333333334
319473985 1.0115686666666666 -0.06230866666666667
320959864 1.0093823333333336 -0.062539
322445743 1.0083270000000002 -0.056161666666666665
323931622 1.0042826666666667 -0.06213866666666667
325417501 1.0015083333333334 -0.063513
326903380 0.9967753333333333 -0.06315733333333333
328389259 0.9924193333333333 -0.064125
329875138 0.9867840000000001 -0.06359466666666666
331361017 0.9911356666666666 -0.06586033333333334
332846896 0.9959726666666667 -0.06699066666666666
334332775 0.9993556666666666 -0.066851
335818654 1.0021003333333334 -0.06880133333333334
337304533 1.0049503333333334 -0.06868633333333334
338790412 1.0071433333333335 -0.06963200000000001
340276291 1.0089686666666668 -0.06943433333333333
341762170 1.0107376666666665 -0.07047166666666667
343248049 1.0105593333333334 -0.07000033333333334
344733928 1.011413 -0.07140033333333333
346219807 1.010473 -0.06927
347705686 1.0057566666666666 -0.081741
349191565 1.0073583333333334 -0.07067333333333332
350677444 1.0053806666666667 -0.06957666666666666
352163323 1.0047409999999999 -0.07048
353649202 1.001013333333333 -0.06958866666666667
355135081 0.9959979999999998 -0.07157366666666667
356620960 0.9915343333333334 -0.07210966666666667
358106839 0.9875886666666666 -0.07097566666666667
359592718 0.9832706666666667 -0.07168466666666667
361078597 0.9838333333333332 -0.07322166666666667
362564476 0.9887506666666667 -0.074765
364050355 0.9919946666666667 -0.07647033333333333
365536234 0.995955 -0.075858
367022113 0.9994406666666666 -0.077499
368507992 1.0017873333333334 -0.07794633333333334
369993871 1.0028146666666666 -0.07907900000000001
371479750 1.0050023333333333 -0.07896166666666667
372965629 1.004151 -0.09016
374451508 1.0068196666666667 -0.07910533333333333
375937387 1.0100183333333332 -0.065962
377423266 1.0061546666666665 -0.07932099999999999
378909145 1.005968 -0.07732099999999999
380395024 1.0031696666666665 -0.07771099999999999
381880903 1.001032666666667 -0.07833633333333334
383366782 0.9992956666666667 -0.07705833333333333
384852661 0.9950716666666667 -0.07778299999999999
386338540 0.9915313333333334 -0.07681466666666666
387824419 0.9881063333333332 -0.07611833333333333
389310298 0.9828683333333332 -0.07774233333333334
390796177 0.9825473333333333 -0.07801966666666667
392282056 0.9868553333333333 -0.080008
393767935 0.9904833333333333 -0.08062266666666666
395253814 0.9929839999999999 -0.08104833333333333
396739693 0.997059 -0.08286866666666666
398225572 0.9986973333333333 -0.08285633333333334
399711451 1.000576 -0.082986
401197330 1.0021713333333333 -0.08242866666666666
402683209 1.0032683333333334 -0.082859
404169088 1.0031476666666668 -0.08389133333333333
405654967 1.0036353333333334 -0.082982
407140846 1.0036236666666667 -0.08295033333333333
408626725 1.001989 -0.08313366666666668
410112604 1.0002600000000001 -0.08206999999999999
411598483 0.9988286666666667 -0.08171833333333334
413084362 0.9958186666666666 -0.08042700000000001
414570241 0.9929246666666667 -0.08149766666666668
416056120 0.9893433333333332 -0.08123766666666667
417541999 0.985016 -0.08179533333333333
419027878 0.9810816666666667 -0.08139633333333333
420513757 0.9788963333333333 -0.08255166666666668
421999636 0.9830763333333333 -0.08220166666666666
423485515 0.9860273333333334 -0.08296233333333335
424971394 0.9899713333333334 -0.08509533333333334
426457273 0.9924390000000001 -0.08642733333333334
427943152 0.994255 -0.08606333333333334
429429031 0.9968393333333333 -0.08707999999999999
430914910 0.998922 -0.08106233333333333
432400789 0.9975723333333333 -0.09365566666666668
433886668 1.0011463333333335 -0.08214733333333334
435372547 0.9984886666666667 -0.09310666666666667
436858426 1.0014079999999999 -0.08141866666666667
438344305 0.997931 -0.09372466666666666
439830184 0.9984076666666667 -0.082467
441316063 0.994387 -0.09340266666666668
442801942 0.9936643333333334 -0.07998466666666666
444287821 0.9893360000000001 -0.09271666666666667
445773700 0.9884663333333333 -0.07988666666666666
447259579 0.9837616666666666 -0.09165166666666667
448745458 0.9812226666666667 -0.079889
450231337 0.9763493333333333 -0.08492899999999999
451717216 0.9809573333333333 -0.08593066666666667
453203095 0.9850526666666667 -0.08765400000000001
454688974 0.9878153333333334 -0.08778766666666667
456174853 0.9894743333333333 -0.08977500000000001
457660732 0.9930616666666667 -0.090245
459146611 0.9947813333333334 -0.09007666666666665
460632490 0.996626 -0.090229
462118369 0.9980626666666667 -0.08991966666666668
463604248 0.9980376666666667 -0.092104
465090127 0.9975206666666666 -0.08996266666666668
466576006 0.9969610000000001 -0.08965866666666666
468061885 0.996613 -0.09022733333333333
469547764 0.9947736666666667 -0.08970766666666667
471033643 0.9938833333333333 -0.08920533333333334
472519522 0.9906826666666667 -0.08902233333333333
474005401 0.9876766666666666 -0.08959666666666666
475491280 0.9854286666666666 -0.08892633333333333
476977159 0.981823 -0.08817900000000001
478463038 0.9775969999999999 -0.08804033333333333
479948917 0.9735506666666667 -0.08849633333333333
481434796 0.9771786666666666 -0.08929133333333333
482920675 0.9805963333333333 -0.091453
484406554 0.9840036666666667 -0.09259866666666666
485892433 0.986818 -0.09262233333333332
487378312 0.9895333333333333 -0.09328266666666667
488864191 0.991266 -0.09288666666666667
490350070 0.9934759999999999 -0.09372633333333334
491835949 0.9943580000000001 -0.09211266666666666
493321828 0.9944796666666665 -0.09250733333333333
494807707 0.9956299999999999 -0.09377733333333332
496293586 0.9951616666666666 -0.09363666666666666
497779465 0.9941093333333333 -0.09200199999999999
499265344 0.9939083333333333 -0.09202166666666667
500751223 0.9908546666666668 -0.09298533333333335
502237102 0.9880970000000001 -0.091929
503722981 0.9873496666666667 -0.09154966666666665
505208860 0.9831323333333333 -0.09192466666666665
506694739 0.9799530000000001 -0.091476
508180618 0.975729 -0.091505
509666497 0.9721216666666667 -0.09114766666666668
511152376 0.974065 -0.09314333333333334
512638255 0.9770376666666666 -0.092665
514124134 0.9811296666666666 -0.093685
515610013 0.9846349999999999 -0.09556533333333332
517095892 0.9868683333333333 -0.09471866666666667
518581771 0.9888340000000001 -0.09596166666666667
520067650 0.9898403333333333 -0.09727400000000001
521553529 0.9918366666666666 -0.09438133333333333
523039408 0.9917980000000001 -0.09591566666666666
524525287 0.992571 -0.09549433333333333
526011166 0.9910356666666665 -0.09578266666666668
527497045 0.9912043333333332 -0.09386599999999999
528982924 0.9899586666666668 -0.09562333333333334
530468803 0.9880460000000001 -0.09667666666666667
531954682 0.9864486666666666 -0.09579033333333332
533440561 0.983477 -0.09555666666666666
534926440 0.9813840000000001 -0.09390033333333332
536412319 0.977059 -0.09463900000000001
537898198 0.9725693333333333 -0.09572333333333333
539384077 0.9688413333333333 -0.095879
540869956 0.9698873333333333 -0.09606533333333334
542355835 0.9715583333333333 -0.096153
543841714 0.976518 -0.09503400000000001
545327593 0.9782433333333334 -0.09688000000000001
546813472 0.9808889999999999 -0.09540466666666665
548299351 0.9808293333333333 -0.09641533333333334
549785230 0.9831026666666668 -0.09528133333333333
551271109 0.9818963333333334 -0.09595766666666666
552756988 0.984792 -0.09370266666666667
554242867 0.9828293333333332 -0.093121
555728746 0.9822280000000001 -0.09386500000000002
557214625 0.9809573333333333 -0.09332933333333333
558700504 0.978746 -0.09227866666666666
560186383 0.9763006666666666 -0.09058533333333334
561672262 0.972947 -0.09193766666666668
563158141 0.9697086666666666 -0.09047000000000001
564644020 0.964826 -0.09140066666666667
566129899 0.9620443333333334 -0.09091833333333334
567615778 0.9568530000000001 -0.09098966666666668
569101657 0.9509186666666668 -0.08962266666666667
570587536 0.950573 -0.09163
572073415 0.9556356666666667 -0.09165433333333334
573559294 0.9587246666666668 -0.095927
575045173 0.9611360000000001 -0.09803333333333335
576531052 0.9661249999999999 -0.097157
578016931 0.9678553333333334 -0.09924933333333334
579502810 0.9702973333333333 -0.09965533333333333
580988689 0.9734633333333332 -0.10130533333333334
582474568 0.9726909999999999 -0.101786
583960447 0.9746433333333334 -0.10249966666666666
585446326 0.974999 -0.10251033333333333
586932205 0.9760833333333334 -0.10209933333333333
588418084 0.974144 -0.10504033333333333
589903963 0.9734593333333333 -0.104362
591389842 0.9734106666666666 -0.10403833333333334
592875721 0.9705726666666666 -0.10551166666666666
594361600 0.9688326666666667 -0.10570666666666667
595847479 0.965598 -0.10714666666666667
597333358 0.9625303333333334 -0.10629033333333333
598819237 0.9591676666666666 -0.10733066666666667
600305116 0.9584250000000001 -0.10786733333333333
601790995 0.9618189999999999 -0.10873
603276874 0.9665820000000002 -0.108842
604762753 0.9694039999999999 -0.11123066666666666
606248632 0.9734453333333333 -0.11181366666666666
607734511 0.9769543333333334 -0.10985166666666668
609220390 0.9786876666666666 -0.11298133333333334
610706269 0.9815200000000001 -0.11216766666666667
612192148 0.9827646666666666 -0.11314866666666668
613678027 0.9838263333333334 -0.11168300000000002
615163906 0.9834330000000001 -0.11067700000000001
616649785 0.9846156666666667 -0.11048533333333332
618135664 0.9828016666666666 -0.11017166666666667
619621543 0.9820553333333333 -0.10986566666666665
621107422 0.9794463333333333 -0.108835
622593301 0.9781473333333333 -0.10913733333333332
624079180 0.9753476666666666 -0.10891933333333333
625565059 0.9711466666666667 -0.10794166666666666
627050938 0.9679883333333333 -0.10857433333333333
628536817 0.9639133333333333 -0.106968
630022696 0.9581003333333333 -0.10850933333333333
631508575 0.9633569999999999 -0.11569266666666667
632994454 0.9680826666666666 -0.11031500000000001
634480333 0.9707880000000001 -0.11183066666666668
635966212 0.9741923333333333 -0.11304399999999999
637452091 0.9772133333333334 -0.11195966666666667
638937970 0.9791783333333334 -0.11349999999999999
640423849 0.9806116666666668 -0.113728
641909728 0.9820340000000001 -0.11383566666666667
643395607 0.9835056666666667 -0.11328533333333334
644881486 0.9831773333333333 -0.11407633333333334
646367365 0.98304 -0.10684666666666666
647853244 0.9817813333333333 -0.11351433333333334
