# HZ S RI R 50
10000 0.9246269999999999 0.30561666666666665
1495879 -0.22251966666666667 1.6781536666666668
2981758 -0.290737 1.0081803333333332
4467637 -0.1429733333333333 0.5370223333333333
5953516 -0.01958 0.317806
7439395 0.05857833333333333 0.20371966666666666
8925274 0.05232033333333333 0.6652116666666666
10411153 0.135651 0.5447383333333333
11897032 0.1953126666666667 0.45245399999999997
13382911 0.24151366666666665 0.37818966666666665
14868790 0.27885633333333326 0.316523
16354669 0.311391 0.26360933333333325
17840548 0.33991533333333335 0.21797366666666665
19326427 0.36471 0.17748333333333335
20812306 0.38810866666666666 0.14139966666666665
22298185 0.409898 0.10869466666666666
23784064 0.43068766666666664 0.07940133333333332
25269943 0.45038133333333336 0.052378666666666664
26755822 0.4689573333333333 0.027469999999999998
28241701 0.48702 0.004771666666666667
29727580 0.504246 -0.016509
31213459 0.5273963333333334 -0.02009933333333333
32699338 0.5527249999999999 -0.019036333333333332
34185217 0.5782149999999999 -0.01830933333333333
35671096 0.6060809999999999 -0.015956666666666668
37156975 0.635481 -0.010778333333333334
38642854 0.66479 -0.006564666666666667
40128733 0.6982343333333333 0.002328
41614612 0.7259586666666666 0.0034996666666666666
43100491 0.7602366666666667 0.012993999999999999
44586370 0.7921236666666667 0.02033633333333333
46072249 0.827896 0.030832
47558128 0.8593753333333334 0.036960999999999994
49044007 0.8898956666666666 0.04387066666666667
50529886 0.9177529999999999 0.04970999999999999
52015765 0.9539553333333333 0.056570333333333334
53501644 0.9796313333333333 0.058863
54987523 1.0050786666666665 0.05463666666666667
56473402 1.0283419999999999 0.030844666666666663
57959281 1.0295446666666666 0.009203666666666666
59445160 1.012247 -0.003922333333333333
60931039 1.0024749999999998 -0.004689666666666667
62416918 1.0056783333333332 -0.013649333333333333
63902797 1.009206 -0.022213333333333335
65388676 1.0119083333333334 -0.028715666666666667
66874555 1.0156556666666665 -0.024161000000000002
68360434 1.0128303333333333 -0.10642833333333332
69846313 1.019097333333333 0.00018866666666666665
71332192 1.0397103333333333 0.03523966666666667
72818071 1.0219646666666666 -0.036386
74303950 1.0219706666666666 -0.027206333333333332
75789829 1.019186 0.041891333333333336
77275708 1.019982 0.032940333333333335
78761587 1.0180523333333333 0.040608
80247466 1.0186236666666666 -0.07400299999999999
81733345 1.0182823333333335 -0.025937999999999996
83219224 1.0155136666666666 -0.035490999999999995
84705103 1.0114836666666667 -0.05926033333333333
86190982 1.0068389999999998 0.06494899999999999
87676861 1.0062919999999997 -0.049554
89162740 1.0019909999999999 -0.024114666666666666
90648619 1.0018296666666666 -0.040519999999999994
92134498 1.0053683333333332 -0.03768466666666666
93620377 1.0084576666666667 -0.004987999999999999
95106256 1.0109473333333332 -0.03078433333333333
96592135 1.013832 -0.029084
98078014 1.0157943333333332 -0.022331999999999998
99563893 1.0176686666666668 -0.019188333333333335
101049772 1.0193366666666663 -0.030955666666666666
102535651 1.0199893333333332 -0.031246333333333334
104021530 1.0205706666666665 -0.029949666666666666
105507409 1.0198863333333332 -0.031322666666666665
106993288 1.0206243333333334 -0.03011933333333333
108479167 1.0197133333333332 -0.027939
109965046 1.0185003333333331 -0.03031033333333333
111450925 1.0162496666666667 -0.03007233333333333
112936804 1.014761 -0.02954733333333333
114422683 1.0119129999999998 -0.029334
115908562 1.008839 -0.028608333333333333
117394441 1.0062663333333333 -0.028810333333333334
118880320 1.0019216666666666 -0.028346
120366199 1.0010323333333333 -0.02789133333333333
121852078 1.0051653333333332 -0.02945966666666667
123337957 1.0098963333333333 -0.029823000000000002
124823836 1.0123333333333333 -0.029497333333333334
126309715 1.0158083333333332 -0.029587666666666665
127795594 1.0192476666666668 -0.029516
129281473 1.022503 -0.02921666666666667
130767352 1.0248079999999997 -0.029160333333333333
132253231 1.026724 -0.029210666666666666
133739110 1.0277263333333333 -0.027106666666666668
135224989 1.0145806666666666 -0.039368
136710868 1.0152279999999998 -0.039291999999999994
138196747 1.0149846666666666 -0.03801366666666667
139682626 1.0141506666666666 -0.036983999999999996
141168505 1.013616 -0.036893999999999996
142654384 1.0127926666666667 -0.035493
144140263 1.0105943333333332 -0.03453766666666667
145626142 1.0082669999999998 -0.033926333333333336
147112021 1.0056316666666667 -0.03306866666666666
148597900 1.0023106666666668 -0.03163233333333333
150083779 1.000014 -0.031168999999999995
151569658 1.0037856666666665 -0.032265333333333326
153055537 1.006999 -0.03220666666666667
154541416 1.009498 -0.032592333333333334
156027295 1.0122433333333332 -0.03272033333333333
157513174 1.0142363333333333 -0.03267633333333333
158999053 1.0154016666666665 -0.03298633333333333
160484932 1.0174326666666664 -0.03309933333333333
161970811 1.018128 -0.031693
163456690 1.0194203333333332 -0.032514999999999995
164942569 1.0192816666666666 -0.031536666666666664
166428448 1.0190786666666667 -0.03064266666666667
167914327 1.0185146666666667 -0.03142166666666667
169400206 1.0167203333333332 -0.030973666666666667
170886085 1.0164386666666667 -0.03035933333333333
172371964 1.0125039999999998 -0.030441
173857843 1.0715553333333334 -0.0363
175343722 1.009226 -0.029655666666666667
176829601 1.0057566666666666 -0.037212
178315480 1.003625 -0.030842333333333333
179801359 0.9985243333333332 -0.032154333333333326
181287238 1.0019306666666665 -0.03170466666666666
182773117 0.9563623333333331 -0.037741333333333335
184258996 1.0086663333333332 -0.030645333333333333
185744875 1.0116236666666665 -0.031694
187230754 1.0136683333333334 -0.031102333333333333
188716633 1.0159719999999999 -0.030374666666666668
190202512 1.0172053333333333 -0.030055666666666665
191688391 1.0192459999999999 -0.029734
193174270 1.0189573333333333 -0.029621666666666664
194660149 1.0199123333333333 -0.02901533333333333
196146028 1.0197466666666666 -0.028426999999999997
197631907 1.0180483333333332 -0.028603666666666666
199117786 1.017748 -0.028147
200603665 1.0166433333333333 -0.02813133333333333
202089544 1.014819333333333 -0.028673999999999998
203575423 1.0123213333333332 -0.027611
205061302 1.0094699999999999 -0.028446666666666665
206547181 1.0065279999999999 -0.029079666666666663
208033060 1.0031503333333331 -0.029461666666666667
209518939 0.999173 -0.030598999999999994
211004818 1.0015393333333333 -0.029847
212490697 1.0047573333333333 -0.030708
213976576 1.0082846666666665 -0.03061466666666667
215462455 1.011978 -0.030641666666666668
216948334 1.0141186666666666 -0.030029
218434213 1.016681333333333 -0.02968433333333333
219920092 1.0179753333333332 -0.029275
221405971 1.019646 -0.02838466666666667
222891850 1.02002 -0.029283666666666666
224377729 1.0207183333333332 -0.02823933333333333
225863608 1.0208869999999997 -0.028451999999999998
227349487 1.020454 -0.028524333333333336
228835366 1.0202153333333333 -0.020899333333333332
230321245 1.0183046666666666 -0.028227333333333333
231807124 1.016381 -0.028109666666666665
233293003 1.0135016666666665 -0.028154000000000002
234778882 1.0105793333333333 -0.02874233333333333
236264761 1.0077993333333333 -0.029717999999999998
237750640 1.0038956666666667 -0.03083733333333333
239236519 0.9998086666666667 -0.030812666666666662
240722398 0.9999493333333334 -0.03181766666666667
242208277 1.0046773333333334 -0.031960999999999996
243694156 1.0086179999999998 -0.03146566666666667
245180035 1.012282 -0.032152999999999994
246665914 1.0154669999999997 -0.031031333333333334
248151793 1.0170949999999999 -0.031216
249637672 1.019556 -0.03098933333333333
251123551 1.021452 -0.02946
252609430 1.0222923333333331 -0.030053666666666663
254095309 1.022695 -0.029108
255581188 1.0227709999999999 -0.028874666666666663
257067067 1.022221 -0.028728666666666666
258552946 1.0212516666666667 -0.028075000000000003
260038825 1.0194323333333333 -0.028469666666666664
261524704 1.0175126666666667 -0.028198333333333332
263010583 1.0153043333333334 -0.028208333333333335
264496462 1.0121759999999997 -0.02821033333333333
265982341 1.0086763333333333 -0.028962333333333333
267468220 1.0049556666666666 -0.02978533333333333
268954099 1.0012576666666666 -0.030019999999999998
270439978 0.9993313333333333 -0.031391999999999996
271925857 1.0041803333333332 -0.03165166666666667
273411736 1.0089273333333333 -0.030900333333333335
274897615 1.0121516666666666 -0.03141733333333333
276383494 1.0155466666666666 -0.031911999999999996
277869373 1.0180906666666667 -0.03146466666666667
279355252 1.0211406666666667 -0.030737
280841131 1.0221909999999998 -0.030251666666666666
282327010 1.0230423333333334 -0.028954333333333332
283812889 1.023524 -0.028753
285298768 1.0240256666666667 -0.028848000000000002
286784647 1.0237846666666663 -0.028594666666666664
288270526 1.0229753333333333 -0.027387333333333333
289756405 1.0212536666666667 -0.026839000000000002
291242284 1.0196723333333333 -0.027801333333333334
292728163 1.0173699999999999 -0.027439333333333333
294214042 1.0125873333333333 -0.028293666666666665
295699921 1.0096263333333333 -0.028679
297185800 1.0055239999999999 -0.028772333333333334
298671679 1.0016773333333333 -0.029447
300157558 0.9978819999999999 -0.029796666666666666
301643437 1.0019573333333334 -0.030760333333333334
303129316 1.006869 -0.030884333333333333
304615195 1.0108270000000001 -0.031677666666666666
306101074 1.0148826666666668 -0.03172633333333333
307586953 1.0179293333333332 -0.03299566666666666
309072832 1.0209626666666665 -0.032299
310558711 1.0224216666666666 -0.030975333333333334
312044590 1.0233359999999998 -0.032119666666666664
313530469 1.0234476666666668 -0.03072533333333333
315016348 1.0238799999999997 -0.030697333333333333
316502227 1.0237553333333334 -0.031126666666666664
317988106 1.023808 -0.029359999999999997
319473985 1.0212603333333332 -0.030379666666666666
320959864 0.973436 -0.019549666666666667
322445743 1.0182493333333333 -0.030515333333333332
323931622 1.0150343333333334 -0.023542333333333332
325417501 1.0106979999999999 -0.024408666666666665
326903380 1.0083936666666666 -0.02441666666666667
328389259 1.0030663333333332 -0.025514333333333333
329875138 0.9977713333333332 -0.025962666666666665
331361017 1.003832 -0.020858999999999996
332846896 1.009411 -0.022424
334332775 1.0130970000000001 -0.023501
335818654 1.015981 -0.022121666666666668
337304533 1.020594 -0.024338666666666665
338790412 1.022226 -0.023279333333333332
340276291 1.0237653333333334 -0.022876666666666663
341762170 1.0261456666666666 -0.022664666666666666
343248049 1.0274866666666667 -0.022514999999999997
344733928 1.0269249999999999 -0.02282633333333333
346219807 1.0272286666666668 -0.022023
347705686 1.0232213333333333 -0.033043666666666666
349191565 1.0221086666666666 -0.032618666666666664
350677444 1.0198049999999999 -0.032478999999999994
352163323 1.0172399999999997 -0.032813666666666665
353649202 1.0149356666666667 -0.032307
355135081 1.0110586666666666 -0.03265666666666667
356620960 1.0070873333333332 -0.031919333333333334
358106839 1.0028123333333332 -0.03291133333333333
359592718 0.9971813333333333 -0.032504333333333336
361078597 0.999566 -0.03329966666666666
362564476 1.003641 -0.03539066666666666
364050355 1.0079696666666667 -0.03648666666666667
365536234 1.0112983333333334 -0.03702633333333333
367022113 1.014373 -0.036927999999999996
368507992 1.0168066666666666 -0.039158
369993871 1.019131 -0.039038333333333335
371479750 1.0208923333333333 -0.03881366666666666
372965629 1.0212856666666665 -0.03899533333333333
374451508 1.0225003333333333 -0.03924766666666667
375937387 1.0217896666666668 -0.03933999999999999
377423266 1.0221926666666665 -0.03884833333333333
378909145 1.0195963333333333 -0.03900833333333333
380395024 1.019419 -0.038768
381880903 1.0159 -0.037371333333333326
383366782 1.0139476666666667 -0.03834266666666667
384852661 1.0106846666666667 -0.038175333333333325
386338540 1.006946333333333 -0.03864666666666666
387824419 1.0022419999999999 -0.038926666666666665
389310298 0.9978443333333333 -0.03827133333333333
390796177 0.9973313333333333 -0.03939466666666666
392282056 1.0020636666666667 -0.041318999999999995
393767935 1.0063283333333333 -0.041507666666666665
395253814 1.0098756666666668 -0.042846999999999996
396739693 1.012476 -0.04404666666666666
398225572 1.0150359999999998 -0.04460466666666666
399711451 1.0169033333333333 -0.045312
401197330 1.018796 -0.04544666666666667
402683209 1.019831 -0.044689999999999994
404169088 1.0200073333333333 -0.044850666666666664
405654967 1.020287 -0.04518233333333333
407140846 1.0192496666666666 -0.04467433333333333
408626725 1.0184986666666664 -0.04408833333333333
410112604 1.0171279999999998 -0.04535533333333334
411598483 1.0159246666666664 -0.04401666666666666
413084362 1.0133573333333332 -0.04391333333333333
414570241 1.0100323333333332 -0.043366999999999996
416056120 1.0066253333333333 -0.043533
417541999 1.001786 -0.042583333333333334
419027878 0.9978499999999999 -0.044037999999999994
420513757 0.996562 -0.044073
421999636 0.999955 -0.04620566666666666
423485515 1.0032026666666665 -0.04786433333333333
424971394 1.007886 -0.04803133333333333
426457273 1.0092756666666667 -0.04807366666666667
427943152 1.0124406666666668 -0.04953766666666666
429429031 1.013961 -0.05036533333333333
430914910 1.0161189999999998 -0.051012
432400789 1.016425 -0.05062066666666666
433886668 1.0170039999999998 -0.05068099999999999
435372547 1.0165556666666666 -0.05104
436858426 1.0160693333333333 -0.05141933333333333
438344305 1.0153216666666665 -0.050492666666666665
439830184 1.0145413333333333 -0.05028866666666666
441316063 1.012021 -0.050235
442801942 1.009268 -0.049956
444287821 1.0071203333333334 -0.05014266666666667
445773700 1.0042096666666667 -0.050633333333333336
447259579 1.000649333333333 -0.050561
448745458 0.9953896666666667 -0.051569333333333335
450231337 0.9932446666666667 -0.05034133333333333
451717216 0.9971029999999999 -0.05021233333333334
453203095 1.0018336666666667 -0.05240433333333333
454688974 1.0047653333333333 -0.05467799999999999
456174853 1.0074326666666666 -0.05389533333333333
457660732 1.0092869999999998 -0.05595933333333333
459146611 1.0115299999999998 -0.055858
460632490 1.0135153333333333 -0.056897333333333334
462118369 1.0143036666666667 -0.056932666666666666
463604248 1.015162 -0.05759466666666666
465090127 1.0147599999999999 -0.057196000000000004
466576006 1.0151926666666666 -0.05665766666666666
468061885 1.013963 -0.056498
469547764 1.012808 -0.055243333333333325
471033643 0.9649859999999999 -0.043573
472519522 1.0089656666666666 -0.05609566666666666
474005401 1.0063773333333332 -0.05736966666666666
475491280 1.0033886666666667 -0.05655666666666666
476977159 0.9999616666666666 -0.05461233333333333
478463038 0.9959503333333333 -0.05577666666666667
479948917 1.048737 -0.062322
481434796 0.9948926666666666 -0.057396333333333334
482920675 0.9984033333333333 -0.05791166666666667
484406554 1.0025743333333335 -0.060903
485892433 1.0052963333333331 -0.061903333333333324
487378312 1.0078669999999998 -0.06189166666666666
488864191 1.0093619999999999 -0.06176233333333332
490350070 1.011902333333333 -0.06299566666666667
491835949 1.012784 -0.06281866666666666
493321828 1.012519 -0.06314333333333333
494807707 1.0131116666666666 -0.06386933333333333
496293586 1.012584 -0.06319533333333333
497779465 1.0126339999999998 -0.06365
499265344 1.0114356666666666 -0.06488533333333332
500751223 1.0099033333333334 -0.06440766666666665
502237102 1.0073566666666667 -0.06446966666666666
503722981 1.0047886666666666 -0.064345
505208860 1.001938 -0.06410733333333332
506694739 0.9984546666666666 -0.065422
508180618 0.9942163333333334 -0.06732566666666667
509666497 0.9904943333333334 -0.06674766666666666
511152376 0.992905 -0.06881033333333333
512638255 0.997339 -0.06851166666666667
514124134 1.000997 -0.07006566666666666
515610013 1.0037746666666667 -0.07051333333333333
517095892 1.0072743333333332 -0.06984933333333333
518581771 1.0089713333333334 -0.070875
520067650 1.0096563333333333 -0.07063566666666667
521553529 1.0127976666666667 -0.07263733333333333
523039408 1.013490333333333 -0.07063
524525287 1.0130603333333332 -0.07098833333333332
526011166 1.013871 -0.07190366666666666
527497045 1.0130833333333333 -0.07132766666666665
528982924 1.0129236666666666 -0.071111
530468803 1.0117593333333332 -0.07184866666666667
531954682 1.009592 -0.07119299999999999
533440561 1.007178 -0.071632
534926440 1.0050466666666664 -0.071631
536412319 1.000769 -0.07179733333333332
537898198 0.9963963333333333 -0.07319200000000001
539384077 0.9932306666666666 -0.07178499999999999
540869956 0.9939399999999999 -0.07454566666666666
542355835 0.9978796666666666 -0.07473733333333334
543841714 1.0035416666666666 -0.07778399999999999
545327593 1.007514 -0.07837166666666667
546813472 1.0112116666666666 -0.07854933333333333
548299351 1.0144176666666667 -0.08029066666666666
549785230 1.01755 -0.08041899999999999
551271109 1.0202843333333331 -0.08038766666666666
552756988 1.0212629999999998 -0.0823
554242867 1.0217026666666666 -0.08282066666666667
555728746 1.0236193333333334 -0.08174599999999999
557214625 1.0232899999999998 -0.08256266666666665
558700504 1.0235306666666664 -0.08130899999999999
560186383 1.0236729999999998 -0.08388833333333334
561672262 1.0206626666666665 -0.08227499999999999
563158141 1.0207253333333333 -0.08096499999999998
564644020 1.0183433333333334 -0.08098733333333333
566129899 1.0162546666666668 -0.08119466666666666
567615778 1.012463 -0.08329633333333332
569101657 1.0103183333333332 -0.08440766666666666
570587536 1.0093233333333331 -0.08249633333333334
572073415 1.012017 -0.08404699999999998
573559294 1.0156076666666665 -0.08572566666666666
575045173 1.019151 -0.084543
576531052 1.0189713333333332 -0.08645566666666667
578016931 1.0203486666666666 -0.08629133333333334
579502810 1.0226643333333334 -0.08593033333333333
580988689 1.0227903333333332 -0.08464133333333332
582474568 1.023606 -0.08607366666666667
583960447 1.022608 -0.08563233333333334
585446326 1.021186333333333 -0.08527566666666667
586932205 1.0192046666666665 -0.08557666666666666
588418084 1.0177723333333333 -0.08561666666666667
589903963 1.0149343333333332 -0.086035
591389842 1.0116396666666667 -0.08623366666666667
592875721 1.0090379999999999 -0.08507966666666666
594361600 1.0040793333333333 -0.08509866666666667
595847479 0.9996706666666666 -0.08726966666666665
597333358 0.9948503333333332 -0.08530666666666667
598819237 0.988983 -0.08677666666666667
600305116 0.9861949999999999 -0.08756266666666668
601790995 0.9902289999999999 -0.08851666666666666
603276874 0.9944463333333333 -0.09018066666666666
604762753 0.9997876666666665 -0.09171833333333332
606248632 1.0034866666666666 -0.09243699999999999
607734511 1.0061563333333332 -0.092138
609220390 1.0099296666666666 -0.09226533333333332
610706269 1.0108173333333332 -0.09283433333333332
612192148 1.0128853333333332 -0.092749
613678027 1.0140193333333332 -0.09158066666666666
615163906 1.014795 -0.091806
616649785 1.014188 -0.09196800000000001
618135664 1.0136386666666666 -0.09196666666666665
619621543 1.0141853333333333 -0.09020766666666666
621107422 1.0128046666666668 -0.09045666666666666
622593301 1.0085879999999998 -0.090503
624079180 1.00798 -0.08909966666666666
625565059 1.003843 -0.08755666666666664
627050938 0.9999273333333334 -0.08818266666666666
628536817 0.9951243333333333 -0.08791666666666666
630022696 0.9911086666666666 -0.08858233333333333
631508575 0.9513686666666665 -0.08829333333333333
632994454 1.0009596666666667 -0.09048399999999998
634480333 1.003793 -0.09042333333333333
635966212 1.0068476666666666 -0.09196466666666665
637452091 1.0109853333333332 -0.08706433333333333
638937970 1.0141623333333332 -0.089336
640423849 1.0146586666666666 -0.09320266666666666
641909728 1.0165559999999998 -0.09282199999999999
