# HZ S RI R 50
10000 0.9178486666666666 -0.01836566666666666
1495879 2.444694333333333 -2.6245883333333335
2981758 2.4798033333333334 -3.3318226666666666
4467637 1.262264 -2.2956849999999998
5953516 0.311721 -1.6552159999999998
7439395 -0.11419266666666666 -1.1485553333333334
8925274 -0.4584866666666666 -0.37304566666666666
10411153 -0.438013 -0.24416466666666664
11897032 -0.4004546666666666 -0.13974633333333333
13382911 -0.35360033333333335 -0.05830966666666666
14868790 -0.30373399999999995 0.003739333333333333
16354669 -0.2543836666666667 0.049853999999999996
17840548 -0.21189366666666665 0.08105366666666666
19326427 -0.16461199999999998 0.10823466666666666
20812306 -0.124986 0.124616
22298185 -0.08938399999999999 0.13594233333333333
23784064 -0.05345766666666666 0.14258166666666666
25269943 -0.028411 0.147011
26755822 -0.002628333333333333 0.14845733333333333
28241701 0.020668666666666665 0.14812033333333333
29727580 0.041602 0.14649299999999998
31213459 0.05972533333333333 0.16187666666666667
32699338 0.07973266666666666 0.18359666666666666
34185217 0.10208433333333333 0.20741566666666666
35671096 0.128936 0.23435833333333334
37156975 0.159318 0.264297
38642854 0.19314 0.2960936666666667
40128733 0.236966 0.3321033333333333
41614612 0.2789493333333333 0.36788899999999997
43100491 0.341472 0.40568366666666666
44586370 0.40673366666666666 0.44139833333333334
46072249 0.48850133333333334 0.4733156666666667
47558128 0.573521 0.49603633333333336
49044007 0.6666576666666666 0.5050396666666666
50529886 0.758784 0.4970553333333333
52015765 0.8738656666666667 0.4547633333333333
53501644 0.9564516666666667 0.3946126666666666
54987523 1.023895 0.30311833333333327
56473402 1.0689449999999998 0.17607166666666665
57959281 1.0575173333333334 0.08133533333333333
59445160 1.0180609999999999 0.018322666666666668
60931039 1.0011993333333333 0.0012106666666666665
62416918 1.005672 -0.00664
63902797 1.009138333333333 -0.014569
65388676 1.0118603333333331 -0.02239733333333333
66874555 1.0146249999999999 -0.017883
68360434 1.0124226666666667 -0.10686466666666668
69846313 1.017685 0.0070929999999999995
71332192 1.0188513333333333 0.013733333333333334
72818071 1.0210096666666666 -0.029156999999999995
74303950 1.021296 -0.019410999999999998
75789829 1.0190596666666665 0.048758
77275708 1.018985 0.04167266666666666
78761587 1.0183213333333332 0.04790233333333333
80247466 1.0179656666666665 -0.06706233333333333
81733345 1.0166886666666666 -0.019003333333333334
83219224 1.0144203333333333 -0.028659999999999998
84705103 1.0115983333333332 -0.053572666666666664
86190982 1.0052303333333332 0.07181366666666666
87676861 1.004886 -0.04302999999999999
89162740 1.0019313333333333 -0.018112
90648619 1.0004066666666667 -0.03406766666666666
92134498 1.0038443333333333 -0.037287
93620377 1.0074573333333332 0.0019396666666666668
95106256 1.010335 -0.023837999999999998
96592135 1.01345 -0.022334666666666662
98078014 1.0153809999999999 -0.016883
99563893 1.0172446666666666 -0.012237666666666664
101049772 1.0192039999999998 -0.024344666666666667
102535651 1.0199266666666666 -0.024509999999999997
104021530 1.0200766666666665 -0.023288000000000003
105507409 1.020004333333333 -0.024329666666666666
106993288 1.0201413333333333 -0.023823
108479167 1.0188196666666667 -0.023667333333333335
109965046 1.0182373333333332 -0.022759333333333333
111450925 1.016115333333333 -0.022838999999999998
112936804 1.0146423333333332 -0.022254666666666666
114422683 1.0118099999999999 -0.021257
115908562 1.009013333333333 -0.022023999999999995
117394441 1.0053999999999998 -0.021787333333333332
118880320 1.0018250000000002 -0.02105
120366199 1.0000796666666665 -0.022143666666666666
121852078 1.0053009999999998 -0.022158666666666663
123337957 1.0090523333333332 -0.022668666666666663
124823836 1.0122743333333333 -0.023796666666666664
126309715 1.015823 -0.02319933333333333
127795594 1.0187353333333333 -0.023407333333333336
129281473 1.0216683333333332 -0.022807333333333332
130767352 1.02363 -0.023126999999999998
132253231 1.02577 -0.022892333333333334
133739110 1.0276636666666668 -0.022983999999999997
135224989 1.0138756666666664 -0.033459666666666665
136710868 1.0143559999999998 -0.033033
138196747 1.0140833333333332 -0.032346
139682626 1.013711 -0.031925666666666665
141168505 1.0126583333333332 -0.030841999999999998
142654384 1.0116906666666665 -0.030195666666666666
144140263 1.0091273333333333 -0.029498
145626142 1.0073923333333332 -0.02919833333333333
147112021 1.0047596666666667 -0.02786
148597900 1.0011486666666665 -0.02772433333333333
150083779 0.9983703333333334 -0.026964666666666665
151569658 1.0019956666666667 -0.027912999999999997
153055537 1.0053339999999997 -0.028975
154541416 1.0080533333333332 -0.028641
156027295 1.0109473333333334 -0.029611
157513174 1.0129843333333333 -0.029545333333333333
158999053 1.0143246666666665 -0.028952
160484932 1.015378333333333 -0.02962933333333333
161970811 1.0167286666666666 -0.029670000000000002
163456690 1.01715 -0.029640666666666666
164942569 1.017303 -0.030698666666666666
166428448 1.0176819999999998 -0.030352333333333332
167914327 1.0170403333333333 -0.029945
169400206 1.0151739999999998 -0.030188999999999997
170886085 1.0145086666666665 -0.03047233333333333
172371964 1.0122339999999999 -0.030983333333333335
173857843 1.0100963333333333 -0.030410999999999997
175343722 1.007820333333333 -0.03116266666666666
176829601 1.005851 -0.03147866666666666
178315480 1.0005603333333333 -0.038774666666666666
179801359 0.9941943333333333 -0.04542233333333333
181287238 1.0010306666666664 -0.03314233333333333
182773117 0.9906743333333333 -0.07025833333333334
184258996 1.006193 -0.040274
185744875 0.9678116666666666 -0.08928466666666668
187230754 1.012775 -0.033759
188716633 1.0067119999999998 -0.052377999999999994
190202512 1.0209493333333333 -0.02159866666666667
191688391 1.0253866666666667 -0.009221999999999998
193174270 1.0134446666666668 -0.05241633333333333
194660149 1.0191046666666665 -0.03395466666666667
196146028 1.0155316666666665 -0.046312
197631907 1.0186293333333332 -0.033066
199117786 1.0168013333333332 -0.03360166666666667
200603665 1.015887 -0.03314999999999999
202089544 1.0136623333333334 -0.033824999999999994
203575423 1.0118546666666666 -0.034358
205061302 1.0093489999999998 -0.03467866666666666
206547181 1.006506 -0.03548733333333333
208033060 1.0032306666666666 -0.03569299999999999
209518939 0.9989673333333334 -0.037166000000000005
211004818 1.001267 -0.03791933333333333
212490697 1.004385333333333 -0.03745633333333333
213976576 1.008515 -0.038353
215462455 1.0111423333333334 -0.038190666666666664
216948334 1.014152333333333 -0.038120666666666664
218434213 1.0170323333333333 -0.038049
219920092 1.017920333333333 -0.03746333333333333
221405971 1.0199336666666667 -0.03836266666666666
222891850 1.020801 -0.038489999999999996
224377729 1.0201213333333332 -0.03739
225863608 1.020588333333333 -0.03698533333333333
227349487 1.0204243333333332 -0.036975999999999995
228835366 1.0235946666666667 -0.02511633333333333
230321245 1.01748 -0.037346
231807124 1.0143866666666665 -0.038473999999999994
233293003 1.013577 -0.03842266666666666
234778882 1.0104503333333332 -0.03915833333333333
236264761 1.007641 -0.03957166666666666
237750640 1.0036416666666665 -0.040682333333333334
239236519 0.999727 -0.04238133333333333
240722398 0.9998156666666667 -0.04317333333333333
242208277 1.003879 -0.042975333333333324
243694156 1.0080269999999998 -0.04418866666666667
245180035 1.0116916666666667 -0.04382866666666666
246665914 1.0146093333333333 -0.043975
248151793 1.016619 -0.043937333333333335
249637672 1.0193916666666667 -0.04404266666666666
251123551 1.0211003333333333 -0.043999333333333335
252609430 1.021310333333333 -0.04411233333333332
254095309 1.0219693333333333 -0.044081666666666665
255581188 1.0217289999999999 -0.04419866666666667
257067067 1.0216083333333332 -0.04352466666666667
258552946 1.0202763333333333 -0.04427999999999999
260038825 1.0189766666666666 -0.044286666666666655
261524704 1.0173733333333335 -0.045225333333333326
263010583 1.0142799999999998 -0.045142999999999996
264496462 1.0104776666666666 -0.04685433333333333
265982341 1.0078233333333333 -0.04634566666666666
267468220 1.003912333333333 -0.047142666666666666
268954099 0.9997833333333334 -0.04859566666666666
270439978 0.9982449999999999 -0.049159999999999995
271925857 1.0034633333333334 -0.05068199999999999
273411736 1.0072496666666666 -0.051702
274897615 1.0111423333333331 -0.05109533333333333
276383494 1.0137206666666665 -0.052490999999999996
277869373 1.0168236666666666 -0.051801999999999994
279355252 1.0195253333333334 -0.05214266666666667
280841131 1.021086 -0.051374666666666666
282327010 1.0215223333333334 -0.051652
283812889 1.021779 -0.05124599999999999
285298768 1.0233136666666667 -0.05055
286784647 1.022644 -0.051192666666666664
288270526 1.021624 -0.04987733333333333
289756405 1.0200166666666668 -0.05109066666666667
291242284 1.0173683333333332 -0.05057766666666667
292728163 1.014653 -0.05059533333333333
294214042 1.012481 -0.05090366666666666
295699921 1.0082006666666667 -0.051471666666666666
297185800 1.0049629999999998 -0.05161933333333333
298671679 0.9998873333333334 -0.05209
300157558 0.9961656666666667 -0.05321033333333333
301643437 1.0017619999999998 -0.05474933333333333
303129316 1.006232 -0.05519666666666667
304615195 1.0099983333333333 -0.05698066666666666
306101074 1.0142129999999998 -0.056715999999999996
307586953 1.0169356666666665 -0.056441
309072832 1.0196429999999999 -0.05790399999999999
310558711 1.0213 -0.057065333333333336
312044590 1.0231759999999999 -0.057241999999999994
313530469 1.0234303333333332 -0.056797333333333325
315016348 1.0246976666666665 -0.056175333333333334
316502227 1.0251393333333332 -0.057280333333333336
317988106 1.023262 -0.05581166666666666
319473985 1.021433 -0.05646366666666667
320959864 1.0202273333333332 -0.05690633333333334
322445743 1.0176863333333332 -0.056355666666666665
323931622 1.01488 -0.05566566666666667
325417501 1.01017 -0.05517833333333333
326903380 1.0112143333333332 -0.04611533333333333
328389259 1.0058979999999997 -0.046420666666666666
329875138 0.9989869999999998 -0.051720999999999996
331361017 1.0010703333333333 -0.05933466666666666
332846896 1.0023836666666668 -0.07086999999999999
334332775 1.009481 -0.06226866666666667
335818654 1.0136973333333332 -0.062300999999999995
337304533 1.0162069999999999 -0.06372333333333333
338790412 1.0183666666666666 -0.06350633333333333
340276291 1.022120333333333 -0.05814799999999999
341762170 1.0233723333333333 -0.05907633333333332
343248049 1.0238866666666664 -0.06452033333333332
344733928 1.023156 -0.064326
346219807 1.0245513333333334 -0.06505733333333333
347705686 1.0225479999999998 -0.06422633333333333
349191565 1.0212733333333333 -0.06387566666666666
350677444 1.0192026666666667 -0.06438533333333332
352163323 1.0178683333333332 -0.06443933333333333
353649202 1.0136696666666665 -0.06359433333333332
355135081 1.0115616666666667 -0.064087
356620960 1.006897 -0.06471233333333333
358106839 1.001588 -0.06484566666666665
359592718 0.997267 -0.06543766666666667
361078597 0.9993986666666667 -0.06746633333333332
362564476 1.0036889999999998 -0.069367
364050355 1.006311 -0.07602466666666666
365536234 1.0110903333333332 -0.07091366666666667
367022113 1.013164 -0.07704733333333333
368507992 1.01689 -0.07267599999999999
369993871 1.0177586666666665 -0.07747833333333333
371479750 1.0216699999999999 -0.07266733333333333
372965629 1.020627333333333 -0.07917066666666667
374451508 1.0229406666666665 -0.07246766666666667
375937387 1.0208819999999998 -0.07860366666666667
377423266 1.0220163333333334 -0.07187933333333332
378909145 1.0187716666666669 -0.07794066666666667
380395024 1.0190056666666667 -0.07170399999999999
381880903 1.016128 -0.07112566666666666
383366782 1.013313 -0.070432
384852661 1.0105386666666667 -0.06992133333333334
386338540 1.0063863333333334 -0.07003699999999999
387824419 1.0019073333333335 -0.07010666666666666
389310298 0.9970583333333334 -0.070112
390796177 0.9975763333333334 -0.07056133333333334
392282056 1.0014343333333333 -0.07312199999999999
393767935 1.0050436666666667 -0.07509433333333333
395253814 1.0089006666666667 -0.07554366666666668
396739693 1.0113316666666665 -0.07693
398225572 1.0141683333333333 -0.07631600000000001
399711451 1.0157539999999998 -0.077289
401197330 1.0170366666666666 -0.07844566666666666
402683209 1.0183816666666665 -0.07777466666666666
404169088 1.0184586666666666 -0.07832833333333333
405654967 1.0187683333333333 -0.077934
407140846 1.0186469999999999 -0.07705633333333334
408626725 1.017464 -0.07718633333333333
410112604 1.015102333333333 -0.07582733333333333
411598483 1.0139773333333333 -0.07667466666666667
413084362 1.0111826666666666 -0.07685133333333333
414570241 1.0071933333333334 -0.07628766666666667
416056120 1.0045273333333333 -0.076835
417541999 1.0007826666666664 -0.07634866666666666
419027878 0.9953216666666667 -0.07663899999999998
420513757 0.994557 -0.07600766666666667
421999636 0.9988806666666666 -0.07866200000000001
423485515 1.0015783333333332 -0.078886
424971394 1.0048116666666667 -0.081146
426457273 1.0080683333333333 -0.08192666666666666
427943152 1.0108646666666665 -0.08300199999999999
429429031 1.0125229999999998 -0.08336266666666665
430914910 1.0139943333333332 -0.08247466666666667
432400789 1.0150206666666666 -0.08520866666666667
433886668 1.016099 -0.08425433333333333
435372547 1.0162846666666667 -0.08377699999999999
436858426 1.0160526666666665 -0.08305133333333332
438344305 1.015464333333333 -0.08316633333333333
439830184 1.01373 -0.08293600000000001
441316063 1.011881 -0.083553
442801942 1.0094846666666666 -0.08361566666666666
444287821 1.0069176666666666 -0.08316366666666665
445773700 1.004025 -0.08233766666666666
447259579 0.9996693333333333 -0.08307733333333334
448745458 0.9952276666666666 -0.08218066666666665
450231337 0.9921319999999999 -0.08348499999999999
451717216 0.9967159999999999 -0.08466499999999999
453203095 1.0004270000000002 -0.08567633333333333
454688974 1.0038803333333333 -0.086367
456174853 1.0058843333333334 -0.08859500000000001
457660732 1.0097476666666667 -0.087804
459146611 1.010589 -0.08854399999999998
460632490 1.0144363333333333 -0.08958533333333332
462118369 1.0136803333333333 -0.08973233333333333
463604248 1.0139506666666664 -0.08893666666666666
465090127 1.015629 -0.08959966666666666
466576006 1.0161793333333333 -0.08445066666666667
468061885 1.014128 -0.08880566666666667
469547764 1.0131816666666666 -0.08982333333333334
471033643 1.011311 -0.08840633333333332
472519522 1.009413 -0.08832133333333332
474005401 1.0072266666666667 -0.088723
475491280 1.0044423333333332 -0.08839866666666665
476977159 0.9965156666666666 -0.09786433333333333
478463038 1.102724 -0.07451766666666666
479948917 0.9918856666666667 -0.08775466666666666
481434796 0.9972556666666668 -0.08292933333333333
482920675 0.9951056666666667 -0.10203899999999999
484406554 0.9977183333333334 -0.10413133333333333
485892433 1.0058099999999999 -0.092831
487378312 1.008794 -0.09283766666666667
488864191 1.0084369999999998 -0.09918166666666667
490350070 1.0121723333333335 -0.09368499999999999
491835949 1.0129126666666666 -0.09469766666666668
493321828 1.0137933333333333 -0.09403466666666667
494807707 1.0183833333333334 -0.08289966666666666
496293586 1.0138673333333332 -0.09475366666666665
497779465 1.0121973333333332 -0.09387399999999999
499265344 1.012497 -0.094205
500751223 1.0101499999999999 -0.09449300000000001
502237102 1.0076613333333333 -0.09465599999999999
503722981 1.0063906666666664 -0.09336966666666666
505208860 1.0027429999999997 -0.09328933333333334
506694739 0.9988346666666665 -0.09412533333333334
508180618 0.9958266666666665 -0.09561133333333333
509666497 0.9921043333333334 -0.09522899999999998
511152376 0.9933763333333332 -0.095886
512638255 0.9979950000000001 -0.09661866666666666
514124134 1.0008203333333334 -0.09769266666666666
515610013 1.003956 -0.098385
517095892 1.0076826666666667 -0.09956466666666666
518581771 1.0103103333333332 -0.10033133333333333
520067650 1.012315 -0.10017666666666665
521553529 1.0124523333333333 -0.09995866666666665
523039408 1.0136500000000002 -0.09996633333333334
524525287 0.9990249999999998 -0.11152766666666666
526011166 1.014797 -0.09999066666666667
527497045 1.0132526666666666 -0.099408
528982924 1.0121766666666665 -0.09746433333333333
530468803 1.010816333333333 -0.09864999999999999
531954682 1.0073723333333333 -0.09956266666666665
533440561 1.0061103333333332 -0.10029433333333333
534926440 1.0026190000000001 -0.097711
536412319 0.9989636666666666 -0.09936400000000001
537898198 0.9956413333333334 -0.09953733333333332
539384077 0.9911936666666668 -0.09998033333333334
540869956 0.9920556666666667 -0.10067299999999998
542355835 0.9965919999999999 -0.10131833333333332
543841714 0.9997833333333334 -0.104471
545327593 1.0039596666666668 -0.105078
546813472 1.0070826666666666 -0.10516866666666666
548299351 1.0092823333333334 -0.10711266666666666
549785230 1.0116753333333333 -0.10710933333333333
551271109 1.0128113333333335 -0.10864966666666666
552756988 1.0146286666666664 -0.10989866666666666
554242867 1.0160263333333335 -0.108879
555728746 1.0147076666666666 -0.11013799999999999
557214625 1.016627 -0.109399
558700504 1.0153856666666665 -0.108872
560186383 1.0149766666666666 -0.10983866666666667
561672262 1.011811 -0.11091433333333334
563158141 1.009617 -0.11051
564644020 1.0078076666666667 -0.11060166666666667
566129899 1.004834 -0.11052933333333333
567615778 1.0008946666666665 -0.11157666666666666
569101657 0.9981329999999999 -0.112413
570587536 0.9969166666666667 -0.11221866666666666
572073415 1.0001903333333333 -0.11379433333333333
573559294 1.005173 -0.113108
575045173 1.009409 -0.11310266666666666
576531052 1.0129036666666666 -0.11554333333333333
578016931 1.0167226666666667 -0.11461733333333332
579502810 1.0193753333333333 -0.11345966666666665
580988689 1.0204656666666665 -0.11542666666666665
582474568 1.0217206666666665 -0.111041
583960447 1.0229849999999998 -0.11327100000000001
585446326 1.0241113333333332 -0.11222133333333334
586932205 1.0241686666666665 -0.11105166666666666
588418084 1.0232686666666666 -0.109826
589903963 1.0204923333333333 -0.11003266666666667
591389842 1.0186873333333333 -0.10920333333333333
592875721 1.0160259999999999 -0.10892133333333333
594361600 1.0140653333333334 -0.10700099999999999
595847479 1.010522 -0.10640933333333333
597333358 1.006284 -0.10634266666666665
598819237 1.0014439999999998 -0.10563333333333332
600305116 0.9980376666666666 -0.10591233333333333
601790995 1.0029476666666666 -0.10718466666666666
603276874 1.0055763333333332 -0.10739066666666666
604762753 1.0097223333333332 -0.10929633333333333
606248632 1.012174 -0.11027333333333333
607734511 1.0154423333333331 -0.111312
609220390 1.0166273333333333 -0.11116533333333331
610706269 1.0175936666666665 -0.11189366666666667
612192148 1.0188723333333334 -0.11206866666666666
613678027 1.0190116666666666 -0.11206533333333335
615163906 1.0181636666666667 -0.11182399999999999
616649785 1.0182723333333332 -0.11184466666666666
618135664 1.0173169999999998 -0.11212699999999999
619621543 1.0147933333333332 -0.11203266666666667
621107422 1.0124306666666665 -0.112231
622593301 1.010071 -0.11153033333333331
624079180 1.0059863333333334 -0.11398766666666667
625565059 1.0026713333333332 -0.11275566666666666
627050938 0.9963456666666666 -0.11768933333333333
628536817 1.0061646666666664 -0.08692266666666666
630022696 0.9891709999999999 -0.10026333333333333
631508575 0.9920473333333333 -0.11492966666666667
632994454 0.9931733333333332 -0.12242766666666666
634480333 1.0087056666666667 -0.10214599999999999
635966212 1.00719 -0.113519
637452091 1.0078976666666666 -0.114772
638937970 1.0126633333333332 -0.10976533333333334
640423849 1.0190213333333333 -0.106413
641909728 1.014849 -0.11656733333333333
643395607 1.0147680000000001 -0.11657966666666666
644881486 1.0085146666666664 -0.13412833333333332
