# HZ S RI R 50
10000 0.9229979999999999 -0.10352233333333333
1495879 0.9067806666666667 1.072659
2981758 0.577801 0.6874376666666667
4467637 0.5806526666666666 0.32599500000000003
5953516 0.65057 0.13687933333333333
7439395 0.7432446666666667 0.011526333333333333
8925274 1.0589966666666666 -0.06106433333333333
10411153 1.0968479999999998 0.03868966666666667
11897032 1.0826133333333334 0.16989933333333332
13382911 1.0132653333333332 0.29174700000000003
14868790 0.9091823333333333 0.37764800000000004
16354669 0.797341 0.4224056666666667
17840548 0.6939436666666667 0.43474666666666667
19326427 0.605785 0.42689466666666664
20812306 0.5338963333333334 0.408379
22298185 0.4756553333333333 0.3841113333333333
23784064 0.428677 0.357845
25269943 0.39069366666666666 0.33183599999999996
26755822 0.359866 0.307001
28241701 0.33418600000000004 0.28340133333333334
29727580 0.3128703333333333 0.26176266666666664
31213459 0.32232933333333336 0.24581233333333333
32699338 0.3391706666666667 0.23160499999999998
34185217 0.35443566666666665 0.21769800000000003
35671096 0.36913033333333334 0.20189366666666664
37156975 0.3840056666666667 0.18247366666666665
38642854 0.39796000000000004 0.165459
40128733 0.41156866666666664 0.14253100000000002
41614612 0.424178 0.13018366666666667
43100491 0.437144 0.10787566666666666
44586370 0.45016933333333337 0.089455
46072249 0.4636660000000001 0.065321
47558128 0.4777656666666667 0.048266333333333335
49044007 0.4936846666666666 0.030364
50529886 0.5120223333333334 0.015318666666666666
52015765 0.5334596666666668 -0.014787333333333333
53501644 0.561479 -0.03478966666666666
54987523 0.5985543333333333 -0.06180033333333334
56473402 0.6503383333333334 -0.102516
57959281 0.7371876666666667 -0.12278366666666667
59445160 0.8947843333333334 -0.11107066666666666
60931039 0.9922529999999999 -0.08765833333333332
62416918 0.9946613333333333 -0.097719
63902797 0.9966313333333333 -0.10823566666666666
65388676 0.9995053333333334 -0.11869133333333333
66874555 1.0017500000000001 -0.11586866666666666
68360434 0.9913276666666667 -0.20134633333333332
69846313 1.0074383333333332 -0.095707
71332192 1.008494 -0.09134633333333332
72818071 1.0056116666666666 -0.13673
74303950 1.0066346666666668 -0.1288193333333333
75789829 1.01281 -0.06265333333333334
77275708 1.0109679999999999 -0.073759
78761587 1.0106616666666666 -0.06790766666666667
80247466 0.9955729999999999 -0.18511933333333333
81733345 1.0021366666666667 -0.13867466666666667
83219224 0.9974633333333335 -0.14998233333333333
84705103 0.9914853333333333 -0.1765496666666667
86190982 1.0004823333333335 -0.05287466666666666
87676861 0.985091 -0.17002833333333334
89162740 0.9843653333333333 -0.14555099999999999
90648619 0.98066 -0.16462966666666667
92134498 0.9849960000000001 -0.164058
93620377 0.992452 -0.13380799999999998
95106256 0.9907493333333334 -0.16074666666666668
96592135 0.9920126666666667 -0.16173233333333334
98078014 0.9948493333333334 -0.15874333333333332
99563893 0.9976060000000001 -0.15671833333333332
101049772 0.9976476666666666 -0.17038733333333334
102535651 0.9960603333333333 -0.17376566666666668
104021530 0.9973280000000001 -0.17486533333333334
105507409 0.9970823333333333 -0.17764933333333333
106993288 0.995375 -0.18012899999999998
108479167 0.9958493333333335 -0.18154700000000001
109965046 0.9935053333333334 -0.182127
111450925 0.9903203333333334 -0.18474300000000002
112936804 0.9884046666666667 -0.18527766666666667
114422683 0.9855933333333334 -0.18561033333333335
115908562 0.9833176666666666 -0.18841866666666665
117394441 0.9791216666666666 -0.1902086666666667
118880320 0.9749703333333333 -0.19130433333333333
120366199 0.9726026666666666 -0.19275399999999998
121852078 0.9772076666666667 -0.19611766666666666
123337957 0.9793750000000001 -0.19990133333333335
124823836 0.9831076666666666 -0.20289533333333332
126309715 0.9851623333333333 -0.20519366666666664
127795594 0.9882333333333332 -0.20808633333333335
129281473 0.9899726666666666 -0.2115503333333333
130767352 0.991988 -0.21446900000000002
132253231 0.993559 -0.21591533333333332
133739110 0.9947503333333333 -0.21780600000000003
135224989 0.9772276666666667 -0.22838766666666666
136710868 0.9770053333333334 -0.23019900000000001
138196747 0.9762273333333334 -0.23152566666666666
139682626 0.9757776666666667 -0.23321599999999998
141168505 0.974552 -0.23441566666666666
142654384 0.9733456666666666 -0.23634166666666667
144140263 0.970278 -0.23703966666666668
145626142 0.9676106666666667 -0.238734
147112021 0.9654276666666667 -0.23970433333333332
148597900 0.9621993333333333 -0.24070900000000003
150083779 0.9578920000000001 -0.241139
151569658 0.9606683333333335 -0.24460800000000002
153055537 0.9638383333333334 -0.24763733333333335
154541416 0.9659103333333334 -0.25126333333333334
156027295 0.9677596666666668 -0.25308200000000003
157513174 0.9692333333333334 -0.2559646666666667
158999053 0.9707163333333334 -0.258253
160484932 0.9710533333333333 -0.260216
161970811 0.9714086666666667 -0.2630676666666667
163456690 0.9711943333333334 -0.26497966666666667
164942569 0.9713846666666667 -0.266824
166428448 0.9702959999999999 -0.26830366666666666
167914327 0.9693616666666666 -0.27116466666666666
169400206 0.9674233333333332 -0.27195733333333333
170886085 0.9645296666666666 -0.273934
172371964 0.9600473333333334 -0.2811143333333333
173857843 0.9603619999999999 -0.27796333333333334
175343722 0.956878 -0.27815633333333334
176829601 0.9529380000000001 -0.2808043333333333
178315480 0.949264 -0.2824316666666667
179801359 0.9443070000000001 -0.28476066666666666
181287238 0.9463023333333335 -0.28747666666666666
182773117 0.9486556666666667 -0.2907153333333333
184258996 0.952153 -0.29338033333333335
185744875 0.953544 -0.2960716666666667
187230754 0.9553716666666666 -0.29832566666666666
188716633 0.9562653333333334 -0.301433
190202512 0.9568746666666668 -0.3042116666666667
191688391 0.9600459999999998 -0.30060766666666666
193174270 0.9569946666666667 -0.30851366666666663
194660149 0.9572646666666667 -0.31010133333333334
196146028 0.9562050000000001 -0.3116756666666667
197631907 0.9550673333333334 -0.313846
199117786 0.9523553333333333 -0.31565133333333334
200603665 0.9502793333333334 -0.31729466666666667
202089544 0.9480556666666665 -0.319558
203575423 0.9453973333333333 -0.3211276666666667
205061302 0.9414106666666666 -0.32281033333333337
206547181 0.936909 -0.324752
208033060 0.9334033333333333 -0.32633566666666664
209518939 0.9279306666666667 -0.3293123333333334
211004818 0.9284666666666667 -0.3317033333333333
212490697 0.9317506666666667 -0.33485366666666666
213976576 0.9343316666666667 -0.3382133333333333
215462455 0.9366009999999999 -0.340942
216948334 0.9383943333333332 -0.34308266666666665
218434213 0.9394986666666667 -0.34614933333333336
219920092 0.9399723333333334 -0.34902866666666665
221405971 0.9416163333333333 -0.35011533333333333
222891850 0.9413309999999999 -0.3530793333333333
224377729 0.9400313333333333 -0.355084
225863608 0.9399099999999999 -0.35704800000000003
227349487 0.938529 -0.35847366666666663
228835366 0.9367420000000001 -0.35937066666666667
230321245 0.9325973333333334 -0.36191700000000004
231807124 0.931797 -0.36321266666666663
233293003 0.9268413333333333 -0.3649073333333333
234778882 0.923115 -0.3659063333333334
236264761 0.8797100000000001 -0.38332266666666664
237750640 0.9144723333333333 -0.36954399999999993
239236519 0.908759 -0.3713956666666667
240722398 0.9082843333333334 -0.3737203333333334
242208277 0.9106399999999999 -0.3772236666666667
243694156 0.9137526666666668 -0.38069366666666665
245180035 0.915865 -0.384318
246665914 0.9171360000000001 -0.3877543333333333
248151793 0.9190969999999999 -0.38914733333333335
249637672 0.9206116666666667 -0.39111333333333337
251123551 0.9208723333333334 -0.394326
252609430 0.92057 -0.39628199999999997
254095309 0.9204053333333334 -0.3981193333333333
255581188 0.919537 -0.399292
257067067 0.9177326666666666 -0.4004466666666667
258552946 0.9159246666666667 -0.40265966666666664
260038825 0.913242 -0.40377599999999997
261524704 0.9099573333333333 -0.40528766666666666
263010583 0.9062903333333333 -0.40690833333333326
264496462 0.9026200000000001 -0.4068426666666667
265982341 0.8983099999999999 -0.4086823333333333
267468220 0.893781 -0.4088513333333333
268954099 0.887935 -0.41037366666666664
270439978 0.88471 -0.41320399999999996
271925857 0.887193 -0.4158376666666667
273411736 0.8900049999999999 -0.4221453333333333
274897615 0.8930496666666667 -0.424838
276383494 0.8937166666666667 -0.4284843333333333
277869373 0.8956219999999999 -0.4308123333333333
279355252 0.896826 -0.43310866666666664
280841131 0.8975546666666666 -0.4364996666666667
282327010 0.8973233333333334 -0.4371126666666667
283812889 0.896639 -0.4401536666666667
285298768 0.89595 -0.44210666666666665
286784647 0.8951603333333332 -0.4436563333333334
288270526 0.8934553333333333 -0.44395266666666666
289756405 0.8901046666666667 -0.44575633333333337
291242284 0.887295 -0.44663533333333333
292728163 0.8839866666666666 -0.44792733333333334
294214042 0.8807126666666667 -0.44844
295699921 0.875397 -0.4496883333333333
297185800 0.8708873333333335 -0.44992933333333335
298671679 0.866445 -0.450702
300157558 0.8605453333333334 -0.4515073333333333
301643437 0.8635619999999999 -0.45462800000000003
303129316 0.8665923333333333 -0.45982233333333333
304615195 0.8679886666666667 -0.4637576666666667
306101074 0.870003 -0.46675633333333333
307586953 0.8706716666666666 -0.470334
309072832 0.8722203333333334 -0.47326633333333334
310558711 0.8738533333333333 -0.47535999999999995
312044590 0.8729173333333332 -0.4779583333333333
313530469 0.8716753333333332 -0.47980766666666663
315016348 0.87181 -0.4822686666666667
316502227 0.8707306666666668 -0.48312099999999997
317988106 0.8693203333333334 -0.483624
319473985 0.8665430000000001 -0.48452466666666666
320959864 0.8639473333333333 -0.48443600000000003
322445743 0.86074 -0.48648933333333333
323931622 0.8567223333333334 -0.4860663333333333
325417501 0.8501463333333333 -0.4902686666666667
326903380 0.8481746666666666 -0.48577
328389259 0.8428536666666666 -0.4848173333333334
329875138 0.8337883333333332 -0.4887896666666666
331361017 0.8319283333333334 -0.4997226666666666
332846896 0.8403976666666667 -0.4946756666666667
334332775 0.8420266666666666 -0.49827166666666667
335818654 0.8501610000000001 -0.49372466666666676
337304533 0.8428443333333333 -0.5045556666666667
338790412 0.8443033333333334 -0.508209
340276291 0.8438970000000001 -0.5113449999999999
341762170 0.8439603333333333 -0.5136083333333333
343248049 0.843142 -0.5148716666666666
344733928 0.8414463333333333 -0.517148
346219807 0.8412783333333334 -0.5177753333333334
347705686 0.8388013333333334 -0.5193813333333334
349191565 0.8371623333333332 -0.5196839999999999
350677444 0.8338753333333333 -0.5204909999999999
352163323 0.83075 -0.5220313333333334
353649202 0.8263606666666666 -0.52012
355135081 0.8225996666666666 -0.5215816666666666
356620960 0.8179983333333333 -0.5205296666666667
358106839 0.8120789999999999 -0.5210343333333333
359592718 0.8058973333333332 -0.520616
361078597 0.8063673333333333 -0.5233786666666668
362564476 0.8079546666666667 -0.527876
364050355 0.8089529999999999 -0.532128
365536234 0.8103723333333331 -0.5355786666666666
367022113 0.8115683333333333 -0.5391783333333333
368507992 0.8128463333333333 -0.5424056666666667
369993871 0.812598 -0.5447196666666666
371479750 0.8124766666666666 -0.5478966666666666
372965629 0.812122 -0.549684
374451508 0.7867203333333332 -0.5592693333333334
375937387 0.8104623333333333 -0.5520733333333333
377423266 0.8089273333333334 -0.5528810000000001
378909145 0.806292 -0.5535709999999999
380395024 0.8041723333333333 -0.5544523333333333
381880903 0.801765 -0.55456
383366782 0.7978393333333335 -0.5538806666666667
384852661 0.8031856666666667 -0.5460929999999999
386338540 0.7909736666666666 -0.553519
387824419 0.7861206666666667 -0.5526546666666666
389310298 0.780893 -0.551392
390796177 0.7804136666666667 -0.5535559999999999
392282056 0.7809766666666667 -0.5587096666666667
393767935 0.781514 -0.562398
395253814 0.783184 -0.5664953333333334
396739693 0.7830339999999999 -0.5689156666666667
398225572 0.7843373333333333 -0.5714293333333335
399711451 0.7837543333333333 -0.5744833333333333
401197330 0.787868 -0.573136
402683209 0.7798196666666666 -0.5831526666666668
404169088 0.7857036666666666 -0.576632
405654967 0.7771136666666667 -0.5859070000000001
407140846 0.7827713333333334 -0.5783043333333334
408626725 0.7739760000000001 -0.588237
410112604 0.7792213333333332 -0.5797596666666668
411598483 0.7690313333333334 -0.5889490000000001
413084362 0.7735256666666667 -0.5793783333333333
414570241 0.762709 -0.5872850000000001
416056120 0.7668883333333333 -0.5777786666666667
417541999 0.7543973333333334 -0.5857910000000001
419027878 0.7582643333333333 -0.5762633333333333
420513757 0.7471223333333333 -0.5854036666666667
421999636 0.7558693333333334 -0.581951
423485515 0.7479563333333333 -0.5959136666666666
424971394 0.7573643333333333 -0.5901890000000001
426457273 0.7497343333333334 -0.6015973333333333
427943152 0.7583753333333334 -0.596003
429429031 0.749864 -0.6077446666666667
430914910 0.757227 -0.5999176666666667
432400789 0.7482730000000001 -0.6116833333333334
433886668 0.7555573333333333 -0.6041663333333334
435372547 0.7457920000000001 -0.6138253333333333
436858426 0.7536339999999999 -0.6071746666666666
438344305 0.7424106666666667 -0.616107
439830184 0.747725 -0.6086516666666667
441316063 0.738858 -0.6165123333333332
442801942 0.7442323333333333 -0.609269
444287821 0.7391276666666666 -0.6082673333333334
445773700 0.7313493333333332 -0.6114066666666667
447259579 0.7276143333333334 -0.610333
448745458 0.7230316666666666 -0.609744
450231337 0.7204723333333334 -0.60996
451717216 0.7207256666666666 -0.6128416666666667
453203095 0.7230703333333333 -0.6174866666666666
454688974 0.7232723333333334 -0.6214176666666666
456174853 0.7223043333333333 -0.6245246666666667
457660732 0.7237953333333333 -0.6267893333333333
459146611 0.722824 -0.6289536666666667
460632490 0.7235263333333334 -0.630475
462118369 0.7221510000000001 -0.6342116666666667
463604248 0.7210503333333333 -0.6348663333333333
465090127 0.7204596666666667 -0.6357103333333334
466576006 0.7181856666666667 -0.6370003333333333
468061885 0.7178939999999999 -0.635326
469547764 0.715681 -0.6358463333333333
471033643 0.7118063333333334 -0.6360893333333334
472519522 0.7094876666666666 -0.6357793333333334
474005401 0.7053723333333334 -0.6364713333333333
475491280 0.7031986666666666 -0.6345176666666666
476977159 0.6994003333333333 -0.632788
478463038 0.6943176666666666 -0.6329193333333333
479948917 0.6899743333333332 -0.6314186666666667
481434796 0.6907593333333333 -0.635713
482920675 0.690711 -0.6392343333333333
484406554 0.6925663333333333 -0.6426580000000001
485892433 0.6932616666666666 -0.6463303333333333
487378312 0.6937009999999999 -0.6485386666666667
488864191 0.693403 -0.6509153333333333
490350070 0.6944020000000001 -0.6524036666666667
491835949 0.6938093333333333 -0.6549699999999999
493321828 0.7020526666666665 -0.6496429999999999
494807707 0.6918233333333333 -0.6575543333333335
496293586 0.6906453333333333 -0.6580833333333334
497779465 0.6871713333333332 -0.6596380000000001
499265344 0.685705 -0.6585463333333333
500751223 0.684309 -0.6585593333333333
502237102 0.6803783333333334 -0.6584476666666667
503722981 0.677782 -0.657424
505208860 0.6744726666666666 -0.6572436666666667
506694739 0.6708509999999999 -0.656899
508180618 0.667163 -0.6550973333333334
509666497 0.661075 -0.6541806666666666
511152376 0.6609116666666667 -0.6573986666666667
512638255 0.6623676666666667 -0.6608016666666666
514124134 0.663313 -0.664788
515610013 0.664427 -0.668449
517095892 0.664905 -0.6708943333333334
518581771 0.664594 -0.6726953333333334
520067650 0.6641993333333334 -0.6755230000000001
521553529 0.6645340000000001 -0.6776213333333333
523039408 0.6641606666666667 -0.6780103333333333
524525287 0.662107 -0.6787523333333333
526011166 0.6604543333333334 -0.6809303333333334
527497045 0.6587563333333333 -0.6797893333333334
528982924 0.6573506666666667 -0.680972
530468803 0.655486 -0.6802493333333333
531954682 0.6519793333333334 -0.679949
533440561 0.6479929999999999 -0.6803903333333334
534926440 0.6447813333333333 -0.6790596666666667
536412319 0.6402156666666667 -0.6778620000000001
537898198 0.6365593333333333 -0.6762610000000001
539384077 0.6325276666666667 -0.674638
540869956 0.6308590000000001 -0.6747826666666666
542355835 0.6313559999999999 -0.6798709999999999
543841714 0.6330726666666666 -0.6823233333333333
545327593 0.6345353333333333 -0.6853686666666667
546813472 0.63495 -0.6852713333333332
548299351 0.635484 -0.6888663333333334
549785230 0.6360963333333333 -0.689652
551271109 0.6362433333333334 -0.6908393333333334
552756988 0.635247 -0.6914746666666667
554242867 0.635112 -0.6900556666666665
555728746 0.6326736666666667 -0.6916656666666666
557214625 0.6325546666666667 -0.6908436666666667
558700504 0.6296700000000001 -0.689261
560186383 0.6275556666666667 -0.6878446666666665
561672262 0.6257466666666667 -0.6845366666666667
563158141 0.622769 -0.6843859999999999
564644020 0.6185963333333332 -0.6825253333333333
566129899 0.615747 -0.680168
567615778 0.6107166666666667 -0.6784916666666666
569101657 0.6069083333333333 -0.6751473333333333
570587536 0.604153 -0.6759773333333333
572073415 0.6037056666666666 -0.6811759999999999
573559294 0.6038883333333334 -0.685441
575045173 0.6024576666666666 -0.689927
576531052 0.6029966666666666 -0.6936133333333334
578016931 0.602699 -0.6962160000000001
579502810 0.6013266666666667 -0.700113
580988689 0.6005333333333334 -0.7039643333333334
582474568 0.599035 -0.705241
583960447 0.596828 -0.7075403333333333
585446326 0.5951606666666667 -0.709366
586932205 0.5929380000000001 -0.709352
588418084 0.590629 -0.712094
589903963 0.5874896666666666 -0.7123323333333333
591389842 0.585163 -0.7131096666666666
592875721 0.5824333333333334 -0.7114889999999999
594361600 0.5795566666666667 -0.712738
595847479 0.5746829999999999 -0.7123676666666667
597333358 0.5700823333333334 -0.7106496666666667
598819237 0.5654226666666667 -0.7092186666666667
600305116 0.5610879999999999 -0.710538
601790995 0.5624986666666666 -0.714445
603276874 0.5653386666666668 -0.71764
604762753 0.5629053333333333 -0.72341
606248632 0.5642130000000001 -0.7261823333333334
607734511 0.5639173333333333 -0.7282583333333333
609220390 0.5642896666666667 -0.7322146666666667
610706269 0.563139 -0.7335606666666666
612192148 0.5632256666666666 -0.7350486666666667
613678027 0.5616173333333333 -0.7370553333333333
615163906 0.561608 -0.7363703333333333
616649785 0.5599166666666667 -0.737072
618135664 0.5578833333333333 -0.7377140000000001
619621543 0.557111 -0.7373873333333334
621107422 0.554563 -0.735866
622593301 0.5520146666666667 -0.7341276666666667
624079180 0.557882 -0.72985
625565059 0.5457553333333333 -0.7331110000000001
627050938 0.5418366666666666 -0.730918
628536817 0.5385483333333333 -0.7275870000000001
630022696 0.5347529999999999 -0.725477
631508575 0.5344986666666668 -0.7306683333333334
632994454 0.536312 -0.7319566666666667
634480333 0.5370296666666666 -0.7378416666666666
635966212 0.5361443333333333 -0.7414519999999999
637452091 0.5365356666666666 -0.7434916666666666
638937970 0.534853 -0.7461976666666666
640423849 0.5354483333333334 -0.748367
641909728 0.534769 -0.748669
643395607 0.5347746666666667 -0.7513223333333334
644881486 0.532072 -0.7519546666666667
646367365 0.5327113333333333 -0.7519713333333332
647853244 0.5310896666666666 -0.7514353333333333
649339123 0.538628 -0.7470006666666666
650825002 0.5272259999999999 -0.7499310000000001
652310881 0.5265883333333333 -0.7484366666666666
653796760 0.520956 -0.7472810000000001
655282639 0.5193523333333333 -0.7450346666666666
656768518 0.514974 -0.7427480000000001
658254397 0.5127743333333333 -0.7400500000000001
659740276 0.5080753333333333 -0.7382596666666666
