# HZ S RI R 50
10000 0.8310176666666667 -0.26426933333333325
1495879 2.8686786666666664 -2.2289383333333332
2981758 2.4726529999999998 -3.3590819999999995
4467637 1.2596976666666664 -2.2947946666666668
5953516 0.31080599999999997 -1.653120333333333
7439395 -0.11300533333333332 -1.1595923333333333
8925274 -0.4601376666666666 -0.37101166666666663
10411153 -0.43820366666666666 -0.24386999999999998
11897032 -0.40054633333333334 -0.13951966666666665
13382911 -0.35366 -0.058018
14868790 -0.303809 0.003916666666666666
16354669 -0.25447866666666663 0.05006633333333333
17840548 -0.2076636666666667 0.08381066666666666
19326427 -0.16443966666666665 0.107955
20812306 -0.12493833333333333 0.12479433333333334
22298185 -0.08926133333333333 0.13607533333333333
23784064 -0.057147666666666666 0.14319466666666664
25269943 -0.028293 0.14713833333333332
26755822 -0.002392 0.14861466666666667
28241701 0.02083133333333333 0.14821633333333334
29727580 0.041744666666666666 0.14649366666666666
31213459 0.06001399999999999 0.16191166666666668
32699338 0.08004233333333333 0.18367333333333336
34185217 0.10255633333333332 0.20750133333333334
35671096 0.12876833333333332 0.23422066666666666
37156975 0.159935 0.26434333333333326
38642854 0.19489066666666668 0.296488
40128733 0.23927933333333332 0.33240366666666665
41614612 0.28318766666666667 0.3673989999999999
43100491 0.3424636666666667 0.40551266666666663
44586370 0.408138 0.4410593333333333
46072249 0.49043266666666663 0.47279099999999996
47558128 0.5753746666666666 0.4950553333333333
49044007 0.668463 0.5034393333333333
50529886 0.761366 0.49532699999999996
52015765 0.8759646666666666 0.45221066666666665
53501644 0.9582466666666667 0.3907953333333333
54987523 1.0254773333333331 0.2994793333333333
56473402 1.0686963333333332 0.17116566666666666
57959281 1.056593 0.07564966666666667
59445160 1.0169366666666666 0.013268666666666666
60931039 1.0000796666666665 -0.0035433333333333332
62416918 1.0039770000000001 -0.011900999999999998
63902797 1.007256 -0.019997
65388676 1.0098996666666666 -0.028158999999999997
66874555 1.0130193333333333 -0.022514999999999997
68360434 1.0103776666666668 -0.10583433333333332
69846313 1.016049 0.0020606666666666664
71332192 1.0167333333333333 0.008190666666666666
72818071 1.0188376666666665 -0.035208666666666666
74303950 1.018729 -0.025737333333333334
75789829 1.0169743333333332 0.04248066666666667
77275708 1.017240333333333 0.03452366666666666
78761587 1.0161643333333332 0.040995666666666666
80247466 1.0147656666666667 -0.073602
81733345 1.0147296666666668 -0.024916333333333332
83219224 1.0117816666666668 -0.035138
84705103 1.0088823333333332 -0.05942
86190982 1.0029849999999998 0.06543966666666666
87676861 1.0021773333333333 -0.04914266666666667
89162740 0.9996216666666667 -0.023850333333333334
90648619 0.9980880000000001 -0.04078
92134498 1.0016889999999998 -0.038437
93620377 1.0046276666666665 -0.00499
95106256 1.0072266666666665 -0.031705333333333335
96592135 1.009919 -0.028948666666666668
98078014 1.0118989999999999 -0.023203666666666664
99563893 1.0142723333333334 -0.018528666666666666
101049772 1.015841 -0.031867999999999994
102535651 1.015463 -0.03213
104021530 1.0167793333333333 -0.03227633333333333
105507409 1.0167493333333333 -0.031571666666666665
106993288 1.0169476666666666 -0.03192933333333332
108479167 1.0156763333333334 -0.03206966666666666
109965046 1.0142506666666664 -0.031791333333333324
111450925 1.013029 -0.030621666666666665
112936804 1.0119756666666666 -0.03075366666666667
114422683 1.0084506666666666 -0.030368999999999997
115908562 1.005153 -0.030470999999999998
117394441 1.0024253333333333 -0.030555666666666665
118880320 0.9986276666666667 -0.029354333333333333
120366199 0.9957163333333333 -0.030437
121852078 1.0005663333333332 -0.031134
123337957 1.0046546666666667 -0.031459
124823836 1.007787 -0.03203433333333333
126309715 1.0112199999999998 -0.032608
127795594 1.0153693333333333 -0.03246566666666667
129281473 1.0173633333333332 -0.03228866666666667
130767352 1.0197079999999998 -0.03211666666666666
132253231 1.0212456666666667 -0.03181199999999999
133739110 1.0234193333333332 -0.03075433333333333
135224989 1.0095076666666665 -0.043333666666666666
136710868 1.009631 -0.04276766666666666
138196747 1.0094916666666667 -0.042637999999999995
139682626 1.0089063333333332 -0.041748999999999994
141168505 1.0075896666666666 -0.04079266666666666
142654384 1.0068016666666666 -0.040598
144140263 1.0043276666666667 -0.03915533333333333
145626142 1.00185 -0.03879833333333333
147112021 0.9983803333333332 -0.04415
148597900 0.9968166666666667 -0.03734866666666667
150083779 0.99343 -0.03737233333333333
151569658 0.9965116666666667 -0.03876533333333333
153055537 0.9999149999999999 -0.038869666666666663
154541416 1.0024783333333331 -0.03932166666666667
156027295 1.0053893333333332 -0.03984466666666667
157513174 1.0071133333333333 -0.040316
158999053 1.007911 -0.04096933333333333
160484932 1.009678 -0.04101733333333333
161970811 1.011162 -0.040509666666666666
163456690 1.0114003333333335 -0.04049699999999999
164942569 1.0112756666666667 -0.04134566666666667
166428448 1.0118456666666664 -0.04186366666666667
167914327 1.0113940000000001 -0.04147133333333333
169400206 1.0094446666666665 -0.041057333333333335
170886085 1.0078179999999999 -0.042049333333333334
172371964 1.0062713333333333 -0.041868666666666665
173857843 0.9926219999999999 -0.07255633333333333
175343722 1.0014343333333333 -0.04278266666666666
176829601 0.9982433333333334 -0.043121
178315480 0.996177 -0.03744
179801359 0.991593 -0.04419533333333332
181287238 0.9941386666666665 -0.045340666666666654
182773117 0.9979953333333335 -0.03924
184258996 1.0041073333333332 -0.033336
185744875 0.9998596666666666 -0.05853666666666666
187230754 0.9986769999999999 -0.06471433333333333
188716633 1.0150176666666666 -0.021392333333333333
190202512 1.0077973333333332 -0.05217433333333333
191688391 1.0062846666666667 -0.058773
193174270 1.0073973333333333 -0.058668
194660149 1.0137433333333332 -0.04022133333333333
196146028 1.0116636666666667 -0.045795333333333334
197631907 1.0068276666666665 -0.05177333333333334
199117786 1.0052513333333333 -0.05827966666666666
200603665 1.0075786666666666 -0.04649133333333333
202089544 1.006016 -0.04717133333333333
203575423 1.0038813333333332 -0.047788
205061302 1.001039 -0.048336
206547181 0.9978676666666667 -0.048949999999999994
208033060 0.9945773333333332 -0.049502
209518939 0.9907093333333333 -0.050272
211004818 0.9920876666666666 -0.05037066666666666
212490697 0.9965253333333333 -0.05170066666666667
213976576 0.999757 -0.05155666666666667
215462455 1.002396 -0.051221666666666665
216948334 1.0049863333333333 -0.052400666666666665
218434213 1.0071286666666666 -0.05163933333333333
219920092 1.0101553333333333 -0.04586933333333333
221405971 1.0101463333333331 -0.05211666666666666
222891850 1.0112586666666668 -0.052108999999999996
224377729 1.01169 -0.05256466666666666
225863608 1.0113949999999998 -0.05163833333333333
227349487 1.0535183333333333 -0.011758333333333332
228835366 1.0104276666666667 -0.052183999999999994
230321245 1.00721 -0.05224933333333333
231807124 1.0059123333333333 -0.052495999999999994
233293003 1.0026926666666665 -0.053467999999999995
234778882 0.9999043333333333 -0.054065
236264761 0.997302 -0.054689999999999996
237750640 0.9926183333333333 -0.055777333333333325
239236519 0.9889009999999999 -0.056775333333333323
240722398 0.9894643333333333 -0.05769766666666666
242208277 0.9929673333333332 -0.058235999999999996
243694156 0.9969113333333333 -0.05838633333333333
245180035 1.0004473333333332 -0.05846666666666667
246665914 1.0030796666666666 -0.058755
248151793 1.0057543333333332 -0.059161
249637672 1.0075736666666666 -0.059254
251123551 1.0092953333333332 -0.059068666666666665
252609430 1.0104726666666666 -0.05948866666666667
254095309 1.0104383333333333 -0.05864866666666666
255581188 1.0096319999999999 -0.05878366666666666
257067067 1.0094036666666666 -0.059258333333333336
258552946 1.008232 -0.058996
260038825 1.0066953333333333 -0.05929266666666666
261524704 1.0046483333333334 -0.060472666666666675
263010583 1.0020253333333333 -0.060358333333333326
264496462 0.9986973333333333 -0.060911
265982341 0.995481 -0.061614
267468220 0.9909356666666667 -0.062648
268954099 0.9868613333333333 -0.06383866666666665
270439978 0.9851636666666668 -0.06495966666666667
271925857 0.9901749999999999 -0.065804
273411736 0.9940026666666666 -0.06577466666666666
274897615 0.9971359999999999 -0.06661366666666667
276383494 1.000896 -0.06665499999999999
277869373 1.0041026666666666 -0.06684399999999999
279355252 1.005021333333333 -0.06710533333333332
280841131 1.0083986666666664 -0.06147166666666666
282327010 1.0076246666666666 -0.066806
283812889 1.0101663333333333 -0.060217666666666655
285298768 1.0086656666666665 -0.07201166666666667
286784647 1.0095553333333331 -0.060363
288270526 1.00606 -0.07210566666666665
289756405 1.0072969999999999 -0.06003633333333334
291242284 1.0029346666666665 -0.071716
292728163 1.002961 -0.05981033333333333
294214042 0.9966166666666665 -0.072158
295699921 0.9961733333333332 -0.06105333333333333
297185800 0.989392 -0.07302066666666665
298671679 0.9862933333333332 -0.062324
300157558 0.9811366666666667 -0.06988533333333333
301643437 0.986207 -0.07093866666666666
303129316 0.9913099999999999 -0.07135233333333332
304615195 0.9948016666666667 -0.07255233333333333
306101074 0.9987813333333333 -0.07311833333333334
307586953 1.0020146666666665 -0.07319733333333332
309072832 1.003717 -0.07345233333333334
310558711 1.0059096666666667 -0.07380766666666666
312044590 1.0067523333333332 -0.07401466666666667
313530469 1.0082696666666666 -0.07355099999999999
315016348 1.008526 -0.07277733333333333
316502227 1.006772 -0.07393699999999999
317988106 1.0055990000000001 -0.07338066666666666
319473985 1.0045776666666666 -0.07243033333333333
320959864 1.0038913333333332 -0.07219366666666666
322445743 1.0001036666666665 -0.07267566666666667
323931622 0.9975503333333333 -0.07281433333333333
325417501 0.9902066666666666 -0.08347466666666666
326903380 0.9909113333333333 -0.07221699999999999
328389259 0.9865536666666667 -0.06845366666666666
329875138 0.9798053333333333 -0.07419833333333332
331361017 0.9908446666666666 -0.053996999999999996
332846896 0.991043 -0.06549666666666666
334332775 0.9949593333333333 -0.06667866666666666
335818654 0.9965503333333334 -0.07352933333333334
337304533 1.0049686666666666 -0.07017899999999999
338790412 1.000704 -0.07926733333333333
340276291 1.0055066666666668 -0.06930733333333333
341762170 1.0073849999999998 -0.06964366666666666
343248049 1.0034033333333332 -0.08095433333333332
344733928 1.0047186666666665 -0.08099033333333333
346219807 1.003113 -0.08091633333333333
347705686 1.0031506666666667 -0.08040633333333333
349191565 1.0026236666666668 -0.08089466666666667
350677444 1.000125 -0.08044899999999999
352163323 0.9976523333333334 -0.08084133333333333
353649202 0.9936263333333333 -0.079343
355135081 0.9907316666666667 -0.08199766666666665
356620960 0.986594 -0.08147966666666667
358106839 0.9820659999999999 -0.08204533333333333
359592718 0.9780473333333333 -0.082701
361078597 0.9797736666666667 -0.08365266666666667
362564476 0.9836216666666667 -0.08519033333333333
364050355 0.9871319999999999 -0.08651500000000001
365536234 0.9903163333333334 -0.088026
367022113 0.9930976666666667 -0.08830133333333334
368507992 0.995659 -0.08833099999999999
369993871 0.9979123333333333 -0.08905566666666666
371479750 0.9713873333333334 -0.12117433333333333
372965629 0.9997646666666666 -0.08890566666666666
374451508 1.0015746666666665 -0.08404033333333333
375937387 1.000535 -0.088702
377423266 0.999389 -0.08805733333333332
378909145 0.999081 -0.08809666666666667
380395024 0.9965309999999998 -0.08692166666666665
381880903 0.9943096666666666 -0.08725333333333332
383366782 0.9916619999999999 -0.08609
384852661 0.9877463333333334 -0.08666666666666667
386338540 0.9838389999999999 -0.08652233333333333
387824419 0.9798396666666666 -0.08654866666666666
389310298 0.9745613333333334 -0.085752
390796177 0.9742613333333333 -0.08688033333333334
392282056 0.978539 -0.088408
393767935 0.9821703333333334 -0.09053833333333333
395253814 0.9860059999999999 -0.09088433333333332
396739693 0.9878406666666667 -0.09262599999999999
398225572 0.9901746666666666 -0.09280666666666666
399711451 0.9920176666666666 -0.09384833333333333
401197330 0.9933173333333333 -0.093109
402683209 0.9947213333333332 -0.09395466666666666
404169088 0.9943989999999998 -0.09292999999999998
405654967 0.9939036666666665 -0.09353933333333332
407140846 0.9937256666666665 -0.09368733333333332
408626725 0.9923833333333333 -0.09349533333333333
410112604 0.9912283333333334 -0.09282733333333333
411598483 0.9889246666666667 -0.09266633333333332
413084362 0.9856413333333333 -0.09222466666666665
414570241 0.9831383333333333 -0.09247633333333334
416056120 0.9792510000000001 -0.09098566666666666
417541999 0.9757106666666667 -0.09183799999999999
419027878 0.9706706666666666 -0.09153999999999998
420513757 0.9696753333333332 -0.093283
421999636 0.9725966666666667 -0.09348233333333333
423485515 0.9761403333333334 -0.09514799999999998
424971394 0.97966 -0.096568
426457273 0.9819769999999999 -0.09820333333333334
427943152 0.9850873333333334 -0.09799433333333332
429429031 0.985664 -0.09919566666666665
430914910 0.9874903333333332 -0.09942733333333333
432400789 0.9887506666666666 -0.09922900000000001
433886668 0.988872 -0.09955133333333334
435372547 0.9893003333333332 -0.09966666666666665
436858426 0.988136 -0.09873666666666665
438344305 0.9874256666666665 -0.09872199999999999
439830184 0.9866216666666667 -0.09772266666666665
441316063 0.984356 -0.09827433333333332
442801942 0.9825163333333333 -0.09837266666666666
444287821 0.9789343333333334 -0.09902233333333334
445773700 0.9767116666666666 -0.09787733333333333
447259579 0.9725173333333333 -0.09795499999999999
448745458 0.9685946666666667 -0.09913699999999999
450231337 0.9650086666666665 -0.09724433333333334
451717216 0.969195 -0.104139
453203095 0.9727363333333333 -0.099921
454688974 0.9756583333333333 -0.09974666666666666
456174853 0.9796096666666667 -0.10198133333333333
457660732 0.9813343333333333 -0.10056799999999999
459146611 0.9835166666666666 -0.10225933333333333
460632490 0.9856046666666667 -0.10163366666666665
462118369 0.986669 -0.10277366666666665
463604248 0.9860933333333333 -0.10344566666666667
465090127 0.9859713333333333 -0.10439499999999999
466576006 0.9860696666666666 -0.10142733333333333
468061885 0.984549 -0.10218166666666667
469547764 0.9841576666666666 -0.10304233333333335
471033643 0.982148 -0.102585
472519522 0.9804853333333332 -0.10109566666666665
474005401 0.9772326666666666 -0.10212266666666665
475491280 0.9723723333333334 -0.10681999999999998
476977159 0.9707093333333333 -0.100809
478463038 0.9585103333333331 -0.11572400000000001
479948917 0.959755 -0.10575033333333334
481434796 0.9652913333333333 -0.10202133333333332
482920675 0.9687116666666666 -0.10271666666666668
484406554 0.9684853333333333 -0.11646066666666667
485892433 0.9754496666666667 -0.105193
487378312 0.9821929999999999 -0.094555
488864191 0.9749353333333334 -0.11721733333333334
490350070 0.9812596666666666 -0.10726633333333332
491835949 0.9823883333333333 -0.107066
493321828 0.9825413333333333 -0.10781766666666666
494807707 0.983167 -0.10769233333333333
496293586 0.9827323333333333 -0.10663166666666668
497779465 0.9813306666666666 -0.106985
499265344 0.9796523333333332 -0.107209
500751223 0.979009 -0.10646299999999999
502237102 0.9754229999999999 -0.10714966666666667
503722981 0.973914 -0.10619833333333334
505208860 0.9713256666666666 -0.10758033333333333
506694739 0.9684596666666666 -0.10702099999999999
508180618 0.9637753333333332 -0.10567533333333334
509666497 0.9599746666666666 -0.10711433333333333
511152376 0.9613713333333332 -0.108955
512638255 0.965439 -0.10963733333333332
514124134 0.9677443333333333 -0.10977766666666666
515610013 0.9718939999999999 -0.10961566666666667
517095892 0.974052 -0.11010766666666667
518581771 0.9763973333333333 -0.10977866666666665
520067650 0.9770716666666666 -0.11196133333333333
521553529 0.9739849999999999 -0.12257633333333334
523039408 0.9787533333333333 -0.11155433333333332
524525287 0.979093 -0.11093199999999999
526011166 0.9797879999999999 -0.110453
527497045 0.9795196666666666 -0.110908
528982924 0.9775246666666667 -0.11026566666666666
530468803 0.975546 -0.11121233333333333
531954682 0.9739323333333332 -0.110154
533440561 0.9704226666666665 -0.11000599999999999
534926440 0.9682093333333333 -0.10964466666666668
536412319 0.9647206666666667 -0.11043733333333333
537898198 0.9602413333333333 -0.10921133333333333
539384077 0.9563346666666668 -0.10879333333333333
540869956 0.956711 -0.110903
542355835 0.9605763333333333 -0.11253933333333332
543841714 0.9652286666666666 -0.11348199999999999
545327593 0.9691423333333333 -0.11382766666666666
546813472 0.9709073333333333 -0.11637766666666667
548299351 0.9724763333333334 -0.11739
549785230 0.9754299999999999 -0.11905566666666667
551271109 0.9770573333333333 -0.11995733333333333
552756988 0.977663 -0.11896833333333331
554242867 0.9780536666666666 -0.11911233333333333
555728746 0.9786336666666667 -0.11930833333333332
557214625 0.9792853333333333 -0.11809333333333333
558700504 0.9780826666666667 -0.11887533333333333
560186383 0.9771036666666666 -0.11981533333333333
561672262 0.9761656666666667 -0.11938366666666667
563158141 0.972069 -0.12082633333333333
564644020 0.9703636666666666 -0.11988466666666667
566129899 0.9669126666666666 -0.11978533333333333
567615778 0.9637383333333333 -0.11919233333333334
569101657 0.9597366666666667 -0.120909
570587536 0.9580986666666667 -0.12146366666666666
572073415 0.9630843333333333 -0.12157733333333333
573559294 0.967882 -0.12242566666666667
575045173 0.9706513333333333 -0.12410233333333333
576531052 0.9753363333333334 -0.12286166666666666
578016931 0.978256 -0.11838733333333332
579502810 0.977519 -0.12974799999999997
580988689 0.9826686666666666 -0.115683
582474568 0.9802973333333332 -0.12768833333333335
583960447 0.9847223333333333 -0.11496366666666664
585446326 0.9818603333333332 -0.12610333333333332
586932205 0.984329 -0.11474466666666666
588418084 0.9804499999999999 -0.12446666666666664
589903963 0.9820416666666667 -0.11256999999999998
591389842 0.9768413333333333 -0.122631
592875721 0.9765856666666666 -0.11064933333333334
594361600 0.9725783333333333 -0.12121966666666667
595847479 0.969498 -0.11480266666666668
597333358 0.9655256666666667 -0.11340366666666665
598819237 0.9615083333333333 -0.11306333333333332
600305116 0.9578553333333334 -0.11471066666666666
601790995 0.9623046666666666 -0.114922
603276874 0.9650983333333333 -0.11587900000000001
604762753 0.9684200000000001 -0.11702966666666666
606248632 0.9701329999999999 -0.11821133333333333
607734511 0.973045 -0.11860733333333331
609220390 0.9750673333333333 -0.119712
610706269 0.9756779999999999 -0.11931766666666667
612192148 0.9764233333333334 -0.12002199999999999
613678027 0.9767523333333333 -0.11882533333333334
615163906 0.9750779999999999 -0.11944866666666666
616649785 0.9757276666666665 -0.11999
618135664 0.9741039999999999 -0.12088199999999999
619621543 0.9716486666666666 -0.12005766666666667
621107422 0.9690119999999999 -0.12029799999999999
622593301 0.966844 -0.11954433333333332
624079180 0.963471 -0.119805
625565059 0.9600529999999999 -0.118509
627050938 0.9522613333333332 -0.12969933333333333
628536817 0.9491803333333333 -0.12458366666666666
630022696 0.9422196666666667 -0.13123566666666664
631508575 0.95368 -0.10956133333333332
632994454 0.9504493333333333 -0.127488
634480333 0.9592806666666666 -0.11821666666666666
635966212 0.9659906666666667 -0.10895033333333333
637452091 0.9596096666666667 -0.13047933333333334
638937970 0.9694753333333332 -0.11551833333333333
640423849 0.9682696666666666 -0.12136833333333333
641909728 0.9672356666666666 -0.12665833333333332
