# HZ S RI R 50
10000 0.873079 -0.06176433333333333
1495879 0.8585763333333333 1.1637103333333332
2981758 0.5742856666666666 0.699563
4467637 0.583137 0.32876700000000003
5953516 0.651728 0.13800866666666667
7439395 0.743697 0.012668666666666667
8925274 1.057002 -0.061955333333333334
10411153 1.0972303333333333 0.036256
11897032 1.0869683333333333 0.16788666666666666
13382911 1.0211313333333332 0.29189899999999996
14868790 0.9184313333333334 0.38223466666666667
16354669 0.8059763333333333 0.4304386666666667
17840548 0.7002363333333333 0.4458686666666667
19326427 0.613625 0.4467203333333334
20812306 0.5374583333333334 0.4253046666666667
22298185 0.4763386666666667 0.40453866666666666
23784064 0.42837966666666666 0.3753646666666666
25269943 0.38914299999999996 0.3491203333333333
26755822 0.3571956666666667 0.326177
28241701 0.3305376666666667 0.299676
29727580 0.30870333333333333 0.277377
31213459 0.3191253333333333 0.26273466666666667
32699338 0.335902 0.24807700000000002
34185217 0.35155733333333333 0.234911
35671096 0.36730900000000005 0.221584
37156975 0.383704 0.20513599999999999
38642854 0.3979656666666667 0.18811200000000003
40128733 0.412742 0.16556033333333334
41614612 0.42536 0.15419866666666668
43100491 0.4389283333333333 0.12816633333333335
44586370 0.451417 0.10799666666666667
46072249 0.465477 0.08497466666666668
47558128 0.4800703333333334 0.06842966666666667
49044007 0.49672133333333335 0.05189933333333333
50529886 0.5154420000000001 0.03802
52015765 0.5376346666666667 0.009124
53501644 0.5667046666666667 -0.008466666666666666
54987523 0.6048696666666666 -0.031832
56473402 0.658181 -0.06767666666666666
57959281 0.7460110000000001 -0.08004566666666667
59445160 0.9026616666666666 -0.052711
60931039 0.9964559999999999 -0.018055
62416918 0.9997243333333333 -0.026698
63902797 1.0025826666666668 -0.03476233333333333
65388676 1.005361 -0.042682
66874555 1.0078476666666667 -0.03802833333333333
68360434 1.004433 -0.12118
69846313 1.0108903333333334 -0.014314333333333333
71332192 1.0132796666666666 0.009792333333333333
72818071 1.0129303333333333 -0.051646000000000004
74303950 1.0134036666666668 -0.04179033333333334
75789829 1.0119939999999998 0.026148666666666667
77275708 1.0123633333333333 0.01810433333333333
78761587 1.0110123333333334 0.024479
80247466 1.0076896666666668 -0.09060833333333333
81733345 1.0080756666666666 -0.042427
83219224 1.00512 -0.05267533333333333
84705103 1.0008156666666668 -0.07732666666666667
86190982 0.997977 0.04630000000000001
87676861 0.9940526666666667 -0.067073
89162740 0.9919006666666667 -0.041516000000000004
90648619 0.9895366666666666 -0.059070333333333336
92134498 0.9935519999999999 -0.05667166666666667
93620377 0.99765 -0.023827333333333336
95106256 0.9982319999999999 -0.05043633333333333
96592135 1.000662 -0.049077666666666665
98078014 1.0027096666666668 -0.043435
99563893 1.004955 -0.03966133333333333
101049772 1.0051503333333334 -0.051765
102535651 1.0055926666666666 -0.05241233333333334
104021530 1.005829 -0.052694333333333336
105507409 1.0055476666666665 -0.052779333333333324
106993288 1.0047233333333334 -0.052747999999999996
108479167 1.003705 -0.051687000000000004
109965046 1.0025023333333334 -0.05281233333333333
111450925 0.999771 -0.051597666666666674
112936804 0.997475 -0.052561666666666666
114422683 0.9958839999999999 -0.051599000000000006
115908562 0.992079 -0.051963
117394441 0.988088 -0.05181266666666667
118880320 0.9843990000000001 -0.05149499999999999
120366199 0.9826186666666668 -0.05246833333333334
121852078 0.9865026666666665 -0.05340433333333333
123337957 0.989945 -0.053681
124823836 0.9932663333333333 -0.05467933333333334
126309715 0.9964073333333334 -0.05669533333333333
127795594 0.9998093333333333 -0.056819
129281473 1.0013406666666667 -0.057589
130767352 1.0033653333333334 -0.05629599999999999
132253231 1.004904 -0.056871333333333336
133739110 1.0064086666666665 -0.05637466666666666
135224989 0.992032 -0.06786033333333333
136710868 0.992216 -0.06818866666666666
138196747 0.991923 -0.067691
139682626 0.9909886666666669 -0.06710133333333333
141168505 0.9900306666666667 -0.06638433333333334
142654384 0.9890180000000001 -0.06606433333333334
144140263 0.9855403333333334 -0.06632866666666666
145626142 0.9842749999999999 -0.06474866666666666
147112021 0.9807476666666667 -0.06498033333333333
148597900 0.9772379999999999 -0.06456333333333333
150083779 0.9742023333333333 -0.063513
151569658 0.9781566666666667 -0.065079
153055537 0.9812016666666667 -0.059305
154541416 0.9818983333333332 -0.06683333333333334
156027295 0.9849496666666666 -0.06141633333333333
157513174 0.9867243333333334 -0.06689533333333332
158999053 0.988677 -0.060824333333333334
160484932 0.9892896666666666 -0.06781966666666667
161970811 0.9906873333333334 -0.06125166666666667
163456690 0.9901253333333333 -0.06741733333333333
164942569 0.9906576666666668 -0.06187633333333333
166428448 0.9898603333333332 -0.06787699999999999
167914327 0.9895493333333333 -0.06184466666666666
169400206 0.9872223333333333 -0.06755366666666668
170886085 0.9825376666666666 -0.074869
172371964 0.9865346666666666 -0.04905233333333333
173857843 0.9818963333333334 -0.061638666666666675
175343722 0.9785663333333332 -0.062071999999999995
176829601 0.9754496666666667 -0.06254033333333332
178315480 0.9718096666666666 -0.06282066666666668
179801359 0.968263 -0.06329166666666668
181287238 0.9697469999999999 -0.06427900000000002
182773117 0.9729973333333333 -0.06530866666666667
184258996 0.976371 -0.06561466666666667
185744875 0.9784563333333334 -0.06538100000000001
187230754 0.980156 -0.06620133333333333
188716633 0.9821556666666668 -0.06678666666666667
190202512 0.9832206666666666 -0.06576866666666666
191688391 0.9840453333333333 -0.06688366666666666
193174270 0.9832466666666667 -0.07301633333333334
194660149 0.9832933333333332 -0.07281166666666668
196146028 0.9826986666666667 -0.07293033333333333
197631907 0.9816136666666666 -0.07274233333333334
199117786 0.980697 -0.07306766666666666
200603665 0.9784263333333333 -0.07367433333333333
202089544 0.9768403333333334 -0.07412
203575423 0.9739013333333334 -0.073773
205061302 0.9713839999999999 -0.07507066666666667
206547181 0.9674226666666667 -0.07510233333333334
208033060 0.96434 -0.075203
209518939 0.9601523333333334 -0.07605866666666666
211004818 0.9616636666666666 -0.07778633333333333
212490697 0.9648180000000001 -0.07793166666666666
213976576 0.9675756666666667 -0.078145
215462455 0.970565 -0.07889833333333333
216948334 0.9735303333333333 -0.078803
218434213 0.9740216666666667 -0.07903466666666667
219920092 0.9758953333333333 -0.07900166666666665
221405971 0.9760810000000001 -0.07822166666666668
222891850 0.9773136666666667 -0.07863099999999999
224377729 0.97736 -0.078762
225863608 0.97662 -0.07855033333333333
227349487 0.9757156666666668 -0.07823266666666667
228835366 0.9732919999999999 -0.078129
230321245 0.973 -0.07839066666666666
231807124 0.9708146666666667 -0.07942700000000001
233293003 0.968873 -0.07926666666666667
234778882 0.9647823333333334 -0.080278
236264761 0.9606750000000001 -0.08073799999999999
237750640 0.957339 -0.08136166666666667
239236519 0.953386 -0.081925
240722398 0.9526886666666666 -0.08279866666666666
242208277 0.956981 -0.08438433333333334
243694156 0.9602426666666667 -0.08400966666666666
245180035 0.9634206666666666 -0.08423666666666667
246665914 0.9656726666666667 -0.084648
248151793 0.9680786666666666 -0.08401066666666668
249637672 0.9692003333333333 -0.08482433333333332
251123551 0.9703263333333334 -0.08381699999999999
252609430 0.9708783333333333 -0.08389433333333333
254095309 0.9711266666666667 -0.08441
255581188 0.9704450000000001 -0.08402666666666665
257067067 0.9699479999999999 -0.08424933333333334
258552946 0.968192 -0.083609
260038825 0.9670506666666666 -0.08365866666666667
261524704 0.9639463333333333 -0.08381333333333334
263010583 0.9617063333333333 -0.083808
264496462 0.9586953333333333 -0.08482033333333333
265982341 0.9552406666666667 -0.08512166666666666
267468220 0.9505513333333333 -0.08517866666666667
268954099 0.9467363333333334 -0.08704233333333333
270439978 0.9450223333333333 -0.08722633333333334
271925857 0.9482393333333333 -0.08823933333333334
273411736 0.9521713333333333 -0.08887966666666665
274897615 0.9554876666666666 -0.08877766666666666
276383494 0.9583653333333334 -0.08961733333333333
277869373 0.9608333333333333 -0.09007266666666665
279355252 0.9632693333333333 -0.08867066666666668
280841131 0.964359 -0.08939133333333334
282327010 0.9649313333333334 -0.08965233333333333
283812889 0.9645633333333333 -0.08958066666666666
285298768 0.9653413333333334 -0.088509
286784647 0.9648393333333333 -0.08907633333333333
288270526 0.9630093333333333 -0.08942566666666667
289756405 0.9617106666666667 -0.08889433333333334
291242284 0.9588983333333333 -0.08838933333333333
292728163 0.9560653333333334 -0.088872
294214042 0.9534153333333334 -0.08907366666666668
295699921 0.949358 -0.088955
297185800 0.9458673333333333 -0.08914233333333334
298671679 0.9411576666666667 -0.08952733333333333
300157558 0.9365813333333333 -0.09077500000000001
301643437 0.9418099999999999 -0.09198933333333333
303129316 0.9457323333333334 -0.092571
304615195 0.9490729999999999 -0.09208
306101074 0.952087 -0.09445833333333335
307586953 0.9558596666666667 -0.09333399999999999
309072832 0.9564716666666667 -0.094696
310558711 0.9586899999999999 -0.09439033333333334
312044590 0.9595476666666668 -0.09334333333333333
313530469 0.9602750000000001 -0.09333433333333334
315016348 0.9605896666666668 -0.09372066666666667
316502227 0.959028 -0.09300866666666667
317988106 0.959769 -0.09232233333333334
319473985 0.9573173333333332 -0.09231766666666667
320959864 0.9590583333333332 -0.08133866666666666
322445743 0.9535613333333334 -0.09242266666666667
323931622 0.9497856666666668 -0.09174633333333333
325417501 0.945496 -0.09242066666666666
326903380 0.9422106666666666 -0.09193166666666668
328389259 0.8941363333333334 -0.08452166666666666
329875138 0.9325696666666667 -0.092694
331361017 0.9362729999999999 -0.09372599999999999
332846896 0.9390793333333333 -0.09446633333333332
334332775 0.947053 -0.085524
335818654 0.945893 -0.09669733333333334
337304533 0.9472186666666667 -0.09668900000000001
338790412 0.9491666666666667 -0.09766766666666667
340276291 0.950488 -0.09760866666666666
341762170 0.9518313333333334 -0.09877466666666666
343248049 0.9535290000000001 -0.09687633333333333
344733928 0.951997 -0.097679
346219807 0.9518686666666666 -0.09772399999999999
347705686 0.9516096666666666 -0.09707333333333333
349191565 0.9492283333333335 -0.09647466666666667
350677444 0.9472023333333333 -0.09678866666666668
352163323 0.9442673333333333 -0.09668566666666667
353649202 0.941611 -0.09612033333333332
355135081 0.9377333333333334 -0.09585933333333334
356620960 0.932979 -0.097699
358106839 0.9284776666666668 -0.09654366666666665
359592718 0.924623 -0.096434
361078597 0.9258763333333334 -0.098065
362564476 0.9296456666666666 -0.09906
364050355 0.9325673333333334 -0.100325
365536234 0.9361596666666667 -0.10134
367022113 0.9387483333333334 -0.10249033333333334
368507992 0.9409606666666667 -0.10235433333333332
369993871 0.94198 -0.10279766666666668
371479750 0.9442076666666667 -0.10290033333333333
372965629 0.9449313333333333 -0.10300833333333333
374451508 0.9447846666666667 -0.10365266666666667
375937387 0.944797 -0.10252366666666667
377423266 0.9439116666666667 -0.10300133333333333
378909145 0.9425026666666666 -0.10183266666666667
380395024 0.9412843333333333 -0.101228
381880903 0.9815453333333334 -0.08521000000000001
383366782 0.9361446666666667 -0.10061433333333332
384852661 0.9335216666666667 -0.09955633333333332
386338540 0.929342 -0.09924999999999999
387824419 0.9248896666666666 -0.09929466666666668
389310298 0.9206413333333333 -0.09876733333333333
390796177 0.9207703333333334 -0.10027333333333333
392282056 0.924198 -0.10166233333333334
393767935 0.9276706666666668 -0.10187166666666665
395253814 0.9308386666666667 -0.10294966666666666
396739693 0.9323683333333334 -0.10349366666666666
398225572 0.9347216666666668 -0.10443733333333334
399711451 0.936384 -0.10493333333333332
401197330 0.9373496666666666 -0.10477700000000001
402683209 0.93826 -0.10478233333333332
404169088 0.9385163333333333 -0.10464266666666666
405654967 0.9385523333333333 -0.10338233333333334
407140846 0.938686 -0.10311433333333332
408626725 0.9370876666666667 -0.10327633333333334
410112604 0.9353806666666666 -0.10295166666666666
411598483 0.9340736666666668 -0.10145766666666667
413084362 0.9303206666666667 -0.10165766666666669
414570241 0.9271256666666666 -0.10024233333333334
416056120 0.9243373333333332 -0.10145333333333334
417541999 0.920401 -0.09973566666666667
419027878 0.9165823333333334 -0.099453
420513757 0.915079 -0.100096
421999636 0.9178533333333334 -0.101483
423485515 0.9213553333333334 -0.10354633333333334
424971394 0.9235673333333333 -0.104101
426457273 0.9262606666666667 -0.10483500000000001
427943152 0.928875 -0.10537
429429031 0.9302153333333334 -0.10697333333333332
430914910 0.9314046666666668 -0.10608966666666665
432400789 0.9336456666666666 -0.10593666666666668
433886668 0.9338496666666667 -0.105337
435372547 0.9331396666666668 -0.105354
436858426 0.9322033333333334 -0.10558633333333334
438344305 0.931523 -0.10583666666666668
439830184 0.9307893333333332 -0.10418033333333332
441316063 0.9286396666666666 -0.10289666666666668
442801942 0.926568 -0.10339033333333335
444287821 0.9239606666666665 -0.10346300000000001
445773700 0.9199176666666666 -0.10326933333333332
447259579 0.917421 -0.10187133333333333
448745458 0.9131043333333334 -0.10096866666666666
450231337 0.9101806666666666 -0.103338
451717216 0.9130280000000001 -0.10112033333333333
453203095 0.9169136666666667 -0.10473366666666667
454688974 0.9191223333333333 -0.10470133333333333
456174853 0.9229636666666666 -0.10407366666666666
457660732 0.9231763333333333 -0.107164
459146611 0.924737 -0.10622666666666665
460632490 0.9273739999999999 -0.10632733333333333
462118369 0.9280609999999999 -0.10573833333333334
463604248 0.926793 -0.10550566666666666
465090127 0.9279810000000001 -0.10503966666666668
466576006 0.927469 -0.10714033333333334
468061885 0.9265066666666667 -0.10550766666666667
469547764 0.9255336666666666 -0.10416399999999999
471033643 0.9240276666666666 -0.10445633333333333
472519522 0.9215083333333333 -0.104171
474005401 0.91886 -0.103562
475491280 0.9165466666666666 -0.103551
476977159 0.9125386666666667 -0.10238333333333333
478463038 0.9093116666666665 -0.10289833333333333
479948917 0.9046249999999999 -0.102607
481434796 0.9086773333333333 -0.10365799999999999
482920675 0.911115 -0.10490566666666666
484406554 0.9144216666666667 -0.10503966666666666
485892433 0.9164826666666667 -0.10496699999999999
487378312 0.9187219999999999 -0.106074
488864191 0.920839 -0.10704400000000001
490350070 0.9223956666666666 -0.1069
491835949 0.923254 -0.106473
493321828 0.923823 -0.105592
494807707 0.9243053333333333 -0.10556533333333333
496293586 0.923093 -0.10593599999999999
497779465 0.922467 -0.10495433333333333
499265344 0.9217456666666667 -0.10590866666666666
500751223 0.9200053333333335 -0.104101
502237102 0.918503 -0.10331266666666666
503722981 0.9160943333333332 -0.10348733333333333
505208860 0.912534 -0.10407966666666668
506694739 0.909301 -0.10289033333333332
508180618 0.9058363333333334 -0.10260499999999999
509666497 0.9018526666666666 -0.10353133333333335
511152376 0.9036339999999999 -0.104033
512638255 0.9065696666666666 -0.10488866666666667
514124134 0.910071 -0.10478433333333333
515610013 0.913064 -0.10463800000000001
517095892 0.9145533333333334 -0.10534133333333334
518581771 0.9171680000000001 -0.10695933333333334
520067650 0.9191956666666666 -0.10751933333333334
521553529 0.9187353333333333 -0.10769633333333334
523039408 0.9198193333333333 -0.10593799999999999
524525287 0.9207776666666666 -0.10641966666666668
526011166 0.9196810000000001 -0.10428666666666668
527497045 0.9193046666666667 -0.10464066666666667
528982924 0.9177216666666667 -0.10394766666666666
530468803 0.9155143333333333 -0.10443033333333333
531954682 0.914262 -0.10366366666666667
533440561 0.9121273333333333 -0.10393833333333334
534926440 0.9086983333333333 -0.102055
536412319 0.9051746666666668 -0.104616
537898198 0.902485 -0.102964
539384077 0.8971286666666667 -0.10441299999999999
540869956 0.8979763333333333 -0.10386733333333333
542355835 0.9013376666666667 -0.10447533333333332
543841714 0.9038443333333334 -0.10528066666666668
545327593 0.9061873333333333 -0.10465033333333333
546813472 0.90861 -0.10372566666666667
548299351 0.909102 -0.10295866666666666
549785230 0.9111456666666666 -0.10377966666666667
551271109 0.9119586666666666 -0.10308533333333332
552756988 0.9111526666666666 -0.10211366666666666
554242867 0.9110406666666666 -0.10064066666666666
555728746 0.9101946666666666 -0.09940566666666667
557214625 0.9088189999999999 -0.09819666666666667
558700504 0.907377 -0.09858299999999999
560186383 0.9042573333333334 -0.09734733333333334
561672262 0.9018693333333333 -0.09698833333333334
563158141 0.898847 -0.09761700000000001
564644020 0.8958323333333333 -0.096744
566129899 0.89172 -0.096916
567615778 0.8863303333333333 -0.09620466666666667
569101657 0.8822766666666667 -0.09779466666666668
570587536 0.882302 -0.09634833333333333
572073415 0.8850583333333333 -0.09795433333333332
573559294 0.8887353333333333 -0.10055633333333334
575045173 0.8914576666666667 -0.10218466666666666
576531052 0.8943213333333334 -0.10397833333333334
578016931 0.897514 -0.10451333333333335
579502810 0.8989940000000001 -0.10540533333333335
580988689 0.8995543333333335 -0.10450633333333333
582474568 0.9020290000000001 -0.10692533333333333
583960447 0.9026313333333333 -0.10746099999999999
585446326 0.9039946666666667 -0.106692
586932205 0.9029436666666667 -0.10766666666666667
588418084 0.9036703333333334 -0.10674066666666666
589903963 0.9020723333333334 -0.10698866666666666
591389842 0.9000279999999999 -0.107935
592875721 0.8984546666666667 -0.10832466666666667
594361600 0.8961946666666667 -0.10736466666666666
595847479 0.8928013333333333 -0.10885933333333335
597333358 0.8911253333333334 -0.10944966666666667
598819237 0.8876676666666666 -0.10862766666666666
600305116 0.8846189999999999 -0.11130966666666665
601790995 0.8892699999999999 -0.112068
603276874 0.8935256666666667 -0.11252033333333333
604762753 0.896849 -0.11375533333333333
606248632 0.8995946666666668 -0.11503166666666666
607734511 0.9030123333333333 -0.11584066666666666
609220390 0.9044099999999999 -0.11650300000000001
610706269 0.9063180000000001 -0.11511733333333334
612192148 0.9072553333333334 -0.11550866666666666
613678027 0.9086976666666667 -0.11369033333333334
615163906 0.9080879999999999 -0.11540266666666667
616649785 0.9079463333333333 -0.11365033333333334
618135664 0.9078833333333334 -0.11159666666666666
619621543 0.9076333333333334 -0.10738033333333334
621107422 0.905552 -0.11004566666666667
622593301 0.9035883333333333 -0.11175833333333333
624079180 0.900738 -0.11126033333333334
625565059 0.8976186666666667 -0.109311
627050938 0.911177 -0.08818833333333333
628536817 0.8896566666666667 -0.10884666666666666
630022696 0.8860086666666667 -0.108838
631508575 0.8888353333333333 -0.111075
632994454 0.893029 -0.11246366666666667
634480333 0.896674 -0.11325533333333333
635966212 0.899955 -0.11244933333333333
637452091 0.9017106666666667 -0.11412533333333334
638937970 0.9039983333333333 -0.11406933333333331
640423849 0.906143 -0.11292333333333333
641909728 0.9068796666666668 -0.11340633333333333
643395607 0.9072080000000001 -0.11499566666666666
644881486 0.9084226666666666 -0.114064
646367365 0.9079603333333334 -0.111703
647853244 0.907059 -0.11402733333333333
649339123 0.906672 -0.11258800000000001
650825002 0.9051673333333333 -0.11215199999999999
652310881 0.902587 -0.11064599999999998
653796760 0.899644 -0.11108699999999999
655282639 0.897427 -0.110344
656768518 0.8933053333333333 -0.10953299999999999
658254397 0.889179 -0.10864800000000001
