# HZ S RI R 50
10000 0.9714839999999999 -0.215881
1495879 0.7733496666666667 0.8611013333333334
2981758 0.5773670000000001 0.6885043333333334
4467637 0.5804596666666667 0.32705500000000004
5953516 0.6504503333333334 0.13813733333333333
7439395 0.7430243333333334 0.012858333333333334
8925274 1.0569823333333332 -0.06260066666666665
10411153 1.097747 0.035907333333333326
11897032 1.0880116666666666 0.16808466666666666
13382911 1.0216966666666665 0.29328233333333337
14868790 0.9190823333333333 0.38353400000000004
16354669 0.806545 0.43276866666666663
17840548 0.7010653333333333 0.4479986666666667
19326427 0.610583 0.44138099999999997
20812306 0.5361793333333335 0.423853
22298185 0.476497 0.4000106666666667
23784064 0.4281376666666666 0.373572
25269943 0.38881933333333335 0.3478043333333334
26755822 0.35669833333333334 0.322535
28241701 0.33074966666666666 0.29887633333333335
29727580 0.3089213333333333 0.276837
31213459 0.319364 0.2615083333333334
32699338 0.335758 0.24745133333333333
34185217 0.35153066666666666 0.23438466666666666
35671096 0.3672436666666667 0.2186773333333333
37156975 0.38268299999999994 0.20005966666666666
38642854 0.396905 0.18365900000000002
40128733 0.4117766666666666 0.1608413333333333
41614612 0.43651166666666663 0.15963566666666668
43100491 0.4382246666666667 0.12782600000000002
44586370 0.451959 0.10986833333333335
46072249 0.46607766666666667 0.08720499999999999
47558128 0.48105200000000004 0.070664
49044007 0.497382 0.054123
50529886 0.5165743333333334 0.04037933333333333
52015765 0.5389430000000001 0.012013000000000001
53501644 0.5676916666666667 -0.005575
54987523 0.6064326666666667 -0.028914999999999996
56473402 0.6602463333333334 -0.06452200000000001
57959281 0.749193 -0.07646133333333333
59445160 0.9058386666666666 -0.04650233333333333
60931039 0.9999846666666666 -0.016505333333333334
62416918 1.0038036666666665 -0.01908666666666667
63902797 1.0074699999999999 -0.027932000000000002
65388676 1.0096306666666666 -0.03595666666666667
66874555 1.01188 -0.031324
68360434 1.010444 -0.11523633333333333
69846313 1.0162116666666667 -0.007320333333333334
71332192 1.0176049999999999 -0.0011010000000000002
72818071 1.0187996666666665 -0.04429166666666667
74303950 1.0194750000000001 -0.034618666666666666
75789829 1.0181266666666666 0.03355866666666667
77275708 1.018218 0.024994666666666665
78761587 1.0167556666666666 0.032371000000000004
80247466 1.0149333333333332 -0.083295
81733345 1.0160816666666668 -0.035029
83219224 1.0131933333333334 -0.04585733333333333
84705103 1.0090450000000002 -0.070164
86190982 1.0047663333333334 0.05517266666666667
87676861 1.0026713333333335 -0.05929566666666666
89162740 1.000413 -0.034506666666666665
90648619 0.9989016666666668 -0.052337999999999996
92134498 1.0025306666666667 -0.04959733333333333
93620377 1.0071013333333332 -0.016460333333333337
95106256 1.00816 -0.042509
96592135 1.0111366666666666 -0.04037233333333333
98078014 1.0135186666666665 -0.03582933333333333
99563893 1.0147146666666667 -0.03131933333333334
101049772 1.0166406666666667 -0.04448966666666667
102535651 1.0179396666666667 -0.043699999999999996
104021530 1.0175776666666667 -0.04467566666666667
105507409 1.0180503333333333 -0.04392100000000001
106993288 1.0173819999999998 -0.04443233333333333
108479167 1.0169456666666667 -0.04416900000000001
109965046 1.0156850000000002 -0.04403133333333333
111450925 1.0138550000000002 -0.04448633333333333
112936804 1.010994 -0.044715
114422683 1.0096116666666666 -0.045087999999999996
115908562 1.0061756666666668 -0.04465166666666667
117394441 1.0029863333333333 -0.044117333333333335
118880320 0.9991063333333333 -0.04444033333333333
120366199 0.9973813333333333 -0.04507266666666667
121852078 1.001187 -0.04615933333333334
123337957 1.0056846666666666 -0.04708766666666667
124823836 1.009171 -0.046841333333333325
126309715 1.0132103333333333 -0.048534999999999995
127795594 1.0162006666666665 -0.04983599999999999
129281473 1.018007 -0.04949566666666666
130767352 1.0213043333333334 -0.04888766666666666
132253231 1.023953 -0.049555666666666665
133739110 1.02483 -0.04947133333333333
135224989 1.0109506666666668 -0.06160033333333333
136710868 1.011156 -0.06134133333333333
138196747 1.0117236666666667 -0.061103333333333336
139682626 1.011159 -0.06069766666666667
141168505 1.009542 -0.060226
142654384 1.0084946666666665 -0.05952266666666667
144140263 1.00683 -0.059784333333333335
145626142 1.0052313333333334 -0.059136333333333325
147112021 1.002076 -0.05902866666666667
148597900 0.9995493333333333 -0.05871766666666667
150083779 0.995996 -0.058143
151569658 1.00004 -0.05885933333333334
153055537 1.0029163333333333 -0.05995966666666667
154541416 1.0061073333333332 -0.06102233333333334
156027295 1.0085563333333332 -0.061339
157513174 1.0105570000000001 -0.06237466666666666
158999053 1.0137423333333333 -0.06286466666666667
160484932 1.0131163333333333 -0.06343633333333333
161970811 1.0154206666666667 -0.06322966666666667
163456690 1.0151843333333332 -0.06423666666666666
164942569 1.0153683333333332 -0.06386666666666667
166428448 1.0163596666666666 -0.06407533333333333
167914327 1.0142383333333334 -0.06417966666666668
169400206 1.0146173333333335 -0.06453233333333332
170886085 1.0123626666666665 -0.06381333333333333
172371964 1.0115106666666667 -0.06598
173857843 1.008916 -0.06513533333333334
175343722 1.0065176666666666 -0.06626933333333333
176829601 1.0042173333333333 -0.06627966666666667
178315480 0.9991949999999999 -0.067559
179801359 0.9955886666666668 -0.068088
181287238 0.998907 -0.06890733333333333
182773117 1.0023366666666667 -0.06907833333333334
184258996 1.005295 -0.07038566666666667
185744875 1.008239 -0.07106566666666667
187230754 1.0104983333333333 -0.07140633333333334
188716633 1.0119179999999999 -0.07142966666666667
190202512 1.014046 -0.07179433333333334
191688391 1.0153873333333332 -0.07246833333333334
193174270 1.017656 -0.06600299999999999
194660149 1.0160686666666665 -0.07275566666666666
196146028 1.017205 -0.06660666666666666
197631907 1.0170916666666665 -0.06684666666666667
199117786 1.014591 -0.07403433333333333
200603665 1.0134130000000001 -0.07487033333333333
202089544 1.0107896666666667 -0.07462799999999999
203575423 1.008636 -0.07562666666666666
205061302 1.006398 -0.07615733333333334
206547181 1.002657 -0.07714633333333333
208033060 1.0006376666666668 -0.07864866666666667
209518939 0.995651 -0.079752
211004818 0.9978090000000001 -0.08078
212490697 1.0020216666666668 -0.08149033333333333
213976576 1.0046363333333332 -0.08124266666666667
215462455 1.008401 -0.082953
216948334 1.0108736666666667 -0.083262
218434213 1.013533 -0.08240833333333332
219920092 1.0147576666666664 -0.08340399999999999
221405971 1.0160003333333334 -0.08474166666666667
222891850 1.0175266666666667 -0.08407000000000002
224377729 1.017775 -0.08382133333333334
225863608 1.0181366666666667 -0.08469433333333333
227349487 1.0166946666666667 -0.08459133333333334
228835366 1.0163909999999998 -0.08555433333333333
230321245 1.013383 -0.08581433333333333
231807124 1.0118413333333331 -0.08579566666666666
233293003 1.009835 -0.08719866666666666
234778882 1.0070976666666667 -0.08764333333333334
236264761 1.003186 -0.08952466666666668
237750640 0.9994740000000001 -0.09027833333333335
239236519 0.995389 -0.09115266666666666
240722398 0.9954216666666666 -0.09257933333333333
242208277 0.9994329999999999 -0.09369899999999999
243694156 1.0037576666666668 -0.09439733333333333
245180035 1.006626 -0.09467666666666667
246665914 1.0103216666666668 -0.09542033333333333
248151793 1.0123636666666667 -0.09597699999999999
249637672 1.0144143333333333 -0.095742
251123551 1.0162533333333335 -0.09623266666666667
252609430 1.0169826666666666 -0.09678300000000001
254095309 1.0176720000000001 -0.09655799999999999
255581188 1.0176419999999997 -0.09724633333333332
257067067 1.0170203333333334 -0.09800566666666666
258552946 1.015638 -0.09770699999999999
260038825 1.0141643333333332 -0.09797866666666666
261524704 1.0121893333333334 -0.098531
263010583 1.0093166666666666 -0.09890433333333333
264496462 1.0069096666666668 -0.10020033333333334
265982341 1.0028780000000002 -0.10126500000000001
267468220 0.9992603333333333 -0.101437
268954099 0.9946433333333333 -0.102921
270439978 0.9936353333333333 -0.10464733333333333
271925857 0.9976483333333334 -0.10637466666666667
273411736 1.0019410000000002 -0.10741233333333333
274897615 1.0056519999999998 -0.10776200000000001
276383494 1.0095686666666666 -0.10849833333333335
277869373 1.0120153333333333 -0.10929299999999999
279355252 1.0147103333333334 -0.10955166666666666
280841131 1.015981 -0.10894666666666668
282327010 1.017335 -0.10996466666666667
283812889 1.01815 -0.11070799999999999
285298768 1.0177213333333333 -0.108734
286784647 1.0170886666666668 -0.11013333333333332
288270526 1.0165063333333333 -0.11071633333333335
289756405 1.014276 -0.11063066666666667
291242284 1.012145 -0.11114166666666668
292728163 1.0103916666666668 -0.11164766666666666
294214042 1.0072916666666667 -0.11254533333333333
295699921 1.0031353333333335 -0.11308533333333333
297185800 0.9990433333333334 -0.11342066666666667
298671679 0.9946576666666668 -0.11410666666666668
300157558 0.9913236666666667 -0.11475166666666665
301643437 0.9961763333333332 -0.11495300000000001
303129316 1.0005053333333331 -0.11709433333333334
304615195 1.0048076666666665 -0.117037
306101074 1.0080313333333333 -0.11816266666666668
307586953 1.011268 -0.11993133333333333
309072832 1.0135733333333332 -0.120747
310558711 1.0157303333333332 -0.12115666666666668
312044590 1.0168596666666667 -0.12044899999999999
313530469 1.018274 -0.12130766666666666
315016348 1.0187656666666667 -0.12218733333333333
316502227 1.0189613333333334 -0.121271
317988106 1.0172966666666665 -0.121685
319473985 1.0159703333333334 -0.12267933333333332
320959864 0.9662509999999999 -0.11901333333333335
322445743 1.0117346666666667 -0.12106933333333332
323931622 1.0073586666666665 -0.12358866666666667
325417501 1.004432666666667 -0.122407
326903380 1.0009176666666666 -0.12298066666666667
328389259 0.9964043333333333 -0.12394866666666667
329875138 0.9914006666666667 -0.12317299999999999
331361017 0.9953903333333333 -0.12638166666666664
332846896 0.9982596666666667 -0.12759733333333334
334332775 1.0018989999999999 -0.12969333333333335
335818654 1.0058936666666667 -0.12975833333333334
337304533 1.0085303333333335 -0.13197733333333334
338790412 1.010711 -0.13353633333333334
340276291 1.0123586666666666 -0.1267933333333333
341762170 1.0140193333333334 -0.13995900000000003
343248049 1.0149976666666667 -0.13469466666666666
344733928 1.01489 -0.13493
346219807 1.0132373333333333 -0.13689766666666667
347705686 1.013828 -0.13598066666666667
349191565 1.0120696666666666 -0.13573866666666667
350677444 1.0088526666666666 -0.13621933333333333
352163323 1.0072210000000001 -0.13600366666666666
353649202 1.0046799999999998 -0.135671
355135081 0.9998466666666666 -0.13499633333333333
356620960 0.9971516666666668 -0.136194
358106839 0.989634 -0.138087
359592718 0.987191 -0.13811233333333334
361078597 0.9875623333333333 -0.139386
362564476 0.9927366666666666 -0.1423846666666667
364050355 0.996676 -0.143235
365536234 0.9990856666666666 -0.14518466666666666
367022113 1.0025463333333333 -0.146382
368507992 1.0044326666666665 -0.146213
369993871 1.0070543333333333 -0.14828166666666667
371479750 1.0079376666666666 -0.14907966666666667
372965629 0.972766 -0.165488
374451508 1.0097053333333332 -0.15000966666666668
375937387 1.009613 -0.149663
377423266 1.0091626666666667 -0.15001399999999998
378909145 1.0075166666666666 -0.14916566666666667
380395024 1.0063829999999998 -0.14915166666666668
381880903 1.0040596666666666 -0.14947833333333335
383366782 1.001721 -0.14894366666666667
384852661 0.9986066666666668 -0.148352
386338540 0.9952816666666667 -0.1493783333333333
387824419 0.9908166666666668 -0.14873999999999998
389310298 0.986062 -0.14816133333333334
390796177 0.9858496666666667 -0.15024866666666667
392282056 0.9898983333333332 -0.15237466666666669
393767935 0.993794 -0.15347833333333336
395253814 0.9963876666666667 -0.15552166666666664
396739693 0.9991009999999999 -0.1562083333333333
398225572 1.0015273333333334 -0.1569556666666667
399711451 1.0037593333333332 -0.158112
401197330 1.0047453333333334 -0.159517
402683209 1.0063636666666669 -0.16129466666666667
404169088 1.0068433333333333 -0.15997033333333333
405654967 1.0069463333333333 -0.16001466666666667
407140846 1.0054353333333335 -0.16008199999999997
408626725 1.0048579999999998 -0.16005100000000003
410112604 1.0038593333333334 -0.159987
411598483 1.001952 -0.16003599999999998
413084362 0.9986186666666668 -0.15854366666666667
414570241 0.996063 -0.159309
416056120 0.9925406666666667 -0.159469
417541999 0.9878683333333335 -0.159664
419027878 0.9850463333333334 -0.15914666666666666
420513757 0.982007 -0.15958799999999998
421999636 0.9857493333333333 -0.16112533333333334
423485515 0.9893649999999999 -0.16328533333333337
424971394 0.9923936666666666 -0.16536133333333333
426457273 0.9956933333333334 -0.1667546666666667
427943152 0.9973130000000001 -0.16786800000000002
429429031 0.9998423333333334 -0.169897
430914910 1.0013613333333333 -0.17033933333333331
432400789 1.001553 -0.17030833333333337
433886668 1.0029913333333333 -0.171122
435372547 1.003068 -0.17149633333333333
436858426 1.0023596666666668 -0.17107133333333335
438344305 1.0016133333333335 -0.171543
439830184 1.000305 -0.17075833333333335
441316063 0.9992843333333333 -0.17019933333333337
442801942 0.9969579999999999 -0.171173
444287821 0.9937816666666667 -0.17167533333333332
445773700 0.9906343333333334 -0.17115666666666665
447259579 0.9867900000000001 -0.17048699999999997
448745458 0.9825076666666667 -0.17082766666666668
450231337 0.9792993333333334 -0.17049266666666665
451717216 0.9838106666666665 -0.17136099999999999
453203095 0.9879763333333332 -0.17279466666666665
454688974 0.9891693333333333 -0.17450433333333334
456174853 0.993159 -0.17601199999999997
457660732 0.9949626666666666 -0.17778400000000003
459146611 0.9963763333333334 -0.17831866666666665
460632490 0.9984299999999999 -0.17909466666666665
462118369 0.9988393333333333 -0.17974333333333334
463604248 1.0000296666666666 -0.179177
465090127 0.9993460000000001 -0.18114833333333333
466576006 0.9997929999999999 -0.179866
468061885 0.998532 -0.18106633333333333
469547764 0.997734 -0.17984966666666669
471033643 0.9958946666666666 -0.1794906666666667
472519522 0.9932499999999999 -0.18037933333333334
474005401 0.9902403333333334 -0.18059666666666666
475491280 0.9869253333333333 -0.17983666666666667
476977159 0.9840633333333333 -0.179333
478463038 0.97964 -0.17896566666666666
479948917 0.9697963333333334 -0.190885
481434796 0.9382706666666666 -0.173638
482920675 0.982498 -0.18289866666666668
484406554 0.9878446666666667 -0.179812
485892433 0.9902183333333334 -0.18017966666666665
487378312 0.9926863333333333 -0.18079466666666666
488864191 0.9948546666666666 -0.181741
490350070 0.9961356666666666 -0.182275
491835949 0.9978726666666667 -0.1832923333333333
493321828 0.9982116666666666 -0.183003
494807707 0.997871 -0.18221733333333334
496293586 0.9980303333333334 -0.18355233333333332
497779465 0.9977879999999999 -0.18326366666666669
499265344 0.996956 -0.183037
500751223 0.9951693333333335 -0.18433666666666668
502237102 0.9936956666666666 -0.1830166666666667
503722981 0.9897526666666666 -0.18287866666666666
505208860 0.9873953333333333 -0.18336533333333335
506694739 0.9832876666666667 -0.18363766666666667
508180618 0.978348 -0.18945733333333334
509666497 0.976064 -0.18271700000000002
511152376 0.97598 -0.191191
512638255 0.9818666666666666 -0.185871
514124134 0.9824106666666667 -0.193825
515610013 0.9876870000000001 -0.18993566666666664
517095892 0.9887516666666666 -0.19497966666666666
518581771 0.9914073333333334 -0.19180566666666668
520067650 0.9905066666666666 -0.19754833333333335
521553529 0.9949276666666668 -0.192902
523039408 0.9940486666666666 -0.1990166666666667
524525287 0.9951956666666666 -0.19394433333333336
526011166 0.993732 -0.19871433333333335
527497045 0.9928196666666667 -0.19904833333333335
528982924 0.9912389999999999 -0.198249
530468803 0.9902886666666667 -0.19966399999999998
531954682 0.9878376666666666 -0.19906366666666667
533440561 0.9859940000000001 -0.19859266666666664
534926440 1.0099986666666667 -0.1774003333333333
536412319 0.9777416666666667 -0.19987233333333332
537898198 0.9743766666666667 -0.19886700000000002
539384077 0.969766 -0.19931566666666667
540869956 0.969992 -0.19889199999999999
542355835 0.9733576666666667 -0.20137333333333332
543841714 0.9762299999999998 -0.20233333333333334
545327593 0.9802276666666666 -0.20141433333333333
546813472 0.9816756666666667 -0.20136
548299351 0.9835593333333333 -0.20173666666666668
549785230 0.9851019999999999 -0.20383933333333334
551271109 0.9845806666666667 -0.202582
552756988 0.9860266666666666 -0.20139266666666666
554242867 0.9850246666666668 -0.20085299999999998
555728746 0.9840810000000001 -0.201294
557214625 0.9833043333333333 -0.19988799999999998
558700504 0.9802446666666667 -0.200466
560186383 0.9788899999999999 -0.19914033333333334
561672262 0.9739680000000001 -0.19984066666666667
563158141 0.9716736666666667 -0.19798100000000005
564644020 0.9677549999999999 -0.198514
566129899 0.9632316666666667 -0.1980656666666667
567615778 0.9596786666666667 -0.19815099999999997
569101657 0.9537340000000002 -0.198596
570587536 0.9520776666666667 -0.19860866666666666
572073415 0.9553203333333333 -0.2018346666666667
573559294 0.9591633333333333 -0.20341966666666667
575045173 0.9642073333333333 -0.20512866666666665
576531052 0.9662933333333333 -0.20885866666666666
578016931 0.9688003333333334 -0.20996366666666666
579502810 0.9711683333333333 -0.212113
580988689 0.9739629999999999 -0.21266033333333334
582474568 0.9741883333333333 -0.21505966666666668
583960447 0.9753976666666667 -0.21636833333333336
585446326 0.9758686666666666 -0.2170733333333333
586932205 0.9762093333333333 -0.21642366666666668
588418084 0.9752683333333333 -0.21909800000000001
589903963 0.973829 -0.21986066666666668
591389842 0.9727450000000001 -0.21954500000000002
592875721 0.97018 -0.220359
594361600 0.968191 -0.222464
595847479 0.9665013333333334 -0.22178966666666666
597333358 0.9629176666666667 -0.223569
598819237 0.959024 -0.2227313333333333
600305116 0.9559036666666666 -0.22432233333333332
601790995 0.9603016666666667 -0.22622866666666666
603276874 0.9639376666666667 -0.22754866666666665
604762753 0.9683796666666667 -0.23006533333333334
606248632 0.9723129999999999 -0.23181566666666667
607734511 0.9741033333333334 -0.2333063333333333
609220390 0.9770343333333332 -0.23517233333333332
610706269 0.978797 -0.23515566666666668
612192148 0.9799916666666667 -0.23578533333333332
613678027 0.9814366666666667 -0.23567233333333334
615163906 0.9816333333333334 -0.23675800000000002
616649785 0.981754 -0.23464166666666667
618135664 0.980575 -0.23686233333333337
619621543 0.9800953333333333 -0.233953
621107422 0.977258 -0.23517033333333334
622593301 0.9749436666666668 -0.23439033333333334
624079180 0.9726469999999999 -0.234788
625565059 0.9689930000000001 -0.23383233333333334
627050938 0.96543 -0.233052
628536817 0.9612553333333334 -0.232769
630022696 0.9563070000000001 -0.23124366666666665
631508575 0.961378 -0.23396433333333333
632994454 0.9642016666666665 -0.23688066666666666
634480333 0.9691683333333333 -0.240094
635966212 0.9709156666666666 -0.241316
637452091 0.9733360000000001 -0.242934
638937970 0.9750856666666667 -0.24322366666666664
640423849 0.97843 -0.24379133333333336
641909728 0.9798046666666668 -0.24395533333333333
643395607 0.9805619999999999 -0.24517333333333335
644881486 0.980406 -0.24493866666666667
646367365 0.9804443333333334 -0.24462933333333334
647853244 0.9803016666666666 -0.24687066666666668
649339123 0.9783736666666667 -0.243626
650825002 0.9771553333333335 -0.243322
652310881 0.9736743333333333 -0.24323133333333335
653796760 0.971996 -0.24361833333333335
