# HZ S RI R 50
10000 1.064307 -0.16537933333333332
1495879 -0.187533 2.6003979999999998
2981758 14.598337333333333 -3.507171666666667
4467637 3.9583813333333335 -3.051810333333333
5953516 1.3904266666666667 -2.2374159999999996
7439395 0.5641476666666666 -1.6323576666666666
8925274 -0.5004886666666666 -0.3080563333333333
10411153 -0.4892696666666667 -0.20714133333333332
11897032 -0.475912 -0.12297333333333334
13382911 -0.4617616666666667 -0.051358999999999995
14868790 -0.44634633333333334 0.010512666666666665
16354669 -0.431111 0.064899
17840548 -0.41592299999999993 0.11306566666666665
19326427 -0.4009023333333333 0.15643766666666664
20812306 -0.3859666666666667 0.19594533333333333
22298185 -0.3663093333333334 0.22860566666666665
23784064 -0.3566753333333333 0.265669
25269943 -0.342808 0.29658299999999993
26755822 -0.329065 0.3256513333333333
28241701 -0.315247 0.3526883333333333
29727580 -0.302091 0.37872633333333333
31213459 -0.29939000000000004 0.38999566666666663
32699338 -0.297134 0.40018066666666663
34185217 -0.29095766666666667 0.4134643333333333
35671096 -0.283537 0.43224399999999996
37156975 -0.274808 0.4585056666666667
38642854 -0.25748 0.4913166666666666
40128733 -0.238582 0.5391063333333334
41614612 -0.19406633333333329 0.5900046666666667
43100491 -0.14315066666666665 0.6659673333333332
44586370 -0.05782633333333333 0.7514913333333333
46072249 0.06546966666666666 0.8589053333333334
47558128 0.25827466666666665 0.9453636666666665
49044007 0.5166936666666666 0.981019
50529886 0.7995943333333334 0.9076663333333332
52015765 1.0852596666666665 0.7545136666666666
53501644 1.2172383333333334 0.5033876666666666
54987523 1.2464036666666667 0.2736246666666667
56473402 1.2169246666666667 0.08203066666666665
57959281 1.1197513333333333 -0.0006303333333333332
59445160 1.0287613333333332 -0.010821666666666667
60931039 1.001205 -0.0022979999999999997
62416918 1.0056336666666665 -0.010499999999999999
63902797 1.0081353333333332 -0.01898933333333333
65388676 1.0111113333333333 -0.027388
66874555 1.014009 -0.02186733333333333
68360434 1.0118253333333334 -0.10595099999999999
69846313 1.0176919999999998 0.0031656666666666665
71332192 1.0185823333333333 0.009451999999999999
72818071 1.0191823333333332 -0.03417366666666667
74303950 1.0197483333333333 -0.024628
75789829 1.018965 0.05954666666666667
77275708 1.0180583333333333 0.03613133333333333
78761587 1.0169183333333331 0.04355866666666667
80247466 1.015574 -0.07151966666666665
81733345 1.0150253333333332 -0.02309033333333333
83219224 1.0128473333333332 -0.03316
84705103 1.0086803333333332 -0.05786466666666666
86190982 1.0033599999999998 0.06756633333333333
87676861 1.0029843333333333 -0.04839333333333333
89162740 0.9990713333333333 -0.022358999999999997
90648619 0.9970446666666666 -0.03966033333333333
92134498 1.0017226666666668 -0.03574666666666666
93620377 1.0048146666666666 -0.00244
95106256 1.0083846666666667 -0.028849
96592135 1.0106246666666667 -0.027331
98078014 1.0133636666666666 -0.021290666666666666
99563893 1.0140933333333333 -0.017195333333333333
101049772 1.0182893333333332 -0.024387333333333334
102535651 1.0177386666666666 -0.030462999999999997
104021530 1.0199209999999999 -0.012298666666666666
105507409 1.0201143333333333 -0.010201666666666666
106993288 1.0183516666666668 -0.023668333333333333
108479167 1.01924 -0.004534000000000001
109965046 1.0175653333333332 -0.016289
111450925 1.014207 -0.029571666666666666
112936804 1.013471 -0.015906
114422683 1.0111746666666666 0.009772666666666666
115908562 1.006568333333333 0.015795333333333335
117394441 1.0050076666666667 -0.02068833333333333
118880320 1.0013963333333333 -0.014886
120366199 0.9997883333333333 0.0035250000000000004
121852078 1.0025033333333333 -0.02892
123337957 1.0066289999999998 -0.028888666666666663
124823836 1.0106326666666665 -0.029808333333333333
126309715 1.0155393333333331 0.008892
127795594 1.0174483333333335 -0.029718333333333333
129281473 1.0209436666666667 0.0022246666666666686
130767352 1.0224926666666667 -0.030032666666666666
132253231 1.0248383333333333 0.009882666666666668
133739110 1.0251649999999999 -0.028537999999999997
135224989 1.0123633333333333 -0.04096699999999999
136710868 1.0130003333333333 -0.040694999999999995
138196747 1.0111053333333333 -0.052754
139682626 1.0120096666666665 -0.03947933333333333
141168505 1.0115323333333333 -0.03942733333333333
142654384 1.0103086666666665 -0.03859
144140263 1.008452333333333 -0.03775066666666667
145626142 1.0085169999999999 -0.004594333333333332
147112021 1.0036926666666666 -0.036742
148597900 1.0009533333333334 -0.03614
150083779 0.9971393333333333 -0.03528866666666666
151569658 1.0009093333333332 -0.036406
153055537 1.0047273333333333 -0.03648766666666667
154541416 1.0065906666666666 -0.037796666666666666
156027295 1.0101303333333331 -0.038329
157513174 1.0127359999999999 -0.03752066666666666
158999053 1.0134436666666666 -0.039302666666666666
160484932 1.014653 -0.03847766666666667
161970811 1.0156943333333333 -0.038668999999999995
163456690 1.0160449999999999 -0.038466
164942569 1.0163636666666669 -0.038965
166428448 1.0168089999999999 -0.03876666666666666
167914327 1.015558 -0.039472
169400206 1.0142476666666664 -0.03958099999999999
170886085 1.0140056666666668 -0.039246333333333334
172371964 1.0114943333333333 -0.03961766666666666
173857843 1.010348 -0.04012566666666667
175343722 1.0087856666666666 -0.02672433333333333
176829601 1.0078916666666666 -0.027830333333333332
178315480 1.0043443333333333 -0.02835233333333333
179801359 1.0005363333333332 -0.028829666666666663
181287238 1.0027046666666666 -0.02961033333333333
182773117 1.0062283333333333 -0.029829666666666664
184258996 1.009411 -0.029497999999999996
185744875 1.0129806666666665 -0.030206666666666666
187230754 1.0145193333333333 -0.03026333333333333
188716633 1.0168116666666664 -0.03079933333333333
190202512 1.0177616666666665 -0.030831666666666667
191688391 1.0196936666666665 -0.03036133333333333
193174270 1.0205116666666665 -0.029791333333333336
194660149 1.0206739999999999 -0.029958333333333337
196146028 1.0203783333333334 -0.03034833333333333
197631907 1.019966333333333 -0.03054233333333333
199117786 1.0156196666666666 -0.043638666666666666
200603665 1.014367 -0.04298333333333333
202089544 1.0118696666666667 -0.043888666666666666
203575423 1.0101856666666666 -0.04405733333333334
205061302 1.0078966666666664 -0.04409
206547181 1.0041306666666665 -0.04509733333333333
208033060 1.0007393333333332 -0.045823333333333334
209518939 0.9970016666666668 -0.046759999999999996
211004818 0.998995 -0.047762
212490697 1.0021896666666665 -0.04853666666666666
213976576 1.0058486666666666 -0.048267000000000004
215462455 1.0090246666666665 -0.04779233333333333
216948334 1.0115586666666667 -0.04816833333333333
218434213 1.0132706666666667 -0.04841566666666667
219920092 1.0157889999999998 -0.048914333333333324
221405971 1.0155793333333334 -0.04838099999999999
222891850 1.0155589999999999 -0.04786633333333333
224377729 1.017231 -0.047979999999999995
225863608 1.011421 -0.065986
227349487 1.0165123333333332 -0.04838133333333333
228835366 1.0151533333333334 -0.047473999999999995
230321245 1.0138426666666667 -0.04805733333333333
231807124 1.0103693333333332 -0.047774333333333335
233293003 1.0085156666666668 -0.04953766666666666
234778882 1.006136 -0.04962833333333333
236264761 1.0022386666666665 -0.050747
237750640 0.997966 -0.05189866666666666
239236519 0.9941853333333333 -0.052829666666666664
240722398 0.9951 -0.05354099999999999
242208277 0.9988296666666666 -0.054205
243694156 1.0028756666666667 -0.05476
245180035 1.0057339999999997 -0.05390866666666667
246665914 1.0088896666666665 -0.054687333333333324
248151793 1.0121449999999999 -0.054952666666666664
249637672 1.0142083333333334 -0.05514999999999999
251123551 1.0150546666666664 -0.05599966666666667
252609430 1.016233 -0.054915666666666654
254095309 1.016808 -0.05563966666666667
255581188 1.0165533333333332 -0.055204
257067067 1.016448 -0.05482066666666666
258552946 1.0153566666666667 -0.05524933333333333
260038825 1.0143523333333333 -0.05570833333333333
261524704 1.0125609999999998 -0.05578066666666666
263010583 1.0097783333333334 -0.056406333333333336
264496462 1.005973 -0.056776666666666656
265982341 1.0027636666666666 -0.05813433333333333
267468220 0.9991483333333333 -0.05830366666666667
268954099 0.9945176666666666 -0.05945399999999999
270439978 0.9932816666666666 -0.06070533333333333
271925857 0.9985566666666666 -0.06098733333333334
273411736 1.0016219999999998 -0.06193666666666667
274897615 1.0063693333333332 -0.061903999999999994
276383494 1.009893 -0.06294033333333333
277869373 1.0120423333333333 -0.062259999999999996
279355252 1.0164399999999998 -0.05730666666666667
280841131 1.0158963333333333 -0.06374966666666666
282327010 1.019175 -0.05741966666666666
283812889 1.0169433333333333 -0.06929866666666668
285298768 1.0205783333333334 -0.05607199999999999
286784647 1.016371 -0.06850999999999999
288270526 1.0178800000000001 -0.05590766666666667
289756405 1.0141973333333332 -0.06887666666666667
291242284 1.015041 -0.05614333333333333
292728163 1.0094823333333331 -0.06924533333333334
294214042 1.0086526666666666 -0.05733866666666666
295699921 1.002896 -0.069747
297185800 1.00094 -0.05913033333333334
298671679 0.9942473333333333 -0.07150966666666665
300157558 0.9924900000000001 -0.066359
301643437 0.9975353333333332 -0.06693166666666665
303129316 1.0019696666666666 -0.066675
304615195 1.0065146666666664 -0.06612533333333333
306101074 1.0097026666666666 -0.066121
307586953 1.012899 -0.06517633333333334
309072832 1.016031 -0.06505633333333333
310558711 1.019328 -0.063758
312044590 1.0205586666666666 -0.06302766666666666
313530469 1.0214923333333332 -0.062137
315016348 1.0205783333333334 -0.061544666666666664
316502227 1.0218346666666664 -0.06089733333333334
317988106 1.019966333333333 -0.060699333333333334
319473985 1.0188819999999998 -0.058139333333333335
320959864 1.0161259999999999 -0.05772766666666666
322445743 1.0141179999999999 -0.055933
323931622 1.0115156666666665 -0.049819
325417501 1.0095053333333333 -0.043799333333333336
326903380 1.004397 -0.043310666666666664
328389259 1.0041043333333333 -0.03276833333333333
329875138 0.9953113333333334 -0.04402233333333333
331361017 0.998543 -0.045328999999999994
332846896 1.0024863333333331 -0.047344
334332775 1.0058993333333333 -0.04878566666666666
335818654 1.0083326666666665 -0.050972666666666666
337304533 1.0115923333333332 -0.05201333333333333
338790412 1.0135933333333331 -0.053198999999999996
340276291 1.0156023333333333 -0.05431899999999999
341762170 1.0159159999999998 -0.05572566666666666
343248049 1.0168833333333334 -0.055824
344733928 1.017189333333333 -0.05715033333333333
346219807 1.0171396666666666 -0.05707233333333332
347705686 1.0154536666666667 -0.058364666666666655
349191565 1.0109033333333333 -0.07035566666666665
350677444 1.0086306666666665 -0.07100733333333334
352163323 1.006433 -0.07252033333333333
353649202 1.003415 -0.07233166666666666
355135081 1.0004306666666665 -0.07306866666666666
356620960 0.9954306666666667 -0.07483566666666666
358106839 0.9921393333333334 -0.076539
359592718 0.9871736666666666 -0.07774433333333333
361078597 0.9889346666666665 -0.07931733333333332
362564476 0.9925696666666666 -0.080638
364050355 0.9966216666666666 -0.08182866666666666
365536234 0.9998999999999999 -0.08301666666666666
367022113 1.0030869999999998 -0.08425433333333333
368507992 1.0054746666666667 -0.08502966666666667
369993871 1.0068713333333332 -0.08519233333333333
371479750 1.0084143333333333 -0.08581699999999999
372965629 1.0088406666666665 -0.08615966666666666
374451508 1.0109486666666667 -0.08498866666666667
375937387 1.0550566666666665 -0.06758266666666665
377423266 1.0095866666666666 -0.08642699999999999
378909145 1.006662 -0.08983333333333333
380395024 1.0074316666666665 -0.08548099999999999
381880903 1.0043373333333332 -0.08562733333333333
383366782 1.0020093333333333 -0.08466933333333333
384852661 0.9983579999999999 -0.08435933333333334
386338540 0.9951659999999999 -0.084836
387824419 0.9906079999999999 -0.08479266666666666
389310298 0.9862526666666667 -0.08638900000000001
390796177 0.9860709999999999 -0.08624233333333332
392282056 0.9897156666666668 -0.08774733333333332
393767935 0.993435 -0.08981933333333332
395253814 0.9972143333333334 -0.09099799999999998
396739693 1.0008139999999999 -0.09007966666666667
398225572 1.0024863333333331 -0.091242
399711451 1.0039859999999998 -0.09230233333333333
401197330 1.0062073333333332 -0.09251533333333334
402683209 1.0070866666666665 -0.09231099999999999
404169088 1.007657 -0.092752
405654967 1.0083656666666665 -0.092763
407140846 1.0064959999999998 -0.09276166666666666
408626725 1.0059693333333333 -0.09137966666666666
410112604 1.0047113333333333 -0.09043733333333333
411598483 1.0029506666666665 -0.09019833333333332
413084362 1.0003813333333333 -0.09054633333333331
414570241 0.9968333333333332 -0.09036
416056120 0.9930680000000001 -0.091202
417541999 0.9886856666666667 -0.089854
419027878 0.9843976666666667 -0.089919
420513757 0.9831983333333333 -0.09052433333333333
421999636 0.9872699999999999 -0.09247233333333334
423485515 0.9909016666666666 -0.09421000000000002
424971394 0.9941833333333332 -0.09342233333333334
426457273 0.9967556666666667 -0.095045
427943152 0.9994296666666665 -0.09566
429429031 0.9995629999999999 -0.10258633333333333
430914910 1.0018173333333333 -0.09587199999999999
432400789 1.0029076666666665 -0.09624866666666666
433886668 1.004102 -0.09675566666666666
435372547 1.003194 -0.095788
436858426 1.0040316666666667 -0.09668533333333332
438344305 1.0024739999999999 -0.09498799999999999
439830184 1.0019390000000001 -0.09501833333333333
441316063 0.9995993333333333 -0.095779
442801942 0.9969516666666666 -0.09448766666666665
444287821 0.9942833333333333 -0.09348333333333333
445773700 0.9902356666666666 -0.09439033333333333
447259579 0.9866760000000001 -0.09314633333333333
448745458 0.9824676666666666 -0.09403099999999999
450231337 0.9790559999999999 -0.092495
451717216 0.9824406666666665 -0.09402233333333333
453203095 0.986026 -0.09606733333333334
454688974 0.9885023333333334 -0.09736233333333333
456174853 0.9925516666666667 -0.09774766666666668
457660732 0.9962193333333333 -0.09943399999999998
459146611 0.9975523333333333 -0.099983
460632490 0.997406 -0.09998566666666667
462118369 0.9990733333333333 -0.10076399999999999
463604248 1.0006490000000001 -0.099279
465090127 1.0003736666666665 -0.10006066666666666
466576006 0.999961 -0.100851
468061885 0.998988 -0.10106566666666666
469547764 0.9971669999999999 -0.09857766666666667
471033643 1.0078456666666666 -0.07214766666666667
472519522 0.9932949999999999 -0.10024733333333333
474005401 0.9916383333333334 -0.10026000000000002
475491280 0.9884413333333333 -0.09895933333333334
476977159 0.9843673333333333 -0.10027166666666666
478463038 0.9802836666666666 -0.10006
479948917 0.9760313333333333 -0.10054666666666667
481434796 0.9792136666666666 -0.102114
482920675 0.9836826666666667 -0.10202333333333333
484406554 0.986486 -0.10447533333333332
485892433 0.9900093333333332 -0.10325766666666666
487378312 0.9918066666666667 -0.10568766666666665
488864191 0.9946416666666666 -0.10597033333333333
490350070 0.9955643333333333 -0.10630733333333332
491835949 0.9971116666666667 -0.10533933333333334
493321828 0.997141 -0.10693833333333333
494807707 0.9974243333333332 -0.10718333333333332
496293586 0.9966936666666666 -0.10733633333333333
497779465 0.9968996666666667 -0.10614666666666667
499265344 0.9959693333333333 -0.10601
500751223 0.9936109999999998 -0.10570033333333331
502237102 0.9917056666666666 -0.10639633333333333
503722981 0.9888406666666666 -0.10643133333333334
505208860 0.98607 -0.107511
506694739 0.9823036666666667 -0.105807
508180618 0.9784343333333334 -0.10527166666666667
509666497 0.9751719999999999 -0.10562633333333334
511152376 0.9764299999999999 -0.10784333333333332
512638255 0.9799556666666667 -0.10931033333333331
514124134 0.9834436666666666 -0.10973466666666666
515610013 0.9870009999999999 -0.11011
517095892 0.9887206666666667 -0.11067933333333332
518581771 0.9910426666666666 -0.11112899999999999
520067650 0.9926606666666666 -0.11139033333333333
521553529 0.9937386666666665 -0.11263933333333333
523039408 0.9954320000000001 -0.11180866666666667
524525287 0.9946389999999999 -0.11202899999999999
526011166 0.9925123333333332 -0.11947799999999999
527497045 0.9942726666666666 -0.11220366666666666
528982924 0.9925316666666666 -0.11235466666666666
530468803 0.9905893333333333 -0.11218233333333333
531954682 0.9881306666666667 -0.11167099999999999
533440561 0.9868763333333332 -0.112427
534926440 0.9838713333333333 -0.11292433333333332
536412319 0.9801686666666667 -0.11161299999999999
537898198 0.9759056666666666 -0.112307
539384077 0.971666 -0.11228033333333333
540869956 0.9725239999999999 -0.11448933333333333
542355835 0.9758233333333333 -0.11454666666666666
543841714 0.9779033333333333 -0.11371866666666666
545327593 0.9806113333333333 -0.11388833333333333
546813472 0.9833986666666666 -0.11454233333333333
548299351 0.9843283333333332 -0.115195
549785230 0.9858889999999999 -0.11339533333333332
551271109 0.985528 -0.11629233333333333
552756988 0.9856623333333332 -0.11297166666666666
554242867 0.9855616666666666 -0.11346
555728746 0.985069 -0.11333733333333332
557214625 0.982621 -0.11219966666666666
558700504 0.9814706666666666 -0.11200266666666665
560186383 0.9792163333333332 -0.11254533333333333
561672262 0.9750006666666666 -0.11040599999999998
563158141 0.9719256666666666 -0.11144233333333332
564644020 0.9687613333333333 -0.11161766666666667
566129899 0.9636253333333333 -0.110718
567615778 0.9600053333333333 -0.11209966666666665
569101657 0.954863 -0.11217933333333333
570587536 0.9534226666666666 -0.11145133333333332
572073415 0.9579866666666665 -0.11409133333333332
573559294 0.96276 -0.11473133333333332
575045173 0.966096 -0.11619466666666667
576531052 0.970376 -0.119137
578016931 0.9716269999999999 -0.117954
579502810 0.974684 -0.11896033333333333
580988689 0.9762136666666665 -0.11971699999999999
582474568 0.9783953333333333 -0.12151733333333332
583960447 0.9783909999999999 -0.12242333333333333
585446326 0.9795579999999999 -0.12121333333333334
586932205 0.9783973333333333 -0.12177633333333333
588418084 0.9785499999999999 -0.121251
589903963 0.9779233333333333 -0.12286133333333332
591389842 0.9759123333333333 -0.12146633333333334
592875721 0.9746003333333333 -0.12000966666666665
594361600 0.9719353333333333 -0.12038599999999999
595847479 0.9684893333333333 -0.121333
597333358 0.966107 -0.12329133333333332
598819237 0.9617199999999999 -0.12098466666666666
600305116 0.9588453333333332 -0.12225966666666666
601790995 0.9636579999999999 -0.12438733333333332
603276874 0.9692019999999999 -0.12514033333333333
604762753 0.9719933333333333 -0.12580633333333333
606248632 0.9766913333333334 -0.12608866666666665
607734511 0.9795603333333333 -0.12698833333333331
609220390 0.9824576666666667 -0.12628133333333333
610706269 0.9837643333333334 -0.126079
612192148 0.9859703333333332 -0.1255403333333333
613678027 0.987002 -0.12532966666666667
615163906 0.9870556666666666 -0.126732
616649785 0.9867483333333333 -0.12455633333333332
618135664 0.9860773333333333 -0.12318966666666666
619621543 0.9859536666666667 -0.12382133333333334
621107422 0.9827613333333334 -0.12305766666666665
622593301 0.9824896666666666 -0.12174366666666667
624079180 0.9795333333333334 -0.12173233333333333
625565059 0.9762489999999999 -0.11875999999999999
627050938 0.9707936666666666 -0.12313066666666664
628536817 0.9599433333333334 -0.13424233333333332
630022696 0.9623816666666667 -0.11892733333333333
631508575 0.9588096666666666 -0.14265
632994454 0.9285756666666667 -0.130764
634480333 0.9756746666666667 -0.12377866666666666
635966212 0.9790700000000001 -0.12352866666666668
637452091 0.9768589999999999 -0.13709766666666665
638937970 0.9838193333333332 -0.12679266666666666
640423849 0.9853669999999999 -0.1279533333333333
