# HZ S RI R 50
10000 1.0836709999999998 -0.25717799999999996
1495879 0.34432399999999996 3.0390086666666662
2981758 15.210579333333332 -3.732086
4467637 3.591511333333333 -2.9764826666666666
5953516 1.3809639999999999 -2.240834
7439395 0.5584906666666667 -1.6287436666666664
8925274 -0.5008563333333333 -0.30831866666666663
10411153 -0.48940833333333333 -0.207248
11897032 -0.476155 -0.123002
13382911 -0.46174066666666663 -0.05134899999999999
14868790 -0.4467393333333334 0.01048
16354669 -0.4315846666666666 0.06483733333333332
17840548 -0.41625566666666663 0.113229
19326427 -0.40144366666666664 0.15643966666666667
20812306 -0.3866666666666666 0.195894
22298185 -0.3716716666666667 0.23194700000000001
23784064 -0.35769399999999996 0.2653833333333333
25269943 -0.3434756666666666 0.2965293333333333
26755822 -0.32952566666666666 0.3255703333333333
28241701 -0.316368 0.35313833333333333
29727580 -0.3028343333333333 0.37875
31213459 -0.29959733333333327 0.38981
32699338 -0.29766166666666666 0.40020733333333336
34185217 -0.291807 0.413802
35671096 -0.2847293333333333 0.43243200000000004
37156975 -0.275512 0.45885766666666666
38642854 -0.2586403333333333 0.49214800000000003
40128733 -0.24007366666666666 0.5401753333333332
41614612 -0.1950363333333333 0.5907366666666666
43100491 -0.14372266666666667 0.6664326666666667
44586370 -0.05931533333333333 0.752573
46072249 0.06530366666666666 0.8615466666666667
47558128 0.25872266666666666 0.9484566666666666
49044007 0.5172243333333333 0.984426
50529886 0.8029666666666666 0.9097303333333333
52015765 1.0892259999999998 0.754774
53501644 1.2212359999999998 0.5036483333333333
54987523 1.2502246666666665 0.27091466666666664
56473402 1.218516 0.07833733333333333
57959281 1.1216593333333331 -0.0037
59445160 1.0285666666666666 -0.013198333333333333
60931039 1.0011026666666667 -0.005699333333333332
62416918 1.004445 -0.014431
63902797 1.0081449999999998 -0.021887666666666666
65388676 1.0101586666666666 -0.029933999999999995
66874555 1.0142303333333333 -0.025245999999999998
68360434 1.0116756666666666 -0.10813633333333333
69846313 1.0170956666666666 -6.633333333333331e-05
71332192 1.0177803333333333 0.005937666666666666
72818071 1.018655 -0.03761233333333333
74303950 1.0197976666666666 -0.027563000000000004
75789829 1.017652 0.04059433333333333
77275708 1.0172169999999998 0.03255566666666666
78761587 1.0167976666666665 0.03955433333333333
80247466 1.015299333333333 -0.074834
81733345 1.0146670000000002 -0.026973333333333335
83219224 1.0124179999999998 -0.037128999999999995
84705103 1.0089516666666665 -0.06179066666666666
86190982 1.0040766666666665 0.06313166666666667
87676861 1.0017273333333332 -0.05204166666666667
89162740 0.9993080000000001 -0.026255
90648619 0.9975319999999999 -0.04329466666666666
92134498 1.0007026666666665 -0.040874999999999995
93620377 1.0040063333333331 -0.007154999999999999
95106256 1.0075453333333333 -0.03338566666666666
96592135 1.0097 -0.03140433333333333
98078014 1.0115943333333333 -0.026311
99563893 1.0137173333333331 -0.02131333333333333
101049772 1.0154223333333334 -0.03450433333333333
102535651 1.016764 -0.03415633333333333
104021530 1.0160743333333333 -0.035158333333333326
105507409 1.0153966666666665 -0.03309266666666666
106993288 1.0167543333333333 -0.034566
108479167 1.0153156666666667 -0.033995000000000004
109965046 1.0160526666666667 -0.03401533333333333
111450925 1.0138363333333333 -0.03398266666666666
112936804 1.0113163333333333 -0.03363166666666666
114422683 1.0089136666666665 -0.03357366666666667
115908562 1.0064603333333333 -0.033238666666666666
117394441 1.0026259999999998 -0.03355533333333333
118880320 0.9983236666666666 -0.03288033333333333
120366199 0.9965296666666665 -0.032895999999999995
121852078 1.001394 -0.03456066666666666
123337957 1.0049803333333334 -0.03425966666666666
124823836 1.0091999999999999 -0.034553
126309715 1.0121346666666666 -0.03555066666666666
127795594 1.014594 -0.035638666666666666
129281473 1.0180566666666666 -0.035998666666666665
130767352 1.0207586666666666 -0.03605066666666666
132253231 1.0229519999999996 -0.035846333333333334
133739110 1.0249183333333332 -0.035527333333333334
135224989 1.011159 -0.04710133333333333
136710868 1.0111979999999998 -0.046855666666666664
138196747 1.011303 -0.045941666666666665
139682626 1.0102286666666667 -0.04568933333333334
141168505 1.009175 -0.04452866666666667
142654384 1.0083523333333333 -0.043626
144140263 1.0059036666666663 -0.04327500000000001
145626142 1.0033266666666667 -0.042399
147112021 1.0015333333333332 -0.04253633333333333
148597900 0.998364 -0.042410333333333335
150083779 0.9948416666666666 -0.041146666666666665
151569658 0.9985013333333332 -0.042409333333333334
153055537 1.0013569999999998 -0.04340266666666666
154541416 1.0051299999999999 -0.04384333333333333
156027295 1.0069096666666666 -0.044116666666666665
157513174 1.0097196666666668 -0.045231
158999053 1.009807 -0.04542866666666667
160484932 1.0118163333333332 -0.044833
161970811 1.014281 -0.045319
163456690 1.0145896666666667 -0.04589966666666667
164942569 1.013516 -0.045606999999999995
166428448 1.013484333333333 -0.045496666666666664
167914327 1.0128983333333332 -0.04579799999999999
169400206 1.01125 -0.045957
170886085 1.0114616666666665 -0.046626
172371964 0.9652903333333335 -0.06321066666666667
173857843 1.0067193333333333 -0.04659133333333333
175343722 1.0035809999999998 -0.04684133333333333
176829601 1.000106333333333 -0.053330999999999996
178315480 0.998111 -0.04800433333333333
179801359 0.9951599999999999 -0.048895333333333325
181287238 0.9962726666666667 -0.04998166666666666
182773117 1.0009153333333334 -0.049827333333333335
184258996 1.0039436666666666 -0.049612666666666666
185744875 1.0066996666666665 -0.050893
187230754 1.0088553333333332 -0.050969999999999994
188716633 1.0097706666666668 -0.05019733333333333
190202512 1.011593 -0.050764333333333335
191688391 1.0123073333333332 -0.05066733333333333
193174270 1.0134623333333332 -0.05082333333333333
194660149 1.0140576666666665 -0.05118
196146028 1.0136453333333333 -0.051042333333333335
197631907 1.013178 -0.051195
199117786 1.0122216666666666 -0.05093866666666667
200603665 1.0099953333333334 -0.05085233333333333
202089544 1.0087396666666666 -0.05113333333333332
203575423 1.006579 -0.051928666666666665
205061302 1.0038173333333333 -0.052357999999999995
206547181 1.000106 -0.05384933333333333
208033060 0.9967789999999999 -0.054046333333333335
209518939 0.9935493333333333 -0.054762333333333336
211004818 0.9943276666666666 -0.055659999999999994
212490697 0.997566 -0.056309
213976576 1.001617 -0.05632966666666667
215462455 1.0044353333333333 -0.056954000000000005
216948334 1.0074453333333333 -0.055690666666666666
218434213 1.009587 -0.056808666666666674
219920092 1.01105 -0.055903999999999995
221405971 1.0116303333333332 -0.056158
222891850 1.0123616666666666 -0.05608866666666666
224377729 1.0127583333333332 -0.055312
225863608 1.01273 -0.05527433333333333
227349487 1.010087 -0.05632566666666666
228835366 1.0110473333333332 -0.056664
230321245 1.0086679999999997 -0.056624999999999995
231807124 1.0072990000000002 -0.05715233333333333
233293003 1.0040863333333334 -0.057513999999999996
234778882 1.0011236666666665 -0.058217
236264761 0.9975890000000001 -0.05834266666666666
237750640 0.9936309999999999 -0.05965933333333333
239236519 0.9892363333333334 -0.06101199999999999
240722398 0.9896943333333332 -0.06096333333333333
242208277 0.9937596666666667 -0.062100666666666665
243694156 0.9974876666666666 -0.06271099999999999
245180035 1.0009706666666667 -0.063135
246665914 1.0045153333333332 -0.06308766666666665
248151793 1.0072506666666667 -0.06332633333333332
249637672 1.0086536666666666 -0.063534
251123551 1.0095973333333332 -0.063535
252609430 1.011123 -0.06352233333333332
254095309 1.011523 -0.06302466666666666
255581188 1.0112610000000002 -0.06417266666666667
257067067 1.010565 -0.06338466666666667
258552946 1.0094003333333332 -0.06360566666666666
260038825 1.0085136666666665 -0.06428766666666666
261524704 1.0063606666666667 -0.06473266666666666
263010583 1.0037593333333332 -0.064869
264496462 1.0009116666666666 -0.06604033333333333
265982341 0.9965979999999999 -0.06586199999999999
267468220 0.9929263333333334 -0.06693133333333334
268954099 0.9891096666666666 -0.068231
270439978 0.9874126666666667 -0.06887533333333332
271925857 0.992022 -0.06947766666666666
273411736 0.9955326666666666 -0.07127966666666666
274897615 0.9994136666666666 -0.07155033333333333
276383494 1.0032513333333333 -0.07138566666666665
277869373 1.0050516666666667 -0.07199533333333333
279355252 1.0082716666666667 -0.071747
280841131 1.0103203333333333 -0.07062433333333332
282327010 1.0113023333333333 -0.07074066666666666
283812889 1.0113863333333333 -0.07114866666666667
285298768 1.0110766666666666 -0.071467
286784647 1.011645333333333 -0.07139466666666666
288270526 1.0102343333333332 -0.07260933333333333
289756405 1.0087139999999999 -0.07124333333333333
291242284 1.0063689999999998 -0.07107633333333332
292728163 1.0046066666666666 -0.07140966666666666
294214042 1.0008393333333334 -0.072308
295699921 0.9968459999999999 -0.072459
297185800 0.9929716666666667 -0.07371566666666665
298671679 0.9881176666666667 -0.07352433333333333
300157558 0.9851076666666666 -0.075293
301643437 0.990071 -0.07520633333333332
303129316 0.9943559999999999 -0.07655133333333333
304615195 0.999602 -0.07589033333333334
306101074 1.0017756666666666 -0.07465433333333334
307586953 1.006442 -0.07464866666666665
309072832 1.0090246666666665 -0.07415966666666667
310558711 1.010935 -0.07361699999999999
312044590 1.0120736666666668 -0.07294066666666665
313530469 1.0135766666666666 -0.07232133333333332
315016348 1.0132663333333332 -0.06988666666666665
316502227 1.01356 -0.070172
317988106 1.0121186666666664 -0.068436
319473985 1.0104673333333332 -0.06746833333333332
320959864 1.009208 -0.06627133333333332
322445743 1.0067789999999999 -0.06488733333333332
323931622 1.0024486666666665 -0.06558566666666667
325417501 0.9990036666666665 -0.06483066666666666
326903380 0.9941639999999998 -0.06428766666666666
328389259 0.9603950000000001 -0.08501166666666667
329875138 0.9848656666666666 -0.06324666666666666
331361017 0.9878273333333333 -0.066573
332846896 0.9909843333333332 -0.06831533333333331
334332775 0.9942303333333333 -0.06867166666666666
335818654 0.997185 -0.07067366666666666
337304533 1.0000626666666665 -0.07228466666666666
338790412 1.0018736666666666 -0.07389933333333333
340276291 1.0035696666666667 -0.07421033333333332
341762170 1.004947 -0.07597166666666667
343248049 1.0039246666666666 -0.07663266666666667
344733928 1.0041646666666664 -0.07807433333333333
346219807 1.0039333333333333 -0.07757166666666666
347705686 1.0036723333333333 -0.07805833333333334
349191565 1.0016823333333331 -0.079265
350677444 1.000603 -0.08036
352163323 0.9974909999999999 -0.080743
353649202 0.9940120000000001 -0.08247466666666665
355135081 0.9903356666666667 -0.08274366666666666
356620960 0.9864933333333333 -0.08296366666666666
358106839 0.9829986666666666 -0.085308
359592718 0.977587 -0.08583166666666667
361078597 0.9792129999999999 -0.086881
362564476 0.9829429999999999 -0.08977233333333334
364050355 0.9864526666666666 -0.08983466666666665
365536234 0.9907186666666666 -0.09145266666666665
367022113 0.9936656666666666 -0.09240999999999999
368507992 0.9952456666666666 -0.092817
369993871 0.9973453333333332 -0.09297533333333333
371479750 0.998614 -0.094222
372965629 0.9998333333333334 -0.09413366666666667
374451508 0.9994513333333332 -0.09492566666666666
375937387 1.000662333333333 -0.09362999999999999
377423266 0.9999233333333333 -0.09495966666666666
378909145 0.9984886666666666 -0.09415766666666665
380395024 0.9972723333333332 -0.09334033333333333
381880903 0.9985010000000001 -0.08254
383366782 0.9918866666666666 -0.09343733333333333
384852661 0.988699 -0.093626
386338540 0.9843126666666666 -0.09361466666666665
387824419 0.980333 -0.09282666666666667
389310298 0.975685 -0.092622
390796177 0.9757850000000001 -0.09429699999999999
392282056 0.9793149999999999 -0.09561666666666666
393767935 0.983484 -0.09715966666666666
395253814 0.9872296666666666 -0.09785233333333333
396739693 0.9902713333333333 -0.097875
398225572 0.9908936666666667 -0.09962966666666664
399711451 0.9936826666666666 -0.10004466666666667
401197330 0.9949973333333333 -0.09969099999999999
402683209 0.9960576666666665 -0.10059966666666667
404169088 0.99652 -0.10084066666666665
405654967 0.99624 -0.100209
407140846 0.9953416666666666 -0.10102266666666666
408626725 0.9945733333333333 -0.100716
410112604 0.9928343333333333 -0.09963099999999998
411598483 0.991262 -0.10005266666666665
413084362 0.988222 -0.09747133333333333
414570241 0.9855533333333333 -0.09755733333333333
416056120 0.9816963333333334 -0.098076
417541999 0.9784476666666666 -0.09724833333333333
419027878 0.9736506666666666 -0.09668966666666667
420513757 0.971895 -0.09837666666666667
421999636 0.9757023333333332 -0.09937633333333332
423485515 0.979841 -0.10030533333333333
424971394 0.9823740000000001 -0.101768
426457273 0.9843426666666666 -0.102603
427943152 0.9877349999999999 -0.10317599999999999
429429031 0.9891383333333332 -0.10353699999999999
430914910 0.990096 -0.10374166666666665
432400789 0.9916663333333333 -0.10457899999999999
433886668 0.9917233333333333 -0.10363833333333333
435372547 0.991837 -0.10244466666666666
436858426 0.9909103333333333 -0.10330833333333334
438344305 0.9906053333333333 -0.10245033333333332
439830184 0.989433 -0.10209499999999999
441316063 0.987294 -0.10233566666666667
442801942 0.9846326666666665 -0.10085899999999999
444287821 0.9817296666666666 -0.101016
445773700 0.97838 -0.10206699999999999
447259579 0.9751006666666666 -0.10113766666666665
448745458 0.9713019999999999 -0.10132999999999999
450231337 0.9675433333333334 -0.10025400000000001
451717216 0.9704866666666666 -0.10182799999999999
453203095 0.9748303333333332 -0.10229699999999999
454688974 0.977981 -0.10538700000000001
456174853 0.9807546666666666 -0.10437866666666665
457660732 0.9824116666666667 -0.10699
459146611 0.9843533333333332 -0.10674266666666667
460632490 0.98678 -0.10626166666666666
462118369 0.9866553333333333 -0.10798133333333333
463604248 0.9877386666666667 -0.10730233333333333
465090127 0.9868526666666666 -0.10847666666666667
466576006 0.9872653333333333 -0.10778666666666666
468061885 0.9861573333333333 -0.10648166666666666
469547764 0.985373 -0.10747966666666667
471033643 0.9834763333333332 -0.10761799999999999
472519522 0.9813486666666666 -0.10602799999999998
474005401 0.9780686666666667 -0.10773566666666667
475491280 0.9736513333333333 -0.11234366666666668
476977159 0.9725236666666667 -0.10039499999999998
478463038 0.9687950000000001 -0.10063966666666666
479948917 0.9182136666666666 -0.090651
481434796 0.9687716666666667 -0.10243666666666665
482920675 0.9721716666666667 -0.10253233333333334
484406554 0.974665 -0.10491399999999998
485892433 0.97817 -0.10458333333333333
487378312 0.9804203333333332 -0.10575899999999999
488864191 0.9813336666666667 -0.10723866666666666
490350070 0.9828203333333333 -0.10709133333333333
491835949 0.9839323333333333 -0.10742933333333334
493321828 0.9851546666666666 -0.10814666666666667
494807707 0.9854243333333332 -0.10785066666666666
496293586 0.9847536666666665 -0.10726266666666667
497779465 0.9848256666666666 -0.10567566666666667
499265344 0.9827946666666666 -0.106267
500751223 0.9807043333333333 -0.10702566666666666
502237102 0.9790679999999999 -0.10626666666666668
503722981 0.9734379999999999 -0.11814733333333334
505208860 0.973452 -0.10551333333333332
506694739 0.9669466666666666 -0.117357
508180618 0.9665226666666666 -0.10622466666666666
509666497 0.9588859999999999 -0.11868599999999999
511152376 0.9643943333333334 -0.10761500000000002
512638255 0.966653 -0.11477899999999999
514124134 0.970407 -0.11438299999999998
515610013 0.973036 -0.115434
517095892 0.9749393333333334 -0.116979
518581771 0.9773793333333334 -0.11787633333333332
520067650 0.9786386666666667 -0.11854066666666666
521553529 0.9796229999999999 -0.118797
523039408 0.9808406666666666 -0.118501
524525287 0.9812266666666667 -0.11817866666666665
526011166 0.9794526666666666 -0.11790266666666667
527497045 0.9786756666666667 -0.11894666666666666
528982924 0.9774106666666666 -0.11872233333333333
530468803 0.9758013333333333 -0.11742866666666665
531954682 0.9744543333333333 -0.11796433333333334
533440561 1.0183556666666667 -0.10165033333333331
534926440 0.969448 -0.11636366666666666
536412319 0.9648080000000001 -0.11771966666666667
537898198 0.9611933333333333 -0.11751833333333334
539384077 0.956924 -0.11824866666666667
540869956 0.957981 -0.11872966666666668
542355835 0.960228 -0.118909
543841714 0.963895 -0.11974066666666666
545327593 0.9657079999999999 -0.12036966666666667
546813472 0.9673366666666665 -0.11893466666666666
548299351 0.9684503333333333 -0.11997133333333333
549785230 0.9713269999999998 -0.11841799999999998
551271109 0.97095 -0.11926766666666666
552756988 0.9707713333333334 -0.11970633333333332
554242867 0.9704039999999999 -0.11812133333333333
555728746 0.9699883333333332 -0.11861033333333333
557214625 0.968116 -0.11744266666666665
558700504 0.966019 -0.11804366666666667
560186383 0.964336 -0.11729466666666666
561672262 0.9615139999999999 -0.11634966666666666
563158141 0.957357 -0.11677599999999999
564644020 0.953015 -0.11546600000000001
566129899 0.9501033333333333 -0.11704899999999999
567615778 0.944947 -0.11809633333333332
569101657 0.9415209999999999 -0.11609833333333333
570587536 0.9387486666666667 -0.11761833333333334
572073415 0.9429093333333333 -0.11858566666666666
573559294 0.9468916666666667 -0.12134833333333334
575045173 0.9506713333333332 -0.12236266666666665
576531052 0.953881 -0.12227266666666665
578016931 0.956278 -0.12428800000000001
579502810 0.9583073333333332 -0.12406399999999998
580988689 0.9609096666666666 -0.12549266666666664
582474568 0.9623383333333333 -0.12636
583960447 0.9636123333333333 -0.12564233333333333
585446326 0.9634383333333334 -0.1257063333333333
586932205 0.9630576666666666 -0.12541366666666665
588418084 0.9627686666666666 -0.1261543333333333
589903963 0.961862 -0.126581
591389842 0.9604363333333334 -0.126986
592875721 0.9588163333333333 -0.12555666666666665
594361600 0.9559716666666667 -0.12672066666666665
595847479 0.9538276666666667 -0.12641966666666665
597333358 0.9505856666666667 -0.12611766666666663
598819237 0.9458120000000001 -0.12700299999999998
600305116 0.9430026666666667 -0.128318
601790995 0.9482006666666667 -0.12885133333333332
603276874 0.9532986666666666 -0.12910266666666664
604762753 0.955862 -0.13123733333333332
606248632 0.9601146666666667 -0.13166866666666666
607734511 0.9624923333333333 -0.132416
609220390 0.9653446666666665 -0.13165300000000002
610706269 0.9682436666666666 -0.13218233333333332
612192148 0.9684226666666667 -0.13128666666666666
613678027 0.969949 -0.13036366666666666
615163906 0.9711783333333333 -0.13023066666666666
616649785 0.9700373333333332 -0.129602
618135664 0.9700106666666667 -0.12891666666666662
619621543 0.970135 -0.12773466666666666
621107422 0.9677353333333333 -0.12790466666666667
622593301 0.9640696666666667 -0.126828
624079180 0.9626016666666667 -0.12592533333333333
625565059 0.9582326666666666 -0.13142733333333334
627050938 0.955851 -0.12358433333333332
628536817 0.9515279999999999 -0.123396
630022696 0.9466933333333333 -0.12302066666666667
631508575 0.9514373333333334 -0.125961
632994454 0.9547603333333333 -0.12485033333333331
634480333 0.9580363333333334 -0.1293723333333333
635966212 0.96053 -0.12944266666666665
637452091 0.9639033333333332 -0.13086166666666665
638937970 0.9658233333333334 -0.13179799999999997
640423849 0.9686269999999999 -0.131915
641909728 0.9690563333333333 -0.13282466666666665
643395607 0.9712276666666666 -0.13237233333333334
644881486 0.9710566666666667 -0.13244566666666668
646367365 0.9718386666666667 -0.132965
647853244 0.9710186666666667 -0.13146433333333332
649339123 0.9697453333333332 -0.130365
