# HZ S RI R 50
10000 0.9390046666666666 -0.20729766666666666
1495879 -0.564812 -5.211066666666666
2981758 15.471239333333331 -3.933579
4467637 3.907634333333333 -3.114349
5953516 1.3763189999999998 -2.2415666666666665
7439395 0.5590883333333333 -1.6305673333333335
8925274 -0.500926 -0.30838599999999994
10411153 -0.48957066666666665 -0.2072
11897032 -0.4762976666666666 -0.12283966666666668
13382911 -0.4617826666666667 -0.051465
14868790 -0.446708 0.010617333333333333
16354669 -0.4317843333333333 0.06488866666666666
17840548 -0.41625066666666666 0.11315900000000001
19326427 -0.40122166666666664 0.15652100000000002
20812306 -0.3866273333333333 0.21203866666666665
22298185 -0.37171899999999997 0.23194499999999998
23784064 -0.3573656666666666 0.265196
25269943 -0.343454 0.2964056666666666
26755822 -0.33140966666666666 0.3263183333333333
28241701 -0.3159666666666667 0.3528753333333333
29727580 -0.3028316666666666 0.37886966666666666
31213459 -0.299742 0.3901406666666667
32699338 -0.29815533333333333 0.4002516666666667
34185217 -0.29134233333333326 0.41411033333333336
35671096 -0.28394600000000003 0.432698
37156975 -0.27591899999999997 0.459079
38642854 -0.25867633333333334 0.49235566666666664
40128733 -0.23991066666666666 0.5398916666666667
41614612 -0.1945943333333333 0.5906043333333333
43100491 -0.14350466666666667 0.6661896666666667
44586370 -0.058588 0.7525203333333332
46072249 0.06505333333333332 0.861433
47558128 0.25819166666666665 0.9473923333333334
49044007 0.5179676666666666 0.9828556666666667
50529886 0.80192 0.908972
52015765 1.0881716666666668 0.7538373333333332
53501644 1.220146 0.5019683333333332
54987523 1.249238333333333 0.27103700000000003
56473402 1.2176146666666665 0.07934866666666668
57959281 1.120564 -0.0029683333333333332
59445160 1.02898 -0.011874666666666667
60931039 1.0004226666666665 -0.005510333333333333
62416918 1.0045886666666664 -0.013570333333333332
63902797 1.0077829999999999 -0.021478666666666667
65388676 1.0111066666666666 -0.029244999999999997
66874555 1.0132873333333334 -0.024365666666666664
68360434 1.0113403333333333 -0.10800766666666664
69846313 1.0162366666666667 0.0007283333333333334
71332192 1.0172336666666668 0.0062510000000000005
72818071 1.0189313333333332 -0.03702433333333333
74303950 1.054232 0.0019420000000000015
75789829 1.0169506666666668 0.04167466666666667
77275708 1.0167576666666664 0.032737666666666665
78761587 1.015812 0.04060966666666666
80247466 1.0142376666666666 -0.07553433333333333
81733345 1.0142583333333333 -0.026970666666666664
83219224 1.0111036666666666 -0.03673099999999999
84705103 1.0069019999999997 -0.060301666666666656
86190982 1.0020323333333334 0.06396166666666667
87676861 1.0014263333333333 -0.05135633333333334
89162740 0.9972363333333334 -0.025018333333333337
90648619 0.9965263333333333 -0.041458
92134498 1.0002929999999999 -0.039474333333333333
93620377 1.0040856666666667 -0.0067673333333333335
95106256 1.0056736666666666 -0.032438999999999996
96592135 1.008017333333333 -0.03167433333333333
98078014 1.0106486666666665 -0.024850999999999998
99563893 1.013172 -0.020956333333333334
101049772 1.015958333333333 -0.033067
102535651 1.014945 -0.03268733333333333
104021530 1.0149463333333333 -0.033842
105507409 1.015511 -0.03333633333333333
106993288 1.0155629999999998 -0.03292133333333333
108479167 1.0148396666666666 -0.032703333333333334
109965046 1.0130383333333333 -0.03237366666666666
111450925 1.0117766666666665 -0.03225733333333333
112936804 1.010079 -0.03213566666666667
114422683 1.0071353333333333 -0.030855333333333335
115908562 1.0053006666666666 -0.03258799999999999
117394441 1.0009146666666666 -0.030961333333333334
118880320 0.9972283333333333 -0.03091733333333333
120366199 0.995428 -0.03137566666666666
121852078 1.0001973333333334 -0.03245133333333333
123337957 1.0036723333333333 -0.03267966666666666
124823836 1.0074649999999998 -0.03235333333333333
126309715 1.0104433333333334 -0.034124999999999996
127795594 1.0135866666666664 -0.033884000000000004
129281473 1.0157463333333334 -0.035078
130767352 1.01928 -0.034167
132253231 1.0202149999999999 -0.033342
133739110 1.0224023333333334 -0.034005999999999995
135224989 1.008365 -0.04507733333333334
136710868 1.008931 -0.04406766666666667
138196747 1.008732 -0.04465166666666667
139682626 1.0084783333333331 -0.04350266666666667
141168505 1.0081843333333333 -0.04321133333333333
142654384 1.005995 -0.04234633333333333
144140263 1.0035353333333332 -0.04136566666666666
145626142 1.0013246666666666 -0.04120066666666666
147112021 0.9994246666666667 -0.04048966666666666
148597900 0.9965310000000001 -0.040004333333333336
150083779 0.992835 -0.040098999999999996
151569658 0.9967876666666666 -0.04088599999999999
153055537 0.9995939999999999 -0.04165566666666667
154541416 1.002899 -0.04259766666666666
156027295 1.0049286666666666 -0.042747999999999994
157513174 1.0070436666666667 -0.04346333333333333
158999053 1.0080936666666667 -0.04307866666666667
160484932 1.0090576666666664 -0.043012
161970811 1.0110436666666667 -0.04338199999999999
163456690 1.0117129999999999 -0.04340733333333333
164942569 1.0102286666666667 -0.04321799999999999
166428448 1.010701 -0.04298966666666666
167914327 1.0102729999999998 -0.043228666666666665
169400206 1.009798 -0.04390966666666666
170886085 1.007708 -0.04393866666666667
172371964 1.0068933333333332 -0.037689
173857843 1.0048946666666665 -0.0457
175343722 1.0021906666666667 -0.03809733333333333
176829601 0.9985726666666667 -0.04510466666666666
178315480 0.9952806666666667 -0.04505233333333333
179801359 0.9912449999999999 -0.046897
181287238 0.99436 -0.04700433333333333
182773117 0.996553 -0.04739966666666667
184258996 0.9996256666666667 -0.04732899999999999
185744875 1.0025076666666666 -0.04774266666666666
187230754 1.0044253333333333 -0.048505333333333324
188716633 1.0067929999999998 -0.048116666666666655
190202512 1.0087783333333333 -0.04146799999999999
191688391 1.0093130000000001 -0.047806666666666664
193174270 1.0104016666666666 -0.04746
194660149 1.0102579999999999 -0.048162666666666666
196146028 1.009121 -0.047517000000000004
197631907 1.0093999999999999 -0.048300333333333334
199117786 1.0082393333333333 -0.04759133333333333
200603665 1.0067736666666665 -0.048134333333333335
202089544 1.0042749999999998 -0.047412333333333334
203575423 1.0015599999999998 -0.048317
205061302 0.999085 -0.04932366666666667
206547181 0.996628 -0.049796999999999994
208033060 0.9920986666666667 -0.050778
209518939 0.988266 -0.05203433333333333
211004818 0.989935 -0.052425
212490697 0.9939580000000001 -0.05261066666666667
213976576 0.997006 -0.052312666666666674
215462455 1.0004763333333333 -0.05337399999999999
216948334 1.0023556666666664 -0.05225033333333333
218434213 1.0046956666666667 -0.05263833333333333
219920092 1.006359 -0.05200666666666666
221405971 1.0069156666666665 -0.05231033333333333
222891850 1.007427 -0.05177166666666666
224377729 1.0491229999999998 -0.026876333333333335
225863608 1.0075319999999999 -0.05165333333333333
227349487 1.0066796666666664 -0.05261833333333333
228835366 1.0057643333333335 -0.052115333333333326
230321245 1.0037046666666667 -0.052411
231807124 1.0018553333333333 -0.052503999999999995
233293003 0.99855 -0.052808333333333325
234778882 0.9957513333333333 -0.05282233333333333
236264761 0.9924853333333333 -0.05450833333333333
237750640 0.9889666666666665 -0.055276
239236519 0.9838093333333333 -0.05581066666666666
240722398 0.98407 -0.057685
242208277 0.988524 -0.05781533333333333
243694156 0.9922169999999999 -0.058005
245180035 0.9961263333333333 -0.058117
246665914 0.9983123333333332 -0.058902333333333334
248151793 1.0008656666666667 -0.05821633333333333
249637672 1.003158 -0.057990333333333324
251123551 1.0042976666666665 -0.058075333333333326
252609430 1.0049283333333334 -0.05783866666666666
254095309 1.0058426666666667 -0.05856
255581188 1.0053903333333332 -0.058265333333333336
257067067 1.0046869999999999 -0.058307333333333336
258552946 1.0043043333333332 -0.057880999999999995
260038825 1.002053333333333 -0.05886966666666667
261524704 1.000413 -0.058286000000000004
263010583 0.9973089999999998 -0.05939133333333333
264496462 0.9944586666666666 -0.05961033333333333
265982341 0.9910303333333333 -0.060014333333333336
267468220 0.9873810000000001 -0.060843666666666664
268954099 0.9827916666666666 -0.06271466666666667
270439978 0.980854 -0.06277866666666666
271925857 0.985436 -0.063523
273411736 0.9901953333333333 -0.06409266666666666
274897615 0.9933559999999999 -0.06407766666666667
276383494 0.9960683333333332 -0.06583800000000001
277869373 0.9996056666666667 -0.065675
279355252 1.0019589999999998 -0.06508933333333333
280841131 1.0034343333333333 -0.06520733333333334
282327010 1.0037976666666666 -0.06414366666666665
283812889 1.0047833333333331 -0.065812
285298768 1.005374 -0.064955
286784647 1.0040756666666666 -0.06474333333333333
288270526 1.0030793333333332 -0.064509
289756405 1.0015326666666666 -0.06339966666666666
291242284 1.0001326666666666 -0.065258
292728163 0.9971536666666667 -0.06487933333333332
294214042 0.9935313333333333 -0.065446
295699921 0.9909166666666667 -0.06495266666666666
297185800 0.986309 -0.064704
298671679 0.9813283333333334 -0.06687866666666667
300157558 0.978521 -0.06803333333333333
301643437 0.9822796666666667 -0.06875533333333333
303129316 0.9883816666666667 -0.06886566666666667
304615195 0.9913683333333334 -0.06929466666666666
306101074 0.99522 -0.06833933333333334
307586953 0.9983946666666667 -0.06739099999999999
309072832 1.0015283333333331 -0.06633799999999998
310558711 1.0028359999999998 -0.06608433333333333
312044590 1.0038016666666667 -0.065194
313530469 1.0059293333333335 -0.06327833333333333
315016348 1.0051196666666666 -0.062301
316502227 1.004899 -0.061373
317988106 1.0047013333333332 -0.06111366666666666
319473985 1.0026653333333333 -0.060342999999999994
320959864 1.0004976666666665 -0.05907199999999999
322445743 0.9968513333333333 -0.057291666666666664
323931622 0.9941449999999998 -0.05753166666666666
325417501 0.9901079999999999 -0.055342666666666665
326903380 0.986504 -0.056110666666666656
328389259 0.981378 -0.05605966666666666
329875138 0.975778 -0.05524433333333334
331361017 0.9791526666666666 -0.057368333333333334
332846896 0.9830536666666665 -0.059729333333333336
334332775 0.986843 -0.06115399999999999
335818654 0.9893283333333334 -0.06245133333333333
337304533 0.9906563333333334 -0.06315966666666667
338790412 0.9933860000000001 -0.06546533333333332
340276291 0.9942270000000001 -0.06660833333333332
341762170 0.996027 -0.06624633333333332
343248049 0.9965453333333333 -0.066241
344733928 0.9966206666666666 -0.06880833333333333
346219807 0.995692 -0.069281
347705686 0.9943710000000001 -0.06928133333333333
349191565 0.9932563333333333 -0.06976199999999999
350677444 0.9912009999999999 -0.07072566666666666
352163323 0.9887843333333333 -0.07122433333333333
353649202 0.985544 -0.071299
355135081 0.9812673333333333 -0.07256633333333333
356620960 0.9781306666666666 -0.07471133333333332
358106839 0.972513 -0.075239
359592718 0.9675553333333333 -0.07585233333333333
361078597 0.9701706666666665 -0.07753966666666667
362564476 0.9744453333333333 -0.079461
364050355 0.9778053333333334 -0.07987766666666665
365536234 0.9813413333333332 -0.08157566666666667
367022113 0.9839246666666666 -0.08303633333333334
368507992 0.9860353333333333 -0.08335166666666667
369993871 0.988368 -0.08293933333333332
371479750 0.9897536666666666 -0.084213
372965629 0.9911856666666666 -0.08401833333333333
374451508 0.9907083333333333 -0.08443200000000001
375937387 0.9908266666666666 -0.08322966666666667
377423266 0.9898746666666667 -0.08251866666666666
378909145 0.9893539999999998 -0.08326466666666667
380395024 0.9873046666666667 -0.08253333333333332
381880903 0.9846603333333332 -0.082235
383366782 0.9825123333333332 -0.08178266666666666
384852661 0.9789513333333334 -0.082077
386338540 0.9745996666666665 -0.08249799999999999
387824419 0.9711766666666667 -0.081645
389310298 0.9665156666666667 -0.08125533333333333
390796177 0.966532 -0.08263699999999999
392282056 0.9707819999999999 -0.08396033333333333
393767935 0.9734256666666666 -0.08552633333333333
395253814 0.97696 -0.08721833333333334
396739693 0.9788253333333332 -0.08709999999999998
398225572 0.9824126666666666 -0.08769199999999999
399711451 0.9836176666666666 -0.08696699999999999
401197330 0.9846753333333332 -0.08795033333333332
402683209 0.985789 -0.08807
404169088 0.986523 -0.08798066666666667
405654967 0.9865463333333333 -0.088474
407140846 0.9851413333333332 -0.08794433333333332
408626725 0.9844886666666666 -0.087223
410112604 0.9830203333333333 -0.08632966666666667
411598483 0.9809743333333333 -0.08658833333333334
413084362 0.9784853333333334 -0.086798
414570241 0.9757996666666666 -0.08579566666666667
416056120 0.971341 -0.08408
417541999 0.9673153333333332 -0.08510333333333332
419027878 0.962952 -0.08482200000000001
420513757 0.9619306666666666 -0.08480133333333331
421999636 0.965862 -0.08561066666666667
423485515 0.9685383333333333 -0.088163
424971394 0.971913 -0.08923166666666667
426457273 0.9748513333333333 -0.08907799999999999
427943152 0.9756163333333332 -0.089045
429429031 0.9788746666666667 -0.09037766666666665
430914910 0.9796263333333333 -0.08975833333333333
432400789 0.9804339999999999 -0.089944
433886668 0.9810633333333333 -0.090139
435372547 0.9817653333333333 -0.09027366666666665
436858426 0.9797953333333332 -0.09014566666666668
438344305 0.979888 -0.08872233333333332
439830184 0.9786406666666667 -0.08968333333333334
441316063 0.977019 -0.08748933333333334
442801942 0.9743273333333333 -0.08760799999999999
444287821 0.9718899999999999 -0.08731699999999999
445773700 0.9688166666666667 -0.08675233333333333
447259579 0.9640866666666668 -0.086816
448745458 0.960492 -0.08585099999999998
450231337 0.9564596666666667 -0.08711833333333333
451717216 0.9599776666666666 -0.087649
453203095 0.96372 -0.08836666666666666
454688974 0.9653253333333334 -0.09017599999999999
456174853 0.9694333333333334 -0.09105433333333332
457660732 0.9719166666666667 -0.08990266666666666
459146611 0.9738633333333333 -0.09222333333333332
460632490 0.9740486666666667 -0.09328333333333333
462118369 0.9748249999999998 -0.09190533333333334
463604248 0.9760086666666666 -0.09213066666666665
465090127 0.9760733333333331 -0.092386
466576006 0.9754106666666666 -0.092902
468061885 0.9747596666666667 -0.09157833333333333
469547764 0.973594 -0.09220433333333333
471033643 0.971735 -0.09165533333333334
472519522 0.969428 -0.09097166666666667
474005401 0.9668133333333332 -0.09089333333333333
475491280 0.964278 -0.09200799999999999
476977159 0.9598146666666666 -0.09224399999999999
478463038 0.955799 -0.09125633333333333
479948917 0.9513939999999999 -0.09099833333333332
481434796 0.9558770000000001 -0.09207533333333334
482920675 0.95932 -0.09432733333333332
484406554 0.96252 -0.093337
485892433 0.9645963333333333 -0.095946
487378312 0.9674536666666667 -0.09510566666666666
488864191 0.9687643333333332 -0.09640133333333334
490350070 0.9711069999999999 -0.095274
491835949 0.9720873333333332 -0.09520466666666666
493321828 0.9724876666666666 -0.09705266666666668
494807707 0.9721296666666666 -0.09547566666666665
496293586 0.9721353333333334 -0.09597966666666666
497779465 0.9713656666666666 -0.09563533333333332
499265344 0.9700963333333332 -0.09709433333333334
500751223 0.968353 -0.09545066666666666
502237102 0.9667939999999999 -0.094994
503722981 0.9642206666666666 -0.095048
505208860 0.9601773333333333 -0.09611566666666667
506694739 0.957683 -0.09475
508180618 0.9541166666666667 -0.09586299999999999
509666497 0.9490016666666665 -0.09721866666666668
511152376 0.9514923333333334 -0.09755
512638255 0.9554693333333333 -0.09722866666666666
514124134 0.9581883333333333 -0.09860533333333334
515610013 0.9619083333333333 -0.09872666666666666
517095892 0.9635209999999998 -0.09823566666666667
518581771 0.9647549999999999 -0.10106733333333331
520067650 0.9658709999999999 -0.099714
521553529 0.9683833333333333 -0.10084066666666666
523039408 0.9679463333333334 -0.10251833333333334
524525287 0.9691923333333334 -0.099896
526011166 0.9701166666666667 -0.09398899999999999
527497045 0.9676070000000001 -0.101017
528982924 0.9668143333333333 -0.09981366666666666
530468803 0.9650543333333333 -0.10015733333333333
531954682 0.962702 -0.10049199999999998
533440561 0.9605836666666666 -0.099392
534926440 0.9574586666666667 -0.10018099999999999
536412319 0.9534726666666666 -0.09938733333333333
537898198 0.950699 -0.09882066666666667
539384077 0.9462143333333334 -0.10095266666666666
540869956 0.9460669999999999 -0.10253599999999999
542355835 0.9485463333333333 -0.10042433333333334
543841714 0.9520386666666667 -0.10127466666666665
545327593 0.9543536666666667 -0.10196333333333332
546813472 0.9574486666666666 -0.10169066666666667
548299351 0.9582723333333334 -0.101226
549785230 0.9589616666666667 -0.10174566666666665
551271109 0.9594493333333333 -0.10144166666666667
552756988 0.9594423333333333 -0.10092066666666666
554242867 0.9576936666666667 -0.09960233333333332
555728746 0.957813 -0.10013166666666665
557214625 0.9573193333333334 -0.09793033333333331
558700504 0.9543883333333333 -0.097767
560186383 0.9522333333333333 -0.09914133333333332
561672262 0.950933 -0.09720133333333333
563158141 0.9460386666666666 -0.09871733333333334
564644020 0.9425266666666667 -0.098149
566129899 0.9386086666666668 -0.09762166666666666
567615778 0.9346346666666667 -0.09690299999999999
569101657 0.9292743333333334 -0.09702966666666668
570587536 0.9271636666666666 -0.09876933333333333
572073415 0.9312659999999999 -0.100124
573559294 0.9368086666666666 -0.10090233333333333
575045173 0.9393966666666667 -0.10215766666666666
576531052 0.9427153333333333 -0.102983
578016931 0.9448023333333332 -0.10501666666666666
579502810 0.9476999999999999 -0.10546933333333333
580988689 0.9498913333333332 -0.10501866666666666
582474568 0.951799 -0.105917
583960447 0.9517416666666666 -0.10684833333333334
585446326 0.9511689999999999 -0.10511566666666668
586932205 0.9505316666666666 -0.10650799999999999
588418084 0.951616 -0.10560766666666666
589903963 0.9507629999999999 -0.10613
591389842 0.948584 -0.10706033333333333
592875721 0.9465353333333333 -0.10746666666666667
594361600 0.9445823333333332 -0.10569799999999999
595847479 0.942539 -0.10651133333333332
597333358 0.9388016666666666 -0.10580400000000001
598819237 0.9340236666666667 -0.106151
600305116 0.9314329999999998 -0.10734966666666665
601790995 0.9370766666666667 -0.10933066666666666
603276874 0.9414616666666666 -0.10966733333333334
604762753 0.944927 -0.10999966666666666
606248632 0.9495203333333333 -0.10971266666666665
607734511 0.951812 -0.11117266666666666
609220390 0.9541003333333333 -0.11081933333333333
610706269 0.9560313333333333 -0.11038166666666667
612192148 0.9573533333333333 -0.11094533333333334
613678027 0.957881 -0.11034933333333333
615163906 0.9592519999999999 -0.10879066666666666
616649785 0.9589099999999999 -0.10858866666666667
618135664 0.9578986666666667 -0.10832566666666667
619621543 0.9572643333333334 -0.10629
621107422 0.9556003333333332 -0.10590866666666666
622593301 0.9531256666666665 -0.104209
624079180 0.9508403333333333 -0.10384766666666667
625565059 0.9477306666666667 -0.10293633333333332
627050938 0.9427356666666666 -0.10255533333333333
628536817 0.9394636666666667 -0.10348966666666666
630022696 0.9352479999999999 -0.10408099999999999
631508575 0.93513 -0.11437466666666665
632994454 0.9420376666666666 -0.10580166666666665
634480333 0.9470596666666666 -0.10718566666666665
635966212 0.9501086666666666 -0.10826266666666665
637452091 0.9528633333333333 -0.10876733333333333
638937970 0.9548289999999999 -0.11012466666666666
640423849 0.9575276666666667 -0.11009733333333332
641909728 0.958598 -0.10949866666666666
643395607 0.95882 -0.11124599999999998
644881486 0.959028 -0.10980566666666665
646367365 0.9591016666666665 -0.11124133333333333
647853244 0.9584016666666667 -0.10970666666666665
649339123 0.958067 -0.10819066666666666
