# HZ S RI R 50
10000 1.0441893333333332 -0.006409
1495879 1.535927333333333 7.417496666666667
2981758 15.457332999999998 -3.854868333333333
4467637 3.9198983333333333 -3.116102333333333
5953516 1.3748299999999998 -2.2341863333333327
7439395 0.5559863333333332 -1.6257129999999997
8925274 -0.5014466666666667 -0.308226
10411153 -0.4899866666666666 -0.20705766666666664
11897032 -0.4765143333333333 -0.12290366666666666
13382911 -0.46216866666666667 -0.051067666666666664
14868790 -0.44709133333333334 0.010537
16354669 -0.4319743333333333 0.065136
17840548 -0.416794 0.11309133333333334
19326427 -0.4019393333333333 0.15678033333333333
20812306 -0.3871446666666667 0.19615066666666664
22298185 -0.3725153333333333 0.23242833333333335
23784064 -0.3577246666666666 0.266522
25269943 -0.340352 0.2946743333333333
26755822 -0.330379 0.32595966666666665
28241701 -0.3171653333333333 0.3534153333333333
29727580 -0.30374599999999996 0.37939666666666666
31213459 -0.3009826666666666 0.3904723333333333
32699338 -0.29903899999999994 0.400983
34185217 -0.29314433333333334 0.41414399999999996
35671096 -0.28562066666666663 0.4333636666666666
37156975 -0.27718699999999996 0.46005199999999996
38642854 -0.2597353333333333 0.493326
40128733 -0.24101433333333333 0.5411273333333333
41614612 -0.196397 0.592392
43100491 -0.14574966666666667 0.6687456666666667
44586370 -0.06015299999999999 0.7556386666666667
46072249 0.06422566666666665 0.865896
47558128 0.2587793333333333 0.9537236666666665
49044007 0.5211816666666667 0.990001
50529886 0.8087413333333333 0.9149243333333332
52015765 1.0984986666666665 0.7558153333333333
53501644 1.2279259999999999 0.5002693333333333
54987523 1.2550143333333335 0.26628966666666665
56473402 1.220862 0.07272933333333333
57959281 1.121224 -0.009776
59445160 1.0274203333333332 -0.019323333333333335
60931039 1.0002959999999999 -0.011683333333333332
62416918 1.0037343333333333 -0.019692333333333333
63902797 1.0063353333333334 -0.027698
65388676 1.0084376666666668 -0.036164999999999996
66874555 1.0118079999999998 -0.031288333333333335
68360434 1.0091409999999998 -0.11515633333333332
69846313 1.015151333333333 -0.006449
71332192 1.0157276666666668 -0.0008036666666666666
72818071 1.0169673333333333 -0.04374366666666666
74303950 1.0169989999999998 -0.03384299999999999
75789829 1.057815 0.06112000000000001
77275708 1.0158936666666665 0.02544266666666667
78761587 1.0146433333333333 0.03274366666666666
80247466 1.011969 -0.08257766666666666
81733345 1.0118653333333332 -0.03486533333333333
83219224 1.00861 -0.04493933333333333
84705103 1.0053266666666665 -0.06875766666666666
86190982 1.0011563333333333 0.05512566666666666
87676861 0.9986946666666665 -0.059310666666666664
89162740 0.9957556666666667 -0.03327266666666666
90648619 0.9943703333333334 -0.051263
92134498 0.997663 -0.04813599999999999
93620377 1.0012379999999999 -0.015904666666666668
95106256 1.0026263333333332 -0.04131166666666666
96592135 1.0061906666666665 -0.040004
98078014 1.0083266666666666 -0.033779
99563893 1.0103413333333333 -0.030350999999999996
101049772 1.01182 -0.042391333333333336
102535651 1.0119606666666665 -0.042152333333333326
104021530 1.0123503333333332 -0.04341333333333333
105507409 1.0120676666666666 -0.043699333333333326
106993288 1.0118766666666668 -0.041811999999999995
108479167 1.0104129999999998 -0.04305033333333333
109965046 1.0101916666666666 -0.04271733333333333
111450925 1.0080823333333333 -0.043129
112936804 1.0062609999999999 -0.042685
114422683 1.0035236666666667 -0.042772333333333336
115908562 0.9999943333333332 -0.04234766666666667
117394441 0.9982743333333333 -0.04119
118880320 0.9937086666666667 -0.04217066666666666
120366199 0.991977 -0.04248566666666666
121852078 0.996173 -0.04301266666666666
123337957 0.999522 -0.044538
124823836 1.0040909999999998 -0.045391666666666663
126309715 1.0058443333333331 -0.04551133333333333
127795594 1.0097359999999997 -0.04639233333333333
129281473 1.0123099999999998 -0.04546466666666667
130767352 1.0147006666666665 -0.046002
132253231 1.0159969999999998 -0.04515333333333333
133739110 1.0168703333333333 -0.04546466666666667
135224989 1.004203 -0.057414333333333324
136710868 1.0043973333333334 -0.056855666666666665
138196747 1.0044646666666666 -0.05574933333333333
139682626 1.0032109999999999 -0.05535433333333334
141168505 1.0022673333333334 -0.055494333333333326
142654384 1.0002593333333334 -0.05458233333333333
144140263 0.9994339999999999 -0.054197
145626142 0.9970969999999999 -0.05289733333333333
147112021 0.9936833333333334 -0.052566666666666664
148597900 0.9906856666666666 -0.052886666666666665
150083779 0.9872453333333333 -0.05176066666666666
151569658 0.9906653333333333 -0.05316433333333333
153055537 0.9933783333333333 -0.05376633333333333
154541416 0.9969483333333333 -0.05489266666666666
156027295 0.9991983333333333 -0.054707000000000006
157513174 1.001049 -0.05516333333333333
158999053 1.0031326666666667 -0.05569266666666667
160484932 1.004594 -0.05634633333333333
161970811 1.0048706666666667 -0.056304
163456690 1.005571 -0.05699966666666667
164942569 1.0051203333333332 -0.057211
166428448 1.004406 -0.05680566666666666
167914327 1.0036176666666665 -0.05718933333333333
169400206 1.0028723333333334 -0.057111
170886085 1.000894 -0.05776933333333334
172371964 0.9998596666666667 -0.057520666666666664
173857843 0.9966299999999999 -0.057612000000000003
175343722 0.9938863333333333 -0.05856133333333333
176829601 0.9903476666666666 -0.05780833333333333
178315480 0.9871973333333335 -0.059463
179801359 0.9901713333333333 -0.04219533333333332
181287238 0.992787 -0.042040333333333325
182773117 0.9957346666666667 -0.04290233333333333
184258996 0.9993163333333334 -0.042827333333333335
185744875 1.0017776666666667 -0.04261466666666667
187230754 1.0044140000000001 -0.04335066666666666
188716633 1.0060506666666666 -0.04292533333333333
190202512 1.0067996666666665 -0.044255666666666665
191688391 1.0086843333333333 -0.04400866666666667
193174270 1.009178 -0.04373933333333333
194660149 1.0090013333333332 -0.04356466666666667
196146028 1.008827333333333 -0.043695333333333336
197631907 1.0078473333333333 -0.04367566666666667
199117786 1.0062593333333334 -0.04415366666666666
200603665 0.9983209999999999 -0.06262599999999999
202089544 1.0045706666666665 -0.04518433333333333
203575423 0.9942113333333333 -0.063576
205061302 0.9903109999999998 -0.06362533333333333
206547181 0.9873483333333333 -0.06426699999999999
208033060 0.9845393333333332 -0.06487833333333332
209518939 0.9803219999999999 -0.06578866666666666
211004818 0.9806469999999999 -0.06664733333333334
212490697 0.9850133333333333 -0.06736500000000001
213976576 0.9882086666666666 -0.06728699999999999
215462455 0.9910159999999999 -0.06728066666666667
216948334 0.9933216666666667 -0.06796066666666667
218434213 0.9957676666666666 -0.06780566666666667
219920092 0.9969729999999999 -0.067313
221405971 0.9972926666666666 -0.06720633333333333
222891850 0.9983559999999999 -0.06761166666666665
224377729 0.9988319999999998 -0.06734433333333334
225863608 0.9976476666666666 -0.066953
227349487 0.9975109999999999 -0.067237
228835366 0.9944089999999999 -0.06799266666666666
230321245 0.9928163333333333 -0.07383733333333332
231807124 0.9917286666666666 -0.06882233333333333
233293003 0.9885276666666667 -0.06848099999999999
234778882 0.9392123333333333 -0.07943266666666665
236264761 0.9822136666666665 -0.06943966666666665
237750640 0.9784786666666667 -0.070372
239236519 0.9743773333333334 -0.07122066666666667
240722398 0.973571 -0.07197266666666667
242208277 0.9780819999999999 -0.07274999999999998
243694156 0.9813786666666667 -0.07342133333333332
245180035 0.9849209999999999 -0.07323466666666667
246665914 0.9877659999999999 -0.07375166666666666
248151793 0.9904663333333332 -0.07346933333333333
249637672 0.9916163333333332 -0.07415166666666667
251123551 0.9927666666666666 -0.075154
252609430 0.9937526666666666 -0.07372633333333334
254095309 0.9942823333333333 -0.07450066666666666
255581188 0.994056 -0.07296633333333333
257067067 0.9933763333333332 -0.07414166666666666
258552946 0.9918243333333333 -0.07457899999999999
260038825 0.9910953333333332 -0.07378333333333333
261524704 0.9882076666666666 -0.074094
263010583 0.9864283333333335 -0.07522999999999999
264496462 0.9828903333333333 -0.075854
265982341 0.9796023333333332 -0.07641733333333332
267468220 0.9757896666666667 -0.07641133333333333
268954099 0.9704696666666666 -0.07804466666666666
270439978 0.9692393333333333 -0.07876166666666666
271925857 0.9739456666666666 -0.07948433333333332
273411736 0.9772626666666666 -0.08011133333333333
274897615 0.9814749999999999 -0.08075666666666666
276383494 0.9842873333333333 -0.08105333333333332
277869373 0.9872453333333333 -0.08078033333333332
279355252 0.988635 -0.08088433333333334
280841131 0.9899766666666667 -0.081296
282327010 0.9916769999999999 -0.081093
283812889 0.992176 -0.08179966666666666
285298768 0.9915456666666667 -0.08086066666666666
286784647 0.9910966666666666 -0.08005766666666667
288270526 0.989957 -0.08064966666666666
289756405 0.9900490000000001 -0.08049266666666666
291242284 0.9863716666666665 -0.08105466666666666
292728163 0.9838803333333332 -0.08041166666666666
294214042 0.9801926666666666 -0.08046066666666665
295699921 0.9781556666666666 -0.08080766666666667
297185800 0.9727713333333333 -0.082154
298671679 0.9686656666666666 -0.08282366666666666
300157558 0.9652253333333333 -0.08274
301643437 0.9692 -0.08414133333333332
303129316 0.9739233333333333 -0.08447566666666667
304615195 0.9780413333333332 -0.08311366666666667
306101074 0.9823383333333333 -0.08339966666666668
307586953 0.984847 -0.08239199999999999
309072832 0.9875529999999999 -0.08265366666666667
310558711 0.9893086666666667 -0.08129133333333333
312044590 0.9911856666666666 -0.08071966666666666
313530469 0.9917019999999999 -0.07984
315016348 0.9919726666666666 -0.07895466666666667
316502227 0.9910736666666666 -0.07637866666666666
317988106 0.990418 -0.07667666666666666
319473985 0.9879003333333333 -0.07534199999999999
320959864 0.9868266666666666 -0.074848
322445743 0.9830613333333332 -0.07284033333333334
323931622 0.9808110000000001 -0.07195766666666666
325417501 0.9812179999999999 -0.060264
326903380 0.972242 -0.07100166666666666
328389259 0.9667896666666667 -0.07103566666666666
329875138 0.9617619999999999 -0.07009733333333333
331361017 0.9644916666666666 -0.07246066666666667
332846896 1.0166206666666666 -0.06098866666666667
334332775 0.9723546666666666 -0.07488
335818654 0.9744596666666665 -0.07800966666666667
337304533 0.9758419999999999 -0.07953333333333332
338790412 0.979688 -0.07932600000000001
340276291 0.9809193333333333 -0.08084766666666666
341762170 0.9812303333333332 -0.081001
343248049 0.9812616666666667 -0.08127000000000001
344733928 0.981804 -0.08327199999999998
346219807 0.9812753333333332 -0.08322766666666667
347705686 0.9802783333333333 -0.08420733333333333
349191565 0.977858 -0.084901
350677444 0.9764606666666666 -0.08590733333333334
352163323 0.973374 -0.08559833333333333
353649202 0.9709426666666667 -0.08721799999999999
355135081 0.9667133333333333 -0.08789
356620960 0.9629133333333334 -0.08853433333333334
358106839 0.9587779999999999 -0.09017166666666666
359592718 0.9534663333333333 -0.09177066666666667
361078597 0.9552783333333333 -0.09209633333333334
362564476 0.959598 -0.09336666666666667
364050355 0.9632903333333334 -0.09399833333333332
365536234 0.965535 -0.09698933333333333
367022113 0.9682346666666667 -0.09707666666666666
368507992 0.9712753333333334 -0.09650766666666666
369993871 0.9730303333333332 -0.09735466666666666
371479750 0.974443 -0.09892533333333334
372965629 0.9750326666666667 -0.09757133333333334
374451508 0.975571 -0.09834133333333334
375937387 0.974774 -0.098216
377423266 0.9744849999999998 -0.09770766666666666
378909145 0.9741126666666666 -0.09775966666666666
380395024 0.9720226666666667 -0.09645799999999999
381880903 0.9697709999999999 -0.09600066666666665
383366782 0.9662229999999999 -0.096437
384852661 0.9628989999999998 -0.09596033333333333
386338540 0.9840066666666667 -0.071837
387824419 0.9558953333333333 -0.09612399999999999
389310298 0.9512126666666667 -0.09721466666666667
390796177 0.9503076666666666 -0.09718833333333332
392282056 0.9542006666666666 -0.09846333333333332
393767935 0.957928 -0.09946833333333334
395253814 0.9616123333333333 -0.09977766666666665
396739693 0.9633936666666667 -0.10063866666666667
398225572 0.9659383333333333 -0.10206966666666667
399711451 0.9674523333333332 -0.10145166666666666
401197330 0.9693933333333332 -0.10122433333333332
402683209 0.9701009999999999 -0.102109
404169088 0.9700949999999999 -0.10156833333333333
405654967 0.970758 -0.10144666666666668
407140846 0.9702823333333332 -0.10104500000000001
408626725 0.9685316666666666 -0.10092833333333331
410112604 0.9669213333333332 -0.10109433333333334
411598483 0.9650529999999999 -0.09970033333333334
413084362 0.9621139999999999 -0.09997933333333334
414570241 0.9594456666666666 -0.09874566666666665
416056120 0.9558066666666667 -0.09846899999999999
417541999 0.9517456666666666 -0.09677633333333333
419027878 0.9473426666666667 -0.09783066666666665
420513757 0.9454909999999999 -0.09870933333333333
421999636 0.950258 -0.09918400000000001
423485515 0.9531543333333332 -0.10084266666666665
424971394 0.9560536666666666 -0.10136533333333334
426457273 0.9581876666666667 -0.10220166666666666
427943152 0.9605966666666667 -0.10277633333333332
429429031 0.9621923333333333 -0.10312666666666666
430914910 0.9635983333333333 -0.10335066666666666
432400789 0.9649476666666665 -0.10269933333333332
433886668 0.9648906666666666 -0.103738
435372547 0.9656996666666666 -0.10319166666666665
436858426 0.9645146666666667 -0.10383666666666666
438344305 0.9635386666666667 -0.10156699999999999
439830184 0.9623373333333333 -0.101462
441316063 0.959459 -0.10153233333333334
442801942 0.9584159999999999 -0.09973633333333333
444287821 0.9546923333333333 -0.09984699999999999
445773700 0.9524726666666666 -0.09926833333333335
447259579 0.9478833333333334 -0.09945566666666666
448745458 0.9435846666666665 -0.09899166666666666
450231337 0.940648 -0.09865966666666666
451717216 0.943683 -0.09949033333333332
453203095 0.9490733333333333 -0.10144066666666665
454688974 0.950179 -0.10223199999999999
456174853 0.9531936666666666 -0.10368666666666666
457660732 0.955489 -0.10331866666666667
459146611 0.9568969999999999 -0.10493533333333334
460632490 0.9585279999999999 -0.10585166666666665
462118369 0.9597406666666666 -0.10435299999999999
463604248 0.9594809999999999 -0.10384066666666665
465090127 0.9591516666666667 -0.10589699999999999
466576006 0.9590726666666667 -0.10391433333333333
468061885 0.9591853333333332 -0.10367866666666666
469547764 0.9573266666666667 -0.10303566666666666
471033643 0.9559663333333333 -0.10302833333333333
472519522 0.9527899999999999 -0.10358199999999998
474005401 0.9509173333333332 -0.103056
475491280 0.9480936666666666 -0.10316566666666667
476977159 0.9439789999999999 -0.10351133333333332
478463038 0.941611 -0.09674966666666665
479948917 0.9374629999999999 -0.09645700000000001
481434796 0.9165973333333334 -0.117496
482920675 0.9439633333333333 -0.09961133333333333
484406554 0.947127 -0.10039866666666666
485892433 0.9500606666666666 -0.099665
487378312 0.9524906666666666 -0.10154233333333335
488864191 0.9543546666666665 -0.10076166666666667
490350070 0.955085 -0.10216899999999998
491835949 0.9563506666666666 -0.10198033333333334
493321828 0.9576976666666666 -0.10126199999999999
494807707 0.9576406666666666 -0.10184099999999999
496293586 0.9563389999999999 -0.10133533333333333
497779465 0.9572969999999998 -0.10199666666666665
499265344 0.9547883333333332 -0.101574
500751223 0.9537929999999999 -0.10157366666666667
502237102 0.9504516666666666 -0.10589566666666667
503722981 0.9473983333333333 -0.10586633333333334
505208860 0.9445686666666666 -0.107081
506694739 0.941368 -0.10636999999999999
508180618 0.9372449999999999 -0.10745099999999999
509666497 0.9336656666666665 -0.10621033333333332
511152376 0.9354963333333333 -0.10737733333333332
512638255 0.9384776666666665 -0.10831566666666666
514124134 0.9419296666666666 -0.10965633333333333
515610013 0.9448373333333333 -0.10990966666666666
517095892 0.947364 -0.10990666666666667
518581771 0.9493393333333332 -0.10986066666666668
520067650 0.9508199999999999 -0.11172766666666667
521553529 0.9514756666666667 -0.11109766666666666
523039408 0.9518356666666667 -0.11128833333333334
524525287 0.9520703333333334 -0.11045233333333333
526011166 0.9517180000000001 -0.111931
527497045 0.9511343333333333 -0.110413
528982924 0.9501603333333334 -0.10999033333333333
530468803 0.9483473333333332 -0.11052633333333331
531954682 0.9469683333333334 -0.11084933333333333
533440561 0.9445496666666667 -0.10885666666666666
534926440 0.9492589999999999 -0.09437133333333332
536412319 0.9375100000000001 -0.11005133333333333
537898198 0.9326916666666666 -0.11085433333333333
539384077 0.9301176666666665 -0.11011566666666667
540869956 0.9306773333333332 -0.11054166666666666
542355835 0.933511 -0.110741
543841714 0.9362906666666666 -0.11089833333333332
545327593 0.9375163333333332 -0.11207833333333334
546813472 0.9401896666666666 -0.11110066666666665
548299351 0.9421726666666667 -0.11144766666666667
549785230 0.9435663333333333 -0.11037999999999999
551271109 0.9428916666666667 -0.11212033333333334
552756988 0.9428259999999999 -0.11221899999999999
554242867 0.9429303333333332 -0.11135266666666666
555728746 0.9408059999999999 -0.10956899999999999
557214625 0.9416143333333333 -0.10868066666666666
558700504 0.9388893333333332 -0.10859433333333332
560186383 0.9358196666666665 -0.107388
561672262 0.9342933333333333 -0.10861833333333333
563158141 0.9304399999999999 -0.108101
564644020 0.926984 -0.10786499999999999
566129899 0.9234136666666666 -0.106616
567615778 0.9193836666666666 -0.107628
569101657 0.9143423333333334 -0.10625200000000001
570587536 0.9116576666666667 -0.10837599999999999
572073415 0.9173206666666666 -0.109849
573559294 0.9196516666666668 -0.11198666666666668
575045173 0.9240606666666666 -0.11263733333333333
576531052 0.928369 -0.111844
578016931 0.9296763333333333 -0.11329
579502810 0.9319629999999999 -0.11308900000000001
580988689 0.9328879999999999 -0.11374133333333332
582474568 0.9356246666666665 -0.11436933333333332
583960447 0.9356313333333333 -0.115086
585446326 0.9360823333333332 -0.11502799999999999
586932205 0.9358243333333333 -0.11503266666666667
588418084 0.9354963333333333 -0.11546833333333334
589903963 0.9343636666666667 -0.11441333333333333
591389842 0.9334020000000001 -0.11397233333333331
592875721 0.9321419999999999 -0.11452533333333333
594361600 0.9291463333333333 -0.11494633333333333
595847479 0.9267556666666665 -0.11588966666666667
597333358 0.9237426666666666 -0.11587833333333333
598819237 0.919128 -0.11506466666666666
600305116 0.9171486666666666 -0.11493633333333333
601790995 0.9209723333333333 -0.11705366666666667
603276874 0.9260863333333333 -0.11745933333333333
604762753 0.9286999999999999 -0.118672
606248632 0.9335796666666667 -0.118284
607734511 0.9354213333333333 -0.11758333333333333
609220390 0.938446 -0.11960866666666667
610706269 0.9400646666666665 -0.11817933333333333
612192148 0.9425013333333334 -0.11844233333333333
613678027 0.942768 -0.11870433333333333
615163906 0.9431316666666666 -0.11654466666666666
616649785 0.942201 -0.11665899999999998
618135664 0.943412 -0.11594533333333334
619621543 0.8968343333333333 -0.10693566666666666
621107422 0.94018 -0.11313899999999999
622593301 0.938796 -0.11311666666666667
624079180 0.9352346666666667 -0.11240299999999999
625565059 0.9321573333333333 -0.11151299999999999
627050938 0.9268536666666667 -0.11115599999999999
628536817 0.9250176666666667 -0.11036233333333334
630022696 0.907244 -0.126849
631508575 0.9233236666666667 -0.112153
632994454 0.928226 -0.11258766666666667
634480333 0.9304193333333333 -0.11977133333333334
635966212 0.9335736666666665 -0.12125366666666666
637452091 0.938665 -0.110222
