# HZ S RI R 50
10000 1.0409516666666665 -0.2667656666666667
1495879 1.1112199999999999 3.3620900000000002
2981758 13.918838000000001 -3.327841
4467637 3.955424333333333 -3.015477333333333
5953516 1.392906 -2.237492333333333
7439395 0.5619873333333333 -1.6263036666666668
8925274 -0.5008273333333333 -0.307871
10411153 -0.4896463333333333 -0.20674133333333333
11897032 -0.47626766666666664 -0.12254699999999999
13382911 -0.4620099999999999 -0.05118299999999999
14868790 -0.447034 0.010780666666666668
16354669 -0.431994 0.06516166666666667
17840548 -0.41699033333333335 0.113755
19326427 -0.40183333333333326 0.1572073333333333
20812306 -0.3871496666666666 0.19630099999999998
22298185 -0.37266999999999995 0.232543
23784064 -0.356034 0.2831593333333333
25269943 -0.34020666666666666 0.295733
26755822 -0.3306526666666666 0.326053
28241701 -0.31729266666666667 0.35370133333333326
29727580 -0.30405666666666664 0.37981299999999996
31213459 -0.30118266666666665 0.39096699999999995
32699338 -0.2990446666666666 0.40119233333333326
34185217 -0.292979 0.414787
35671096 -0.28579866666666665 0.43383299999999997
37156975 -0.2775863333333333 0.46058266666666664
38642854 -0.26004799999999995 0.493413
40128733 -0.241199 0.5420596666666666
41614612 -0.19633699999999998 0.592841
43100491 -0.14549800000000002 0.66952
44586370 -0.059768999999999996 0.7573036666666667
46072249 0.06434366666666666 0.8666076666666666
47558128 0.25924899999999995 0.9545623333333333
49044007 0.5225436666666666 0.9916993333333333
50529886 0.8118673333333333 0.9165433333333334
52015765 1.1005366666666667 0.7548520000000001
53501644 1.2316016666666667 0.4981136666666666
54987523 1.2572283333333332 0.2629406666666667
56473402 1.2208223333333335 0.06955099999999999
57959281 1.1209976666666668 -0.012524333333333333
59445160 1.0270979999999998 -0.020560333333333333
60931039 0.9985716666666665 -0.012073666666666667
62416918 1.002578 -0.020590999999999998
63902797 1.0059076666666666 -0.029506000000000004
65388676 1.0080413333333333 -0.03785266666666666
66874555 1.010622 -0.03199
68360434 1.00716 -0.11669733333333332
69846313 1.0136926666666666 -0.007699333333333333
71332192 1.0152466666666666 -0.002665333333333333
72818071 1.0151423333333331 -0.04615066666666667
74303950 1.0158973333333332 -0.036587666666666664
75789829 1.0148173333333332 0.026376666666666666
77275708 1.0480716666666665 0.05347
78761587 1.0135746666666665 0.031046999999999998
80247466 1.0114606666666666 -0.08597566666666667
81733345 1.009742333333333 -0.036202
83219224 1.0081506666666666 -0.046696666666666664
84705103 1.0044036666666667 -0.07052366666666667
86190982 1.0007473333333332 0.053073333333333333
87676861 0.9969713333333333 -0.06125533333333333
89162740 0.9942546666666666 -0.036163
90648619 0.9926839999999999 -0.053732666666666665
92134498 0.9967486666666666 -0.050159999999999996
93620377 0.9997579999999999 -0.017809666666666665
95106256 1.0011293333333333 -0.04427166666666667
96592135 1.0050093333333332 -0.04280166666666666
98078014 1.0068769999999998 -0.036793
99563893 1.008462 -0.032959999999999996
101049772 1.0091256666666666 -0.04453866666666667
102535651 1.00988 -0.04495666666666666
104021530 1.0103356666666665 -0.04731333333333333
105507409 1.0103513333333334 -0.045534
106993288 1.0108743333333332 -0.045834999999999994
108479167 1.0095326666666666 -0.04599399999999999
109965046 1.0081576666666665 -0.045795333333333334
111450925 1.006101 -0.04577866666666667
112936804 1.003803 -0.04584733333333333
114422683 1.0016053333333332 -0.04446533333333333
115908562 0.9982626666666665 -0.045149999999999996
117394441 0.9947953333333333 -0.04443066666666666
118880320 0.9913306666666666 -0.045495999999999995
120366199 0.98886 -0.045824333333333335
121852078 0.9937313333333333 -0.045221
123337957 0.9972179999999999 -0.04742666666666666
124823836 1.001023 -0.047542
126309715 1.003461333333333 -0.04929666666666667
127795594 1.0069513333333333 -0.050300333333333336
129281473 1.0089553333333332 -0.04824099999999999
130767352 1.0117139999999998 -0.049249333333333326
132253231 1.0134996666666667 -0.04927499999999999
133739110 1.0151253333333332 -0.048863
135224989 1.0013453333333333 -0.05970366666666666
136710868 1.000966 -0.06004333333333334
138196747 1.001237 -0.05961466666666666
139682626 1.0003446666666667 -0.05929366666666667
141168505 0.9992336666666666 -0.058517333333333324
142654384 0.9978253333333332 -0.05779833333333334
144140263 0.9959806666666667 -0.05713333333333333
145626142 0.994224 -0.05694566666666667
147112021 0.9907876666666666 -0.05659533333333333
148597900 0.9873366666666665 -0.056151999999999994
150083779 0.9842896666666665 -0.055911
151569658 0.9872859999999999 -0.05702333333333333
153055537 0.9901649999999999 -0.057459333333333334
154541416 0.9932439999999999 -0.058609999999999995
156027295 0.9953796666666667 -0.059032
157513174 0.9976283333333332 -0.058557
158999053 0.9981426666666666 -0.059692999999999996
160484932 1.0005616666666666 -0.05923099999999999
161970811 1.0006923333333333 -0.060517333333333326
163456690 1.0013516666666666 -0.06032466666666667
164942569 1.00081 -0.061073666666666665
166428448 1.0011046666666665 -0.06147866666666666
167914327 1.0000709999999997 -0.06090433333333334
169400206 0.9989079999999999 -0.061392
170886085 0.9974483333333334 -0.06056099999999999
172371964 0.9943783333333333 -0.06102133333333333
173857843 0.9926783333333333 -0.06202999999999999
175343722 0.989954 -0.06210433333333333
176829601 0.987047 -0.06147766666666667
178315480 0.983583 -0.06340833333333332
179801359 0.9798663333333333 -0.06369033333333332
181287238 0.9816706666666666 -0.064434
182773117 0.9851193333333332 -0.06481866666666666
184258996 0.9884006666666667 -0.06546066666666667
185744875 0.9915749999999999 -0.059435
187230754 0.9932173333333334 -0.06594766666666665
188716633 0.994459 -0.06598933333333333
190202512 0.9958113333333333 -0.06631633333333332
191688391 0.9962856666666666 -0.06591433333333332
193174270 0.9970116666666666 -0.06619033333333332
194660149 0.9974373333333333 -0.06665733333333332
196146028 0.9967643333333333 -0.066522
197631907 0.9957779999999998 -0.06650999999999999
199117786 0.9947603333333334 -0.065885
200603665 0.9934613333333333 -0.06634
202089544 0.9914093333333334 -0.06695233333333332
203575423 0.9888709999999998 -0.06696866666666666
205061302 0.9857896666666666 -0.06779733333333333
206547181 0.9825903333333332 -0.06876266666666667
208033060 0.9787506666666667 -0.06970766666666667
209518939 0.974665 -0.070466
211004818 0.9755106666666666 -0.07050466666666667
212490697 0.9803236666666666 -0.07095766666666666
213976576 0.9822613333333333 -0.07159399999999999
215462455 0.9843676666666665 -0.07135566666666666
216948334 0.987924 -0.07157999999999999
218434213 0.98988 -0.07214333333333334
219920092 0.9910636666666666 -0.07148033333333333
221405971 0.991983 -0.07169466666666666
222891850 0.992318 -0.07242833333333333
224377729 0.9924343333333333 -0.07150799999999999
225863608 0.9924533333333333 -0.07053233333333334
227349487 0.9909366666666666 -0.07109866666666666
228835366 0.9901566666666667 -0.07109633333333333
230321245 0.9884093333333333 -0.07206533333333333
231807124 0.9844543333333333 -0.07132799999999999
233293003 0.9826439999999999 -0.07276566666666666
234778882 0.9795863333333333 -0.07308866666666666
236264761 0.975973 -0.07352066666666665
237750640 0.9402043333333334 -0.094819
239236519 0.9675683333333334 -0.07538866666666666
240722398 0.9678749999999999 -0.07701766666666665
242208277 0.9709903333333332 -0.07709966666666666
243694156 0.9755533333333333 -0.07744033333333333
245180035 0.9780423333333333 -0.07772233333333334
246665914 0.980661 -0.078267
248151793 0.9835443333333334 -0.077897
249637672 0.9849916666666667 -0.078567
251123551 0.9863773333333334 -0.07843033333333332
252609430 0.987436 -0.078313
254095309 0.9874559999999999 -0.077538
255581188 0.987622 -0.077761
257067067 0.9865146666666665 -0.078176
258552946 0.9858586666666667 -0.07808633333333333
260038825 0.9834143333333333 -0.07824166666666667
261524704 0.9814903333333334 -0.078705
263010583 0.9792556666666666 -0.07908966666666667
264496462 0.9758396666666667 -0.07883833333333332
265982341 0.9725623333333333 -0.079312
267468220 0.9677266666666666 -0.08055999999999999
268954099 0.9640049999999999 -0.08117733333333332
270439978 0.9620073333333332 -0.08288633333333331
271925857 0.966593 -0.08359366666666665
273411736 0.9695139999999999 -0.083901
274897615 0.973536 -0.08469133333333334
276383494 0.9764396666666666 -0.08468433333333332
277869373 0.9792463333333333 -0.08503966666666665
279355252 0.9810683333333332 -0.08579833333333334
280841131 0.98306 -0.08533466666666667
282327010 0.98391 -0.08532633333333334
283812889 0.9837156666666665 -0.08495966666666666
285298768 0.9845666666666666 -0.08412833333333332
286784647 0.9831396666666665 -0.08444199999999999
288270526 0.9822143333333333 -0.08437166666666665
289756405 0.9803876666666667 -0.084446
291242284 0.9791406666666667 -0.08390833333333333
292728163 0.975796 -0.08434466666666665
294214042 0.9726873333333332 -0.08406966666666667
295699921 0.9687336666666666 -0.08506466666666668
297185800 0.964599 -0.08544266666666667
298671679 0.9602239999999999 -0.08641266666666665
300157558 0.9559949999999999 -0.08707666666666666
301643437 0.9617126666666667 -0.08820066666666666
303129316 0.9655346666666667 -0.08782066666666666
304615195 0.9705563333333332 -0.08696733333333331
306101074 0.9736176666666667 -0.08661999999999999
307586953 0.976728 -0.08650566666666666
309072832 0.9788586666666667 -0.08653733333333333
310558711 0.9811886666666665 -0.085343
312044590 0.982885 -0.08373566666666667
313530469 0.9825809999999999 -0.08352599999999999
315016348 0.9826739999999999 -0.08218966666666667
316502227 0.9824103333333333 -0.08076099999999999
317988106 0.981826 -0.08055366666666666
319473985 0.9800533333333332 -0.07919666666666667
320959864 0.9775683333333333 -0.07845833333333332
322445743 0.9751353333333334 -0.076512
323931622 0.9690196666666667 -0.08747633333333334
325417501 0.9678266666666666 -0.07516599999999998
326903380 0.9634173333333333 -0.07492066666666666
328389259 0.959074 -0.074998
329875138 0.9535716666666666 -0.07486266666666666
331361017 0.9567363333333333 -0.07639566666666665
332846896 0.9602226666666667 -0.07788966666666666
334332775 0.963729 -0.08029533333333333
335818654 0.9661393333333332 -0.08100566666666667
337304533 0.9681993333333333 -0.082659
338790412 0.9698876666666667 -0.08281666666666666
340276291 0.9715076666666667 -0.08457699999999999
341762170 0.9725506666666666 -0.08481066666666666
343248049 0.9722886666666666 -0.08593633333333334
344733928 0.9726556666666666 -0.08582199999999998
346219807 0.9715693333333333 -0.08772966666666666
347705686 0.9701833333333332 -0.08810666666666667
349191565 0.9685903333333333 -0.08825933333333333
350677444 0.9669293333333333 -0.08939199999999999
352163323 0.9634320000000001 -0.09014766666666665
353649202 0.9619483333333332 -0.090588
355135081 0.9570609999999999 -0.08989633333333333
356620960 0.9535063333333333 -0.091414
358106839 0.9490616666666667 -0.09304133333333332
359592718 0.9437486666666667 -0.09386166666666665
361078597 0.9455696666666666 -0.09584366666666667
362564476 0.9495929999999999 -0.09697233333333333
364050355 0.9538403333333332 -0.09805933333333333
365536234 0.9560956666666667 -0.099095
367022113 0.9590686666666667 -0.10001366666666667
368507992 0.9606459999999999 -0.10068333333333335
369993871 0.962885 -0.10117966666666667
371479750 0.9640403333333334 -0.10101099999999999
372965629 0.9650393333333334 -0.10181866666666667
374451508 0.9652173333333334 -0.10082566666666666
375937387 0.9654206666666667 -0.100026
377423266 0.9639063333333333 -0.10137833333333332
378909145 0.9629606666666667 -0.09963899999999999
380395024 0.9611306666666666 -0.09963933333333333
381880903 0.9588896666666666 -0.09892200000000001
383366782 0.9572616666666667 -0.09925966666666666
384852661 0.9292733333333333 -0.11884333333333333
386338540 0.9498876666666667 -0.099243
387824419 0.9458606666666667 -0.09851233333333334
389310298 0.9415966666666666 -0.09864599999999998
390796177 0.9406319999999999 -0.09975966666666666
392282056 0.9446859999999999 -0.10086333333333333
393767935 0.9475086666666666 -0.10146099999999998
395253814 0.950826 -0.103412
396739693 0.9534849999999999 -0.103381
398225572 0.9554106666666666 -0.10521566666666667
399711451 0.957467 -0.10454333333333332
401197330 0.9584156666666666 -0.10503466666666667
402683209 0.9603463333333333 -0.10489899999999999
404169088 0.9593386666666667 -0.11033166666666668
405654967 0.9595903333333333 -0.10324033333333334
407140846 0.9595766666666666 -0.10404666666666665
408626725 0.9580383333333333 -0.10323866666666666
410112604 0.9566266666666667 -0.10324266666666666
411598483 0.9551826666666666 -0.101749
413084362 0.951996 -0.10134933333333332
414570241 0.9485789999999998 -0.10184766666666667
416056120 0.9455763333333334 -0.10124899999999999
417541999 0.9417943333333333 -0.10022633333333333
419027878 0.9374206666666667 -0.10051733333333332
420513757 0.9361790000000001 -0.10126233333333334
421999636 0.93857 -0.10229933333333333
423485515 0.942645 -0.10176033333333334
424971394 0.9450316666666666 -0.10420733333333333
426457273 0.9483446666666666 -0.10434433333333333
427943152 0.949872 -0.103915
429429031 0.9515796666666667 -0.10511099999999998
430914910 0.9530116666666666 -0.10468699999999999
432400789 0.9544293333333332 -0.10535966666666666
433886668 0.954182 -0.10533633333333332
435372547 0.9548083333333333 -0.10424166666666668
436858426 0.95407 -0.10471166666666666
438344305 0.953697 -0.104019
439830184 0.9513306666666665 -0.10198466666666667
441316063 0.9487733333333332 -0.10272733333333334
442801942 0.9476249999999999 -0.101199
444287821 0.9441183333333332 -0.10167066666666666
445773700 0.9414566666666666 -0.10026833333333332
447259579 0.9372956666666665 -0.101035
448745458 0.9333956666666667 -0.09933733333333333
450231337 0.9307153333333332 -0.10032233333333332
451717216 0.9332376666666665 -0.10048966666666666
453203095 0.9360330000000001 -0.10309166666666665
454688974 0.9396353333333334 -0.10336733333333332
456174853 0.9424933333333333 -0.10403633333333334
457660732 0.944874 -0.10505500000000001
459146611 0.9465156666666666 -0.10596266666666666
460632490 0.9473993333333334 -0.10540366666666667
462118369 0.948394 -0.10573733333333332
463604248 0.9491623333333333 -0.10584099999999999
465090127 0.9493206666666666 -0.10555833333333332
466576006 0.9488323333333334 -0.10564066666666667
468061885 0.9472206666666666 -0.10543399999999999
469547764 0.9470506666666667 -0.10455066666666668
471033643 0.94485 -0.10468033333333333
472519522 0.9424883333333334 -0.10487099999999999
474005401 0.9398583333333332 -0.10264866666666667
475491280 0.9364336666666666 -0.10383133333333333
476977159 0.9329616666666667 -0.10454333333333332
478463038 0.9300776666666666 -0.10334
479948917 0.9249186666666667 -0.10349566666666665
481434796 0.9290346666666666 -0.10390433333333333
482920675 0.9317753333333334 -0.105166
484406554 0.9351609999999999 -0.106303
485892433 0.9374506666666667 -0.10692199999999999
487378312 0.9396089999999999 -0.107188
488864191 0.941426 -0.10808799999999999
490350070 0.9439933333333332 -0.10802966666666665
491835949 0.9440896666666667 -0.10822033333333334
493321828 0.9447773333333332 -0.10852766666666666
494807707 0.9453486666666666 -0.10788066666666665
496293586 0.9443926666666667 -0.107558
497779465 0.943367 -0.10877300000000001
499265344 0.94268 -0.10692099999999999
500751223 0.9404366666666666 -0.10725766666666665
502237102 0.9392003333333334 -0.10639699999999999
503722981 0.9369259999999999 -0.10676433333333332
505208860 0.9335573333333334 -0.10658599999999999
506694739 0.9306133333333333 -0.10659066666666667
508180618 0.9264503333333334 -0.10733333333333334
509666497 0.923411 -0.10583499999999998
511152376 0.924406 -0.10740833333333333
512638255 0.9282156666666666 -0.10757733333333333
514124134 0.9308599999999998 -0.10849433333333333
515610013 0.934078 -0.10899133333333333
517095892 0.9361383333333332 -0.10941933333333333
518581771 0.9382703333333332 -0.10946266666666667
520067650 0.9404453333333334 -0.10990833333333333
521553529 0.9396373333333333 -0.11172099999999999
523039408 0.941193 -0.110182
524525287 0.9415323333333332 -0.10946099999999999
526011166 0.9406283333333333 -0.10969199999999998
527497045 0.944578 -0.09938599999999999
528982924 0.9387933333333334 -0.10931500000000001
530468803 0.9377253333333333 -0.10999366666666667
531954682 0.936765 -0.10842133333333333
533440561 0.9331776666666667 -0.108998
534926440 0.930787 -0.10844133333333333
536412319 0.9263866666666667 -0.107782
537898198 0.9210533333333333 -0.10820366666666666
539384077 0.9186829999999999 -0.10808533333333332
540869956 0.918576 -0.109124
542355835 0.9213739999999999 -0.111018
543841714 0.9255469999999999 -0.10919533333333332
545327593 0.927073 -0.11038266666666666
546813472 0.929584 -0.11043866666666666
548299351 0.9299199999999999 -0.10907533333333333
549785230 0.9314953333333333 -0.10905033333333332
551271109 0.9330209999999999 -0.10874633333333333
552756988 0.9322403333333332 -0.109684
554242867 0.9324976666666667 -0.10784233333333333
555728746 0.9309823333333332 -0.107952
557214625 0.9303823333333334 -0.10699233333333333
558700504 0.9280613333333332 -0.10638499999999998
560186383 0.9258849999999998 -0.10481666666666667
561672262 0.9221156666666667 -0.10475166666666666
563158141 0.9194239999999999 -0.10508966666666666
564644020 0.9174746666666667 -0.10390866666666665
566129899 0.9123516666666666 -0.10530233333333333
567615778 0.9081393333333333 -0.102873
569101657 0.9023786666666667 -0.10459966666666666
570587536 0.9019116666666667 -0.10606533333333332
572073415 0.9053523333333332 -0.10713433333333333
573559294 0.9102006666666667 -0.10683333333333334
575045173 0.9131779999999999 -0.108228
576531052 0.916344 -0.11011033333333332
578016931 0.9189909999999999 -0.11284866666666667
579502810 0.920308 -0.11067366666666667
580988689 0.9232696666666667 -0.11001633333333333
582474568 0.9231836666666666 -0.11187266666666665
583960447 0.9243753333333333 -0.11165033333333332
585446326 0.925957 -0.11117733333333332
586932205 0.9261386666666667 -0.11102633333333334
588418084 0.9249616666666666 -0.11173099999999998
589903963 0.9243306666666666 -0.112025
591389842 0.92243 -0.113348
592875721 0.9205836666666666 -0.11127433333333334
594361600 0.9177960000000001 -0.11220366666666666
595847479 0.9156679999999999 -0.11172366666666667
597333358 0.912609 -0.110064
598819237 0.9080806666666665 -0.109956
600305116 0.9066763333333332 -0.11330933333333333
601790995 0.9097383333333333 -0.11249100000000001
603276874 0.9140666666666666 -0.113899
604762753 0.9185743333333334 -0.11378733333333332
606248632 0.9216519999999999 -0.11437033333333332
607734511 0.9242429999999999 -0.11441433333333331
609220390 0.9275416666666666 -0.11381199999999998
610706269 0.9293773333333333 -0.11574833333333331
612192148 0.9303176666666666 -0.11483299999999999
613678027 0.931862 -0.11259266666666667
615163906 0.9324356666666667 -0.113093
616649785 0.9312450000000001 -0.11204399999999999
618135664 0.9320009999999999 -0.110836
619621543 0.9301646666666668 -0.11191066666666667
621107422 0.9293913333333332 -0.10878433333333333
622593301 0.9266896666666666 -0.10960199999999999
624079180 0.9240613333333334 -0.10772499999999999
625565059 0.9246619999999999 -0.09726633333333332
627050938 0.918018 -0.10659166666666667
628536817 0.9136986666666667 -0.10547200000000001
630022696 0.9091673333333334 -0.10483833333333333
631508575 0.9130643333333334 -0.10640166666666667
632994454 0.9177406666666666 -0.10760266666666665
634480333 0.9209839999999999 -0.10901166666666667
635966212 0.924526 -0.109666
637452091 0.9260573333333333 -0.11149533333333334
638937970 0.9288846666666666 -0.11087133333333332
640423849 0.929839 -0.11187366666666665
641909728 0.9321093333333332 -0.10987933333333333
643395607 0.9327293333333333 -0.112164
