# HZ S RI R 50
10000 -0.39150599999999997 -0.8471663333333332
2983231 0.13528966666666664 -0.06483133333333332
5956462 0.34227199999999997 -0.10340466666666666
8929693 0.11949066666666666 0.6016139999999999
11902924 -0.23577399999999998 1.009075333333333
14876155 -1.2794486666666667 1.0939876666666666
17849386 -1.765859 -0.27566999999999997
20822617 -0.9845079999999999 -0.8382553333333332
23795848 -0.529458 -0.7885519999999999
26769079 -0.31599299999999997 -0.6793506666666667
29742310 -0.20453 -0.5882706666666666
32715541 -0.22247299999999998 -0.581541
35688772 -0.23995666666666665 -0.5987786666666667
38662003 -0.2860106666666667 -0.5825596666666666
41635234 -0.328409 -0.5657836666666667
44608465 -0.3638473333333333 -0.56828
47581696 -0.405449 -0.5618713333333334
50554927 -0.4452133333333333 -0.5757619999999999
53528158 -0.4721706666666666 -0.5209116666666667
56501389 -0.4183093333333333 -0.3781013333333333
59474620 -0.167678 -0.11146666666666666
62447851 -0.04335566666666667 0.0006769999999999999
65421082 -0.07591433333333332 0.009737333333333334
68394313 -0.051851666666666664 0.009409999999999998
71367544 -0.05754033333333333 0.014295333333333334
74340775 -0.040325 0.009224
77314006 -0.078258 0.028662333333333335
80287237 -0.048938333333333334 0.011455999999999997
83260468 -0.03055533333333333 0.005595
86233699 -0.032812999999999995 0.004984333333333334
89206930 -0.04099866666666666 0.003315666666666667
92180161 -0.037228333333333335 0.004457666666666666
95153392 -0.040308333333333335 0.007061
98126623 -0.214399 0.34944566666666665
101099854 -0.04183099999999999 0.009514666666666666
104073085 -0.042921999999999995 0.009738
107046316 -0.043704 0.00917
110019547 -0.04508266666666666 0.008342333333333334
112992778 -0.04614866666666667 0.006495333333333333
115966009 -0.046888 0.0048
118939240 -0.04794633333333333 0.0016696666666666665
121912471 -0.04750599999999999 0.002617666666666666
124885702 -0.046832 0.0046623333333333326
127858933 -0.04617333333333333 0.006372333333333332
130832164 -0.045642666666666665 0.007703
133805395 -0.045221333333333336 0.008566666666666667
136778626 -0.04274 0.004907666666666666
139751857 -0.042741666666666664 0.004692
142725088 -0.042610999999999996 0.0040219999999999995
145698319 -0.04254 0.003290333333333333
148671550 -0.04224766666666666 0.001915
151644781 -0.04682 0.003821
154618012 -0.041579 0.004782666666666666
157591243 -0.04133233333333333 0.0065439999999999995
160564474 -0.04118666666666666 0.007966333333333332
163537705 -0.041233 0.008967666666666665
166510936 -0.041151 0.009507999999999999
169484167 -0.041417333333333334 0.009799333333333334
172457398 -0.04156066666666666 0.009767
175430629 -0.041669333333333336 0.009644666666666666
178403860 -0.041854 0.008706333333333332
181377091 -0.041853666666666664 0.008691333333333332
184350322 -0.04222133333333333 0.009436666666666664
187323553 -0.04241399999999999 0.009897333333333333
190296784 -0.04273733333333333 0.010154666666666666
193270015 -0.043067 0.009950333333333332
196243246 -0.043326666666666666 0.009278999999999999
199216477 -0.04366433333333333 0.008416
202189708 -0.04370866666666667 0.007259666666666666
205162939 -0.04360066666666666 0.005846666666666667
208136170 -0.043407666666666664 0.004075
211109401 -0.04293866666666667 0.0037949999999999998
214082632 -0.043158 0.005370333333333333
217055863 -0.04346166666666666 0.006723666666666667
220029094 -0.04360033333333333 0.007719
223002325 -0.043891333333333324 0.008528666666666665
225975556 -0.044147 0.008787
228948787 -0.044264000000000005 0.008796
231922018 -0.044414666666666665 0.008390666666666666
234895249 -0.04449433333333333 0.007666666666666666
237868480 -0.044435666666666665 0.006710333333333334
240841711 -0.044226999999999995 0.006529333333333333
243814942 -0.04429133333333333 0.008236666666666666
246788173 -0.04433366666666667 0.009710666666666666
249761404 -0.04443433333333333 0.010818999999999999
252734635 -0.044527 0.011564333333333333
255707866 -0.044919 0.012076666666666666
258681097 -0.044955333333333326 0.012121666666666666
261654328 -0.04519133333333333 0.011924666666666667
264627559 -0.04515133333333333 0.011276333333333333
267600790 -0.045228 0.010525666666666666
270574021 -0.045203666666666656 0.009927666666666666
273547252 -0.044948666666666665 0.010979333333333334
276520483 -0.04473033333333333 0.011986666666666666
279493714 -0.044691666666666664 0.012517333333333333
282466945 -0.04453166666666667 0.012732
285440176 -0.04446933333333333 0.012834333333333333
288413407 -0.04448033333333333 0.012434
291386638 -0.04438633333333333 0.011872999999999998
294359869 -0.04430233333333333 0.010985666666666666
297333100 -0.043964 0.009962333333333333
300306331 -0.043612 0.008929
303279562 -0.043777333333333335 0.010220333333333333
306252793 -0.04383533333333334 0.011064
309226024 -0.044032999999999996 0.011726999999999998
312199255 -0.044275666666666665 0.012069999999999999
315172486 -0.04453966666666666 0.011982
318145717 -0.04486633333333334 0.011866666666666666
321118948 -0.04585033333333333 0.011233333333333333
324092179 -0.045354000000000005 0.010518333333333333
327065410 -0.045420666666666665 0.009532666666666665
330038641 -0.045323666666666665 0.008233333333333332
333011872 -0.04523766666666666 0.009309
335985103 -0.045511 0.010471666666666666
338958334 -0.044192666666666665 0.01050733333333333
341931565 -0.04531866666666666 0.010947666666666665
344904796 -0.04435733333333334 0.010880666666666667
347878027 -0.046056 0.010737666666666666
350851258 -0.045741333333333335 0.010190333333333332
353824489 -0.04524133333333333 0.009543
356797720 -0.045029 0.008590666666666667
359770951 -0.044920999999999996 0.007659333333333332
362744182 -0.044504999999999996 0.008580333333333332
365717413 -0.044177333333333325 0.009625666666666666
368690644 -0.044012333333333334 0.010537666666666667
371663875 -0.04378533333333333 0.011050333333333332
374637106 -0.04371733333333333 0.011441666666666666
377610337 -0.043666333333333335 0.01164033333333333
380583568 -0.04370533333333333 0.011667666666666666
383556799 -0.04363099999999999 0.011486999999999999
386530030 -0.04359166666666667 0.011113333333333333
389503261 -0.043532333333333326 0.010532333333333333
392476492 -0.04337866666666666 0.011331666666666665
395449723 -0.043492666666666666 0.012051
398422954 -0.04397733333333334 0.012825666666666666
401396185 -0.044130666666666665 0.013341333333333332
404369416 -0.043862333333333337 0.013478666666666667
407342647 -0.044632000000000005 0.01365733333333333
410315878 -0.04540366666666666 0.013551
413289109 -0.045055333333333336 0.013090666666666667
416262340 -0.045712666666666665 0.012641666666666666
419235571 -0.04542366666666667 0.011783999999999998
422208802 -0.046097 0.012199666666666668
425182033 -0.044747999999999996 0.012816666666666665
428155264 -0.045486 0.013411000000000001
431128495 -0.04422299999999999 0.013758
434101726 -0.04510333333333333 0.013907999999999998
437074957 -0.04384166666666667 0.013925999999999997
440048188 -0.04476066666666667 0.013879666666666667
443021419 -0.043547666666666665 0.013505666666666666
445994650 -0.044141333333333324 0.013074666666666667
448967881 -0.04304866666666666 0.012529333333333332
451941112 -0.045065999999999995 0.013135999999999998
454914343 -0.04317133333333334 0.013674
457887574 -0.044191999999999995 0.014378666666666666
460860805 -0.043382000000000004 0.014736666666666665
463834036 -0.04462666666666666 0.015033666666666667
466807267 -0.043794 0.014988000000000001
469780498 -0.045108666666666665 0.014964
472753729 -0.04429533333333333 0.014604
475726960 -0.04551733333333333 0.014259333333333332
478700191 -0.04460499999999999 0.013577666666666665
481673422 -0.045688000000000006 0.013809000000000002
484646653 -0.04480166666666666 0.014666333333333332
487619884 -0.045917999999999994 0.015371333333333334
490593115 -0.04536766666666667 0.015913666666666666
493566346 -0.046517666666666665 0.016330666666666667
496539577 -0.04596033333333333 0.016391
499512808 -0.046668666666666664 0.016396333333333332
502486039 -0.04651933333333333 0.016117333333333334
505459270 -0.04714733333333333 0.015778666666666663
508432501 -0.046798000000000006 0.015178666666666663
511405732 -0.04718766666666666 0.015102666666666667
514378963 -0.04636633333333333 0.015682
517352194 -0.046592333333333326 0.016239999999999997
520325425 -0.045912999999999995 0.016485666666666666
523298656 -0.04607699999999999 0.016696333333333334
526271887 -0.04542533333333333 0.016676333333333335
529245118 -0.04511133333333334 0.016568666666666666
532218349 -0.044741666666666666 0.016302999999999998
535191580 -0.044603333333333335 0.015987
538164811 -0.044266 0.015430333333333332
541138042 -0.043309333333333325 0.016246333333333335
544111273 -0.041994333333333335 0.018981666666666668
547084504 -0.040784333333333325 0.021819333333333333
550057735 -0.039705000000000004 0.02448433333333333
553030966 -0.03895533333333333 0.027176999999999996
556004197 -0.03843066666666667 0.029636
558977428 -0.038225999999999996 0.03203333333333333
561950659 -0.03817966666666667 0.03422133333333333
564923890 -0.03838733333333333 0.03608833333333333
567897121 -0.03895666666666667 0.03784033333333332
570870352 -0.03949133333333333 0.038528999999999994
573843583 -0.03972266666666666 0.036734666666666665
576816814 -0.040089 0.03489166666666667
579790045 -0.040161 0.03272633333333333
582763276 -0.040222666666666664 0.03050366666666667
585736507 -0.04023 0.02805733333333333
588709738 -0.039764666666666657 0.025501333333333334
591682969 -0.039374 0.02292433333333333
594656200 -0.038656333333333334 0.020276333333333334
597629431 -0.037662 0.01765433333333333
600602662 -0.03701566666666667 0.015884666666666665
603575893 -0.037836999999999996 0.016980333333333333
606549124 -0.038882 0.017912333333333336
609522355 -0.03992299999999999 0.018542333333333334
612495586 -0.04100566666666666 0.019042333333333335
615468817 -0.04213533333333334 0.019299666666666663
618442048 -0.04333933333333334 0.019308666666666665
621415279 -0.04451533333333333 0.019119
624388510 -0.045545 0.018525666666666666
627361741 -0.046646 0.017845
630334972 -0.04734033333333333 0.017079999999999998
633308203 -0.047108 0.017737999999999997
636281434 -0.046834999999999995 0.018390666666666666
639254665 -0.04825333333333333 0.020855
642227896 -0.046485 0.019100333333333334
645201127 -0.046321666666666664 0.019405
648174358 -0.046085 0.019405
651147589 -0.04601766666666666 0.019326999999999997
654120820 -0.04589166666666667 0.019146666666666666
657094051 -0.04573966666666666 0.018771333333333334
660067282 -0.04475433333333334 0.018316
663040513 -0.044236 0.018415999999999995
666013744 -0.04289833333333333 0.018386
668986975 -0.04155466666666667 0.018269666666666663
671960206 -0.040063666666666664 0.018236666666666665
674933437 -0.03873933333333333 0.018114333333333333
677906668 -0.037281 0.018055
680879899 -0.035872333333333326 0.017998
683853130 -0.034564 0.017923666666666664
686826361 -0.033264999999999996 0.01790666666666666
689799592 -0.03200333333333333 0.018021999999999996
692772823 -0.032992 0.01901433333333333
695746054 -0.03433833333333333 0.020110666666666666
698719285 -0.035568333333333334 0.02090333333333333
701692516 -0.037043999999999994 0.021507666666666665
704665747 -0.038595 0.021915333333333332
707638978 -0.040204 0.022126
710612209 -0.04167133333333334 0.021991
713585440 -0.04318266666666666 0.021540666666666666
716558671 -0.04471733333333333 0.020975333333333332
719531902 -0.045951 0.020094333333333332
722505133 -0.04623433333333333 0.020416333333333335
725478364 -0.04617633333333333 0.020814
728451595 -0.04633366666666667 0.021151999999999997
731424826 -0.046502999999999996 0.021339666666666663
734398057 -0.046592999999999996 0.021480666666666665
737371288 -0.04668433333333333 0.021301
740344519 -0.046530999999999996 0.021166666666666667
743317750 -0.04674199999999999 0.020841
746290981 -0.04674099999999999 0.020400666666666664
749264212 -0.04670033333333333 0.019796666666666664
752237443 -0.04640266666666666 0.020183999999999997
755210674 -0.046168999999999995 0.020747
758183905 -0.04591200000000001 0.02128533333333333
761157136 -0.04587733333333333 0.021698333333333333
764130367 -0.045609333333333335 0.021943666666666667
767103598 -0.045442333333333335 0.022160666666666665
770076829 -0.04529633333333333 0.022231666666666667
773050060 -0.04515366666666666 0.022216000000000003
776023291 -0.044990333333333334 0.02202866666666667
778996522 -0.044788 0.021859666666666666
781969753 -0.04463266666666666 0.022043999999999998
784942984 -0.04456666666666667 0.022545666666666665
787916215 -0.04451366666666666 0.02285
790889446 -0.04446233333333333 0.023065000000000002
793862677 -0.044485 0.023150666666666667
796835908 -0.04438866666666667 0.023177666666666666
799809139 -0.04431466666666667 0.023092
802782370 -0.044257 0.022859666666666667
805755601 -0.044087999999999995 0.022517
808728832 -0.04402599999999999 0.022083333333333333
811702063 -0.043905 0.02222033333333333
814675294 -0.04395266666666667 0.022893666666666666
817648525 -0.043991666666666665 0.023371666666666666
820621756 -0.044047333333333334 0.023644
823594987 -0.04422266666666667 0.023872999999999995
826568218 -0.044323 0.023942666666666668
829541449 -0.044426999999999994 0.023877333333333334
832514680 -0.044585999999999994 0.023678333333333332
835487911 -0.04464333333333333 0.023365333333333335
838461142 -0.04453566666666667 0.022980333333333332
841434373 -0.044526333333333334 0.022958666666666662
844407604 -0.04425 0.02338433333333333
847380835 -0.04411833333333333 0.023716
850354066 -0.043942999999999996 0.023959666666666664
853327297 -0.04373166666666667 0.02413533333333333
856300528 -0.043654 0.024154
859273759 -0.04353666666666667 0.024067333333333333
862246990 -0.04332433333333333 0.02386066666666667
865220221 -0.04318999999999999 0.02359533333333333
868193452 -0.042911333333333336 0.023183
871166683 -0.04287933333333333 0.023355333333333332
874139914 -0.04305833333333334 0.024241
877113145 -0.04340633333333333 0.025048666666666664
880086376 -0.043910000000000005 0.025621999999999995
883059607 -0.044325666666666666 0.026155666666666664
886032838 -0.044868 0.026482
889006069 -0.045477 0.026656
891979300 -0.045973333333333324 0.026616
894952531 -0.046634666666666665 0.026481333333333332
897925762 -0.047123 0.026078333333333332
900898993 -0.047389999999999995 0.02583833333333333
903872224 -0.04724099999999999 0.026152666666666664
906845455 -0.04715333333333334 0.02621033333333333
909818686 -0.047013000000000006 0.02634466666666667
912791917 -0.046800999999999995 0.026282
915765148 -0.046905333333333334 0.02613666666666667
918738379 -0.046701 0.025867666666666664
921711610 -0.04662133333333333 0.025499666666666664
924684841 -0.046611333333333324 0.025210666666666666
927658072 -0.04640033333333333 0.024612
930631303 -0.04631666666666667 0.024225666666666666
933604534 -0.04629833333333333 0.024920666666666664
936577765 -0.046384999999999996 0.02541566666666667
939550996 -0.047397333333333326 0.026260999999999996
942524227 -0.046668999999999995 0.02606
945497458 -0.046900333333333336 0.026208
948470689 -0.047073333333333335 0.026333999999999996
951443920 -0.04713266666666666 0.026309
954417151 -0.04738133333333333 0.026063333333333334
957390382 -0.04754766666666666 0.025774666666666668
960363613 -0.047756333333333324 0.025434666666666664
963336844 -0.04765766666666666 0.026035999999999997
966310075 -0.04746533333333333 0.026525999999999997
969283306 -0.047312 0.02696233333333333
972256537 -0.04736433333333333 0.027256333333333334
975229768 -0.047399000000000004 0.027529666666666664
978202999 -0.04748033333333333 0.027639999999999998
981176230 -0.04748266666666666 0.027636333333333336
984149461 -0.047415 0.02760233333333333
987122692 -0.0475 0.027421666666666667
990095923 -0.04751 0.02716466666666667
993069154 -0.04738666666666667 0.027644999999999996
996042385 -0.04714333333333333 0.028038333333333332
999015616 -0.046913666666666666 0.028295666666666667
1001988847 -0.046729 0.028587333333333333
1004962078 -0.04668633333333333 0.028660666666666668
1007935309 -0.046563 0.028781333333333332
1010908540 -0.046377333333333326 0.02872966666666666
1013881771 -0.04617733333333333 0.028647999999999996
1016855002 -0.04611833333333333 0.028463999999999996
1019828233 -0.04581133333333333 0.028176666666666662
1022801464 -0.04612266666666666 0.028776666666666666
1025774695 -0.04639333333333333 0.02934066666666666
1028747926 -0.046773999999999996 0.029757999999999996
1031721157 -0.047004 0.030133999999999998
1034694388 -0.047266 0.03037433333333333
1037667619 -0.047841333333333326 0.030551333333333333
1040640850 -0.048082999999999994 0.030422333333333332
1043614081 -0.04855866666666667 0.03035433333333333
1046587312 -0.04845033333333333 0.02996233333333333
1049560543 -0.04896466666666666 0.029655
1052533774 -0.049047999999999994 0.030139666666666665
1055507005 -0.048943999999999994 0.03054533333333333
1058480236 -0.04900333333333333 0.03105533333333333
1061453467 -0.04913466666666666 0.03132
1064426698 -0.04907600000000001 0.03149166666666667
1067399929 -0.04894133333333334 0.03157666666666667
1070373160 -0.048417999999999996 0.031351
1073346391 -0.04905933333333332 0.031480999999999995
1076319622 -0.04896166666666666 0.031244
1079292853 -0.04887333333333333 0.03088833333333333
1082266084 -0.04868666666666666 0.031216333333333332
1085239315 -0.048646999999999996 0.03162533333333333
1088212546 -0.04854299999999999 0.031858333333333336
1091185777 -0.04831633333333333 0.032071999999999996
1094159008 -0.048112666666666665 0.03218666666666667
1097132239 -0.048093 0.03216333333333333
1100105470 -0.04774366666666666 0.03198466666666667
1103078701 -0.04775533333333333 0.03179933333333333
1106051932 -0.04743833333333333 0.031515666666666664
1109025163 -0.04724333333333333 0.031105999999999998
1111998394 -0.04731033333333333 0.031581
1114971625 -0.04746533333333334 0.03212966666666667
1117944856 -0.04766499999999999 0.03263133333333333
1120918087 -0.04780333333333332 0.033075999999999994
1123891318 -0.04814033333333333 0.033358
1126864549 -0.04840066666666666 0.033404666666666666
1129837780 -0.048597666666666664 0.03336666666666666
1132811011 -0.04893966666666666 0.033287
1135784242 -0.049094666666666675 0.03294333333333333
1138757473 -0.04920366666666666 0.03248366666666666
1141730704 -0.04909933333333333 0.032598333333333326
1144703935 -0.049027999999999995 0.033083999999999995
1147677166 -0.04900933333333333 0.033402999999999995
1150650397 -0.049034333333333326 0.033632
1153623628 -0.049013 0.03376
1156596859 -0.048827333333333334 0.03371133333333333
1159570090 -0.048883333333333334 0.033680333333333326
1162543321 -0.048793666666666666 0.033442
1165516552 -0.04870866666666666 0.033112666666666665
1168489783 -0.048527999999999995 0.03260466666666666
1171463014 -0.048304 0.032750666666666664
1174436245 -0.04824966666666667 0.03342666666666666
1177409476 -0.048182 0.033935
1180382707 -0.04814133333333333 0.034427333333333324
1183355938 -0.048056333333333326 0.03465833333333333
1186329169 -0.04843199999999999 0.03494666666666667
1189302400 -0.048173666666666656 0.035052999999999994
1192275631 -0.04838699999999999 0.03501033333333334
1195248862 -0.048167333333333326 0.034872333333333325
1198222093 -0.048500999999999996 0.03457033333333333
1201195324 -0.04812166666666666 0.03454033333333333
1204168555 -0.048079 0.03475433333333333
1207141786 -0.04796 0.03488566666666666
1210115017 -0.04802566666666666 0.03486033333333333
1213088248 -0.048013 0.03483066666666666
1216061479 -0.047910999999999995 0.03469666666666666
1219034710 -0.047807999999999996 0.034372333333333324
1222007941 -0.047735 0.033965999999999996
1224981172 -0.04767066666666667 0.033483
1227954403 -0.047446666666666665 0.032826333333333325
1230927634 -0.04713099999999999 0.032667
1233900865 -0.047045000000000003 0.03344266666666666
1236874096 -0.045645 0.033657
1239847327 -0.04682533333333333 0.03480766666666667
