# HZ S RI R 50
10000 -0.18271366666666666 0.09081966666666666
2983231 0.1627473333333333 -0.13935333333333333
5956462 0.3404526666666666 -0.10310466666666665
8929693 0.12563733333333332 0.607139
11902924 -0.22364266666666666 1.0387366666666664
14876155 -1.3492929999999999 1.1869343333333333
17849386 -1.9035293333333332 -0.3772576666666666
20822617 -0.9809326666666666 -0.9415583333333333
23795848 -0.4997693333333333 -0.843902
26769079 -0.28193866666666667 -0.7201483333333332
29742310 -0.18480299999999997 -0.6077909999999999
32715541 -0.20026499999999997 -0.606626
35688772 -0.21243499999999998 -0.6316649999999999
38662003 -0.259754 -0.6259063333333332
41635234 -0.303471 -0.6235716666666666
44608465 -0.33843466666666666 -0.6454953333333333
47581696 -0.383586 -0.6657803333333333
50554927 -0.4273403333333333 -0.7278746666666667
53528158 -0.493428 -0.7314793333333333
56501389 -0.5181246666666666 -0.6428539999999999
59474620 -0.38173999999999997 -0.3903973333333333
62447851 -0.13113766666666665 0.0035783333333333335
65421082 0.14277066666666666 0.2776533333333333
68394313 -0.14227633333333334 0.19565733333333335
71367544 0.005296000000000004 0.2390486666666667
74340775 -0.11171199999999999 0.06345866666666666
77314006 0.119909 0.06091533333333333
80287237 -0.13487533333333335 0.28436266666666665
83260468 -0.07330933333333334 0.015995666666666665
86233699 -0.08691666666666667 0.010967333333333332
89206930 -0.19529699999999997 -0.01984
92180161 -0.13713466666666665 0.0024426666666666663
95153392 -0.16812333333333332 0.03087533333333333
98126623 0.05925966666666667 0.004914333333333333
101099854 -0.1617393333333333 0.07327
104073085 -0.17013166666666663 0.07254166666666666
107046316 -0.17620033333333332 0.06813733333333333
110019547 -0.20374766666666666 0.06424866666666668
112992778 -0.2282 0.03801566666666666
115966009 -0.23077433333333333 -0.009857666666666666
118939240 -0.23279799999999998 -0.057968
121912471 -0.228203 -0.04704966666666666
124885702 -0.23743866666666663 0.0019573333333333335
127858933 -0.2385363333333333 0.044802666666666664
130832164 -0.221885 0.06774533333333332
133805395 -0.21092066666666667 0.096041
136778626 -0.19140766666666667 0.0038759999999999997
139751857 -0.19848833333333332 -0.0016833333333333331
142725088 -0.20439266666666667 -0.016478666666666662
145698319 -0.209604 -0.03852
148671550 -0.1977773333333333 -0.07152666666666666
151644781 -0.20028733333333332 -0.06848699999999999
154618012 -0.211445 -0.038369
157591243 -0.2214523333333333 -0.018220666666666666
160564474 -0.22392033333333333 0.006526666666666667
163537705 -0.22878733333333334 0.015111666666666666
166510936 -0.23237633333333332 0.01962133333333333
169484167 -0.23407566666666663 0.006401333333333333
172457398 -0.23648133333333332 -0.009176333333333333
175430629 -0.22784799999999997 -0.03383933333333333
178403860 -0.21389666666666665 -0.063443
181377091 -0.20826999999999998 -0.06230733333333334
184350322 -0.23365933333333333 -0.04568966666666666
187323553 -0.24650966666666665 -0.022846999999999996
190296784 -0.25121099999999996 -0.013759
193270015 -0.2671273333333333 -0.010842
196243246 -0.26922366666666664 -0.015709
199216477 -0.27637 -0.041661666666666666
202189708 -0.266088 -0.06366333333333332
205162939 -0.24158066666666667 -0.09527799999999999
208136170 -0.21101266666666665 -0.11916433333333333
211109401 -0.19927899999999998 -0.116034
214082632 -0.228682 -0.10061133333333333
217055863 -0.25745399999999996 -0.07738066666666667
220029094 -0.276474 -0.06038333333333333
223002325 -0.2895083333333333 -0.059034
225975556 -0.287769 -0.06168033333333334
228948787 -0.2871543333333333 -0.07302833333333332
231922018 -0.2744103333333333 -0.09193333333333333
234895249 -0.25603733333333334 -0.10869533333333332
237868480 -0.22118466666666664 -0.12282599999999999
240841711 -0.20776266666666665 -0.12990266666666664
243814942 -0.2397103333333333 -0.11112933333333332
246788173 -0.2717406666666667 -0.08910566666666667
249761404 -0.2923543333333334 -0.07417
252734635 -0.3012873333333333 -0.06378966666666666
255707866 -0.30928100000000003 -0.06584833333333331
258681097 -0.31411799999999995 -0.07479833333333333
261654328 -0.3014029999999999 -0.09706966666666667
264627559 -0.2692056666666667 -0.12085299999999999
267600790 -0.24083666666666664 -0.13171566666666668
270574021 -0.21905066666666667 -0.136783
273547252 -0.25692166666666666 -0.12210033333333332
276520483 -0.2819913333333333 -0.10185233333333334
279493714 -0.30538866666666664 -0.08437466666666667
282466945 -0.31292899999999996 -0.08527766666666665
285440176 -0.3314193333333333 -0.09232066666666666
288413407 -0.3220476666666666 -0.10141999999999998
291386638 -0.3059093333333333 -0.12743566666666664
294359869 -0.28023066666666663 -0.14790533333333333
297333100 -0.24336466666666667 -0.15788733333333332
300306331 -0.2053773333333333 -0.156756
303279562 -0.24315866666666666 -0.1465493333333333
306252793 -0.270418 -0.1310343333333333
309226024 -0.30255599999999994 -0.11531733333333333
312199255 -0.31439466666666666 -0.11493666666666666
315172486 -0.3260383333333333 -0.11621899999999999
318145717 -0.3267503333333333 -0.13531466666666664
321118948 -0.30906 -0.15207099999999998
324092179 -0.28598599999999996 -0.17842366666666665
327065410 -0.243717 -0.18621199999999996
330038641 -0.20243166666666668 -0.18936366666666665
333011872 -0.24994666666666668 -0.266567
335985103 -0.19369199999999998 -0.055538000000000004
338958334 -0.2946013333333333 -0.156688
341931565 -0.31346233333333334 -0.14979333333333333
344904796 -0.324894 -0.15619666666666665
347878027 -0.31672866666666666 -0.169002
350851258 -0.2328613333333333 -0.07373533333333332
353824489 -0.2716693333333333 -0.20035033333333332
356797720 -0.232487 -0.21162466666666663
359770951 -0.1919553333333333 -0.20407233333333333
362744182 -0.22358 -0.20159266666666667
365717413 -0.257146 -0.19123133333333334
368690644 -0.28042833333333334 -0.17897366666666664
371663875 -0.298099 -0.169201
374637106 -0.30717266666666665 -0.16622933333333334
377610337 -0.3067603333333333 -0.1741893333333333
380583568 -0.2968553333333333 -0.19135433333333332
383556799 -0.271267 -0.19645
386530030 -0.24561733333333335 -0.20776333333333333
389503261 -0.204878 -0.20622
392476492 -0.227553 -0.20081766666666667
395449723 -0.26317033333333334 -0.19747033333333333
398422954 -0.2909083333333333 -0.19375066666666665
401396185 -0.3062746666666667 -0.18988833333333333
404369416 -0.31752199999999997 -0.19156466666666666
407342647 -0.317306 -0.194287
410315878 -0.31175699999999995 -0.21530799999999997
413289109 -0.28573933333333335 -0.233296
416262340 -0.25562 -0.23781133333333332
419235571 -0.21375166666666667 -0.2378573333333333
422208802 -0.228741 -0.23248800000000003
425182033 -0.26134066666666667 -0.22953266666666666
428155264 -0.28669766666666663 -0.22368266666666664
431128495 -0.3096136666666666 -0.22012966666666667
434101726 -0.312893 -0.224845
437074957 -0.30787733333333334 -0.226567
440048188 -0.2996903333333333 -0.24231933333333333
443021419 -0.2705203333333333 -0.24546266666666663
445994650 -0.23607766666666666 -0.24205633333333335
448967881 -0.20806866666666668 -0.24550899999999998
451941112 -0.21172333333333332 -0.24456033333333332
454914343 -0.24341899999999997 -0.24391633333333332
457887574 -0.2694853333333333 -0.23815366666666665
460860805 -0.291748 -0.23845
463834036 -0.31123899999999993 -0.23942566666666665
466807267 -0.30609099999999995 -0.259359
469780498 -0.297809 -0.27051699999999995
472753729 -0.274924 -0.271475
475726960 -0.2381153333333333 -0.27577699999999994
478700191 -0.212798 -0.26708166666666666
481673422 -0.21768633333333334 -0.2693913333333333
484646653 -0.2514806666666667 -0.2718986666666666
487619884 -0.2840853333333333 -0.27664
490593115 -0.30526466666666663 -0.2780583333333333
493566346 -0.32242766666666667 -0.2890526666666666
496539577 -0.319746 -0.30154766666666666
499512808 -0.31050633333333333 -0.3120046666666666
502486039 -0.286783 -0.3083933333333333
505459270 -0.254464 -0.3074996666666666
508432501 -0.221984 -0.30175566666666664
511405732 -0.22057433333333332 -0.29676099999999994
514378963 -0.259887 -0.305396
517352194 -0.28881266666666666 -0.3123876666666667
520325425 -0.3127526666666667 -0.31079666666666667
523298656 -0.3224626666666667 -0.31398099999999995
526271887 -0.321574 -0.33197699999999997
529245118 -0.3082013333333333 -0.3174583333333333
532218349 -0.2856713333333333 -0.3228393333333333
535191580 -0.259293 -0.3153896666666667
538164811 -0.2190543333333333 -0.30380799999999997
541138042 -0.216155 -0.28800166666666666
544111273 -0.26496566666666665 -0.28432066666666667
547084504 -0.3112473333333333 -0.2691726666666666
550057735 -0.36260866666666663 -0.2573403333333333
553030966 -0.39170233333333326 -0.241424
556004197 -0.4187433333333333 -0.26096433333333335
558977428 -0.4253743333333333 -0.23991733333333332
561950659 -0.41829133333333335 -0.25244333333333335
564923890 -0.412126 -0.24502166666666664
567897121 -0.3850973333333333 -0.23708799999999997
570870352 -0.368458 -0.2396833333333333
573843583 -0.400296 -0.2505536666666667
576816814 -0.42088099999999995 -0.2530703333333333
579790045 -0.43277299999999996 -0.2672306666666666
582763276 -0.43992033333333336 -0.28078566666666666
585736507 -0.4084283333333333 -0.2883613333333333
588709738 -0.37530699999999995 -0.31470333333333333
591682969 -0.3308096666666666 -0.3156433333333333
594656200 -0.2707916666666666 -0.307488
597629431 -0.218931 -0.2865296666666666
600602662 -0.18445633333333333 -0.27157566666666666
603575893 -0.22846766666666665 -0.28812866666666664
606549124 -0.2700176666666666 -0.30516899999999997
609522355 -0.30878399999999995 -0.31102266666666667
612495586 -0.32557233333333335 -0.33539066666666667
615468817 -0.34160366666666664 -0.36105666666666664
618442048 -0.328405 -0.37176733333333334
621415279 -0.30697299999999994 -0.382934
624388510 -0.276316 -0.38317333333333325
627361741 -0.23728166666666667 -0.37920099999999995
630334972 -0.19427233333333332 -0.36162900000000003
633308203 -0.246057 -0.37424599999999997
636281434 -0.28908933333333336 -0.37405866666666665
639254665 -0.308325 -0.38933466666666666
642227896 -0.33785899999999996 -0.40425333333333335
645201127 -0.33282666666666666 -0.40654599999999996
648174358 -0.31945866666666667 -0.4049666666666667
651147589 -0.299048 -0.40409433333333333
654120820 -0.267993 -0.40176833333333334
657094051 -0.23019466666666666 -0.37203733333333333
660067282 -0.198459 -0.35177133333333327
663040513 -0.22494266666666665 -0.36325699999999994
666013744 -0.2630406666666667 -0.3476323333333333
668986975 -0.27996466666666664 -0.3482666666666666
671960206 -0.29779466666666665 -0.36602
674933437 -0.29295933333333335 -0.34917399999999993
677906668 -0.28951499999999997 -0.331881
680879899 -0.26830733333333334 -0.32433766666666664
683853130 -0.2397423333333333 -0.3114673333333333
686826361 -0.2134653333333333 -0.29297166666666663
689799592 -0.18342166666666665 -0.26376399999999994
692772823 -0.21758866666666665 -0.27107533333333333
695746054 -0.2578296666666666 -0.30171266666666663
698719285 -0.283399 -0.32588233333333333
701692516 -0.3125866666666666 -0.34292233333333333
704665747 -0.3161483333333333 -0.384212
707638978 -0.32303466666666664 -0.39863766666666667
710612209 -0.2940636666666666 -0.41070399999999996
713585440 -0.26099433333333333 -0.42663066666666666
716558671 -0.23213733333333333 -0.418285
719531902 -0.19453733333333334 -0.3989893333333333
722505133 -0.21130566666666667 -0.4160436666666667
725478364 -0.24220766666666665 -0.43771866666666664
728451595 -0.27890266666666663 -0.4464983333333333
731424826 -0.29955 -0.46566633333333335
734398057 -0.2945216666666666 -0.49380433333333335
737371288 -0.2972916666666666 -0.4699386666666666
740344519 -0.27797633333333327 -0.479457
743317750 -0.24724733333333337 -0.47836733333333337
746290981 -0.215823 -0.4580916666666667
749264212 -0.179055 -0.42524933333333326
752237443 -0.19895866666666664 -0.44441766666666666
755210674 -0.24014399999999997 -0.45528199999999996
758183905 -0.2646283333333333 -0.4573083333333333
761157136 -0.2805833333333333 -0.48256333333333334
764130367 -0.2973403333333333 -0.474707
767103598 -0.29189366666666666 -0.48642166666666664
770076829 -0.2801466666666666 -0.477096
773050060 -0.25510299999999997 -0.46162833333333336
776023291 -0.23338899999999999 -0.43512033333333333
778996522 -0.20346466666666665 -0.41718900000000003
781969753 -0.21932733333333335 -0.42517133333333335
784942984 -0.24520866666666666 -0.44601633333333324
787916215 -0.27541533333333335 -0.459801
790889446 -0.29318999999999995 -0.47319500000000003
793862677 -0.29849966666666666 -0.4983843333333334
796835908 -0.296667 -0.4910663333333334
799809139 -0.28279600000000005 -0.4983493333333333
802782370 -0.252949 -0.4815386666666666
805755601 -0.22230266666666668 -0.4527923333333333
808728832 -0.19677999999999998 -0.41986466666666666
811702063 -0.20709266666666665 -0.4227686666666666
814675294 -0.24604133333333333 -0.452399
817648525 -0.2691746666666666 -0.47691599999999995
820621756 -0.2829696666666667 -0.494772
823594987 -0.3011883333333333 -0.5180443333333333
826568218 -0.2989613333333333 -0.517069
829541449 -0.29062066666666664 -0.5112796666666667
832514680 -0.260443 -0.5108269999999999
835487911 -0.23276466666666665 -0.4814133333333333
838461142 -0.204631 -0.4454206666666667
841434373 -0.20161066666666666 -0.4558749999999999
844407604 -0.240052 -0.4691053333333333
847380835 -0.27817699999999995 -0.48753199999999997
850354066 -0.28024266666666664 -0.5190906666666666
853327297 -0.304286 -0.527145
856300528 -0.2963393333333333 -0.5249916666666666
859273759 -0.29062066666666664 -0.5117326666666666
862246990 -0.264683 -0.5057959999999999
865220221 -0.227304 -0.479611
868193452 -0.20754699999999998 -0.437884
871166683 -0.20784999999999998 -0.428902
874139914 -0.24528999999999995 -0.46495333333333333
877113145 -0.27875099999999997 -0.4993126666666666
880086376 -0.3231853333333333 -0.520508
883059607 -0.3343083333333333 -0.5387706666666666
886032838 -0.35775266666666666 -0.5491489999999999
889006069 -0.3240383333333333 -0.5677893333333334
891979300 -0.3033423333333333 -0.5755026666666666
894952531 -0.259803 -0.562962
897925762 -0.21231166666666668 -0.5307443333333334
900898993 -0.20570766666666665 -0.5076526666666665
903872224 -0.24326166666666663 -0.5385420000000001
906845455 -0.2840216666666667 -0.5669263333333333
909818686 -0.3119923333333333 -0.5995636666666666
912791917 -0.3254123333333333 -0.5818596666666667
915765148 -0.33010433333333333 -0.6119893333333333
918738379 -0.30017166666666667 -0.6239073333333334
921711610 -0.27557599999999993 -0.603539
924684841 -0.24130333333333334 -0.5705213333333333
927658072 -0.20582099999999998 -0.5312583333333333
930631303 -0.19187499999999996 -0.49294266666666664
933604534 -0.2291723333333333 -0.5310619999999999
936577765 -0.26136866666666664 -0.5554576666666666
939550996 -0.28720866666666667 -0.5836269999999999
942524227 -0.32815 -0.6001763333333332
945497458 -0.30614699999999995 -0.6256423333333332
948470689 -0.321333 -0.5962103333333333
951443920 -0.29271199999999997 -0.597235
954417151 -0.25270066666666663 -0.570455
957390382 -0.21649566666666664 -0.5505373333333333
960363613 -0.17813933333333334 -0.5344616666666666
963336844 -0.2282823333333333 -0.5552476666666666
966310075 -0.26972999999999997 -0.5672516666666666
969283306 -0.29718233333333327 -0.5977046666666667
972256537 -0.31326533333333334 -0.6099436666666667
975229768 -0.3038803333333333 -0.632212
978202999 -0.29669199999999996 -0.639115
981176230 -0.27342599999999995 -0.628321
984149461 -0.2228383333333333 -0.615111
987122692 -0.19495999999999997 -0.5818883333333333
990095923 -0.15471166666666664 -0.5490013333333332
993069154 -0.20001933333333333 -0.5660073333333333
996042385 -0.2347083333333333 -0.5941036666666666
999015616 -0.271763 -0.6138703333333333
1001988847 -0.29070433333333334 -0.621659
1004962078 -0.2976856666666666 -0.635527
1007935309 -0.28484499999999996 -0.656801
1010908540 -0.2721786666666667 -0.6323823333333333
1013881771 -0.216308 -0.6250406666666666
1016855002 -0.223529 -0.5798743333333333
1019828233 -0.18432966666666664 -0.5476920000000001
1022801464 -0.21159 -0.5792506666666666
1025774695 -0.23482899999999998 -0.6246613333333333
1028747926 -0.27063499999999996 -0.6410113333333333
1031721157 -0.282489 -0.6697546666666666
1034694388 -0.28242666666666666 -0.692399
1037667619 -0.276138 -0.6880473333333332
1040640850 -0.24976166666666666 -0.680014
1043614081 -0.22051900000000002 -0.6596593333333334
1046587312 -0.022921000000000004 -0.667894
1049560543 -0.162901 -0.5871983333333333
1052533774 -0.198824 -0.6136186666666666
1055507005 -0.22332100000000002 -0.6515443333333333
1058480236 -0.23528433333333335 -0.697135
1061453467 -0.255127 -0.719474
1064426698 -0.25648666666666664 -0.7312503333333332
1067399929 -0.2551756666666667 -0.7282133333333333
1070373160 -0.24375966666666665 -0.7256633333333333
1073346391 -0.20931933333333333 -0.7076456666666666
1076319622 -0.201473 -0.6578346666666666
1079292853 -0.167511 -0.6216773333333333
1082266084 -0.18067133333333332 -0.651678
1085239315 -0.21225133333333335 -0.6963840000000001
1088212546 -0.24033833333333332 -0.7248353333333333
1091185777 -0.23193699999999998 -0.7561613333333332
1094159008 -0.2581793333333333 -0.7761656666666666
1097132239 -0.233858 -0.7609499999999999
1100105470 -0.2381606666666667 -0.7404153333333332
1103078701 -0.22202233333333332 -0.7115186666666666
1106051932 -0.2041413333333333 -0.6699293333333334
1109025163 -0.19860199999999997 -0.6221213333333333
1111998394 -0.20163133333333333 -0.6499953333333333
1114971625 -0.23044733333333334 -0.6959543333333333
1117944856 -0.24045433333333333 -0.7479556666666666
1120918087 -0.24058899999999997 -0.7752453333333333
1123891318 -0.24953266666666668 -0.8033713333333333
1126864549 -0.23671999999999999 -0.8052796666666666
1129837780 -0.22540933333333335 -0.7928820000000001
1132811011 -0.20733066666666666 -0.7619409999999999
1135784242 -0.16105866666666666 -0.7270533333333332
1138757473 -0.14204 -0.6851616666666667
1141730704 -0.171616 -0.675657
1144703935 -0.19217466666666666 -0.7356453333333333
1147677166 -0.21232766666666664 -0.801375
1150650397 -0.22774266666666668 -0.8273759999999999
1153623628 -0.23956499999999997 -0.8597389999999999
1156596859 -0.23422199999999999 -0.8446159999999999
1159570090 -0.20858366666666664 -0.8328426666666666
1162543321 -0.14267 -0.8118503333333333
1165516552 -0.12672766666666666 -0.753589
1168489783 -0.12727133333333332 -0.6883059999999999
1171463014 -0.1484 -0.6848859999999999
1174436245 -0.19138466666666668 -0.7595823333333334
1177409476 -0.20982966666666664 -0.7932416666666665
1180382707 -0.2595489999999999 -0.8402063333333333
1183355938 -0.24071166666666666 -0.8615666666666666
1186329169 -0.2514903333333333 -0.8674876666666665
1189302400 -0.21156699999999998 -0.8858769999999999
1192275631 -0.21762566666666663 -0.8169
1195248862 -0.20493366666666663 -0.7504246666666666
1198222093 -0.1992753333333333 -0.6981533333333334
1201195324 -0.19400333333333333 -0.6861253333333333
1204168555 -0.223022 -0.7401409999999999
1207141786 -0.2338923333333333 -0.8073536666666667
1210115017 -0.2751733333333333 -0.8349530000000001
1213088248 -0.277317 -0.8734789999999999
1216061479 -0.24062466666666665 -0.8775529999999999
1219034710 -0.222939 -0.8477883333333334
1222007941 -0.1942253333333333 -0.8265276666666665
1224981172 -0.1547893333333333 -0.7618846666666667
1227954403 -0.12622466666666665 -0.6924823333333334
1230927634 -0.143825 -0.6637083333333333
1233900865 -0.18730433333333332 -0.70615
1236874096 -0.23553399999999997 -0.728843
1239847327 -0.2769223333333333 -0.7660973333333333
1242820558 -0.26577666666666666 -0.8024343333333332
1245793789 -0.26595166666666664 -0.8226566666666667
1248767020 -0.2626516666666666 -0.799221
1251740251 -0.247207 -0.780171
1254713482 -0.22593266666666667 -0.7349059999999998
1257686713 -0.20553 -0.6733346666666666
