# HZ S RI R 50
10000 1.0022469999999999 0.02320766666666666
14948 1.3470790000000001 0.2221163333333333
19896 1.434438 4.613132
24844 1.2795493333333332 0.3870969999999999
29792 1.2767263333333332 0.3891943333333333
34740 1.2769599999999999 0.38942799999999994
39688 1.2699313333333333 0.391841
44636 1.26544 0.39794333333333337
49584 1.2592809999999999 0.405861
54532 1.2544496666666665 0.4163936666666666
59480 1.248507 0.425227
64428 1.2414216666666666 0.4338226666666666
69376 1.2334306666666666 0.4421203333333333
74324 1.2281663333333332 0.4493723333333333
79272 1.2229906666666666 0.456335
84220 1.2180016666666666 0.464337
89168 1.21048 0.46905699999999995
94116 1.2053206666666665 0.47579
99064 1.199509 0.4829733333333333
104012 1.1941296666666665 0.489253
108960 1.1894246666666666 0.49602099999999993
113908 1.1854033333333334 0.503583
118856 1.1803526666666666 0.5095176666666665
123804 1.17479 0.5170013333333332
128752 1.1704573333333332 0.5239093333333332
133700 1.1662933333333332 0.5301223333333334
138648 1.1606059999999998 0.5398293333333333
143596 1.157112 0.5436216666666667
148544 1.1527993333333333 0.5509196666666667
153492 1.1477966666666666 0.5565516666666667
158440 1.1421459999999999 0.5639936666666666
163388 1.1392133333333334 0.5704073333333333
168336 1.1347336666666665 0.5763879999999999
173284 1.1294939999999998 0.583561
178232 1.1260376666666665 0.5889446666666667
183180 1.1208403333333332 0.5958389999999999
188128 1.116412 0.601251
193076 1.1119573333333332 0.6070813333333334
198024 1.1086663333333333 0.6128480000000001
202972 1.1034906666666666 0.6197283333333332
207920 1.0997456666666667 0.625332
212868 1.0943533333333333 0.631172
217816 1.0908669999999998 0.6365816666666666
222764 1.0859406666666667 0.6422433333333333
227712 1.0816323333333333 0.6476533333333333
232660 1.0774016666666668 0.6542343333333334
237608 1.0738843333333332 0.6597703333333333
242556 1.0687026666666666 0.6649636666666666
247504 1.0645253333333333 0.6699106666666667
252452 1.0596449999999997 0.6763553333333334
257400 1.0563663333333333 0.6819493333333333
262348 1.052122 0.6865153333333334
267296 1.0476213333333333 0.6924049999999999
272244 1.0438919999999998 0.697221
277192 1.0392103333333331 0.702688
282140 1.0356623333333332 0.7077966666666666
287088 1.0309879999999998 0.7126623333333334
292036 1.0262223333333333 0.7181003333333333
296984 1.0220606666666667 0.7231793333333334
301932 1.018002 0.727652
306880 1.0140073333333333 0.7321013333333333
311828 1.010056 0.7380866666666666
316776 1.0060173333333333 0.741767
321724 1.001564 0.7468483333333333
326672 0.9984033333333333 0.7512033333333333
331620 0.993441 0.7555856666666667
336568 0.9896183333333333 0.760996
341516 0.9842516666666667 0.7653086666666666
346464 0.9815993333333333 0.7702966666666666
351412 0.9770243333333333 0.7748676666666665
356360 0.973038 0.7789579999999999
361308 0.9688176666666666 0.7837103333333333
366256 0.9652193333333333 0.7878206666666667
371204 0.961144 0.792694
376152 0.9569086666666666 0.7962829999999999
381100 0.9537979999999999 0.8004789999999999
386048 0.9497249999999999 0.805297
390996 0.9453943333333333 0.8091736666666667
395944 0.9421166666666665 0.8140603333333334
400892 0.9378816666666667 0.817969
405840 0.934482 0.821621
410788 0.9305473333333333 0.8263746666666667
415736 0.926874 0.8302366666666666
420684 0.9223489999999999 0.8346136666666666
425632 0.9194783333333334 0.8375876666666666
430580 0.9154976666666667 0.8416403333333333
435528 0.9118656666666666 0.8460556666666665
440476 0.9077996666666666 0.8492213333333334
445424 0.9037686666666667 0.8538730000000001
450372 0.9000466666666667 0.8575513333333333
455320 0.896914 0.8611303333333332
460268 0.8926769999999999 0.8651453333333332
465216 0.8891696666666666 0.8684046666666667
470164 0.885378 0.8723253333333334
475112 0.8820950000000001 0.8765516666666666
480060 0.8780366666666666 0.8796719999999999
485008 0.8749463333333334 0.8836269999999999
489956 0.8715839999999999 0.8867216666666666
494904 0.8672596666666667 0.8902773333333333
499852 0.8637806666666666 0.893958
504800 0.8600973333333333 0.8973316666666667
509748 0.8566316666666667 0.899141
514696 0.841027 0.936669
519644 0.8500289999999999 0.9060819999999998
524592 0.846278 0.9093796666666667
529540 0.8426953333333334 0.912623
534488 0.838902 0.9168853333333333
539436 0.8361579999999998 0.919415
544384 0.8316686666666666 0.9232659999999999
549332 0.8292833333333333 0.9262949999999999
554280 0.8254096666666666 0.9289826666666665
559228 0.8220076666666666 0.9327893333333332
564176 0.8187013333333334 0.9358776666666666
569124 0.8151046666666666 0.9388553333333333
574072 0.8119383333333332 0.9416216666666666
579020 0.8092016666666666 0.94561
583968 0.80571 0.9480519999999999
588916 0.802462 0.9517690000000001
593864 0.799796 0.9543769999999998
598812 0.7962556666666667 0.9574533333333333
603760 0.7927286666666666 0.9611726666666667
608708 0.7897279999999999 0.9624619999999999
613656 0.7869303333333333 0.9670043333333332
618604 0.7834753333333332 0.9693136666666666
623552 0.7802593333333334 0.9726176666666666
628500 0.777157 0.9753226666666667
633448 0.7743526666666667 0.9777309999999999
638396 0.7704726666666667 0.9808863333333333
643344 0.7678976666666666 0.9837463333333334
648292 0.764745 0.986684
653240 0.761967 0.9890279999999999
658188 0.7584956666666667 0.9911806666666667
663136 0.7554433333333332 0.994459
668084 0.7532509999999999 0.9969343333333334
673032 0.7503896666666666 1.0002736666666667
677980 0.7467349999999999 1.0029949999999999
682928 0.7435313333333333 1.0055009999999998
687876 0.7411003333333332 1.0081583333333333
692824 0.7376793333333334 1.01022
697772 0.7349803333333332 1.0134433333333333
702720 0.7323563333333333 1.0150730000000001
707668 0.7303243333333334 1.018826
712616 0.726841 1.0214736666666666
717564 0.7249403333333332 1.0236946666666666
722512 0.7211993333333333 1.0249846666666667
727460 0.7188046666666665 1.0281013333333333
732408 0.7157553333333333 1.031178
737356 0.7138896666666665 1.0335896666666666
742304 0.7102363333333332 1.0353503333333332
747252 0.7076309999999999 1.0376386666666666
752200 0.7052269999999999 1.041512
757148 0.7029696666666667 1.0425096666666667
762096 0.7004980000000001 1.045181333333333
767044 0.6970883333333333 1.048762
771992 0.6954313333333333 1.0499426666666667
776940 0.692071 1.0526556666666667
781888 0.6895693333333333 1.0549306666666667
786836 0.6868193333333333 1.0571406666666667
791784 0.6845926666666666 1.0598539999999999
796732 0.6826026666666666 1.0611266666666666
801680 0.6795723333333333 1.0639509999999999
806628 0.6776359999999999 1.0664863333333332
811576 0.6753536666666666 1.0679349999999999
816524 0.6725439999999999 1.0708096666666667
821472 0.6700673333333333 1.0730026666666665
826420 0.6679269999999999 1.0753863333333333
831368 0.6653706666666667 1.0769743333333333
836316 0.6630686666666665 1.0789036666666667
841264 0.6609343333333333 1.0808293333333334
846212 0.6583853333333334 1.0842646666666667
851160 0.6562293333333332 1.0856063333333332
856108 0.6540386666666667 1.088641
861056 0.651691 1.090245
866004 0.6504343333333333 1.0918416666666666
870952 0.6475473333333334 1.093937333333333
875900 0.6454586666666665 1.0966793333333331
880848 0.6432446666666666 1.0980076666666667
885796 0.6418223333333333 1.0999606666666666
890744 0.639186 1.1016536666666665
895692 0.6371486666666666 1.1042953333333332
900640 0.6349589999999999 1.1062896666666666
905588 0.6331283333333333 1.1081806666666667
910536 0.6306123333333333 1.1095093333333335
915484 0.6298356666666667 1.1122489999999998
920432 0.6270496666666667 1.1134843333333333
925380 0.624289 1.115482
930328 0.622614 1.1181193333333335
935276 0.6209946666666666 1.1197483333333331
940224 0.6201586666666665 1.122143
945172 0.6174383333333333 1.1234373333333334
950120 0.615996 1.1247056666666666
955068 0.6130266666666666 1.127727
960016 0.6120209999999999 1.1288673333333332
964964 0.6100399999999999 1.1313036666666665
969912 0.6071439999999999 1.1330716666666665
974860 0.6052813333333333 1.1345653333333332
979808 0.6046889999999999 1.1360113333333333
984756 0.602693 1.1385813333333332
989704 0.6016249999999999 1.139808
994652 0.5998226666666666 1.1415220000000001
999600 0.5990779999999999 1.1431873333333331
1004548 0.5966453333333332 1.1454663333333333
1009496 0.6103763333333333 1.1400043333333332
1014444 0.5934103333333333 1.1479336666666664
1019392 0.5911576666666667 1.14978
1024340 0.5894409999999999 1.1514913333333332
1029288 0.587736 1.1538386666666667
1034236 0.586182 1.1557726666666666
1039184 0.5849056666666665 1.1565703333333333
1044132 0.5834336666666666 1.1583773333333331
1049080 0.5826236666666667 1.160011
1054028 0.5811076666666666 1.1615843333333333
1058976 0.5792246666666667 1.1635526666666667
1063924 0.5772499999999999 1.1643326666666667
1068872 0.5773379999999999 1.1668180000000001
1073820 0.5744379999999999 1.1676223333333333
1078768 0.5742413333333333 1.1696686666666667
1083716 0.5721879999999999 1.1705213333333333
1088664 0.5717779999999999 1.1723916666666665
1093612 0.5707260000000001 1.1749579999999997
1098560 0.5685763333333332 1.1763089999999998
1103508 0.5679323333333334 1.1775873333333333
1108456 0.5671233333333334 1.1788409999999998
1113404 0.565373 1.1805586666666665
1118352 0.5651059999999999 1.1824259999999998
1123300 0.5638136666666667 1.1836786666666665
1128248 0.5623106666666666 1.1854073333333333
1133196 0.5606243333333333 1.1861896666666667
1138144 0.5603493333333334 1.1871269999999998
1143092 0.5588976666666666 1.1894976666666666
1148040 0.5400296666666666 1.221839
1152988 0.5561843333333332 1.192796
1157936 0.555548 1.1937673333333332
1162884 0.5552823333333332 1.195191
1167832 0.553922 1.1961849999999998
1172780 0.5537233333333332 1.197792
1177728 0.5523633333333333 1.2002986666666664
1182676 0.5512603333333332 1.2006046666666665
1187624 0.550744 1.2016363333333333
1192572 0.5494243333333333 1.2034183333333333
1197520 0.5488609999999999 1.2042406666666667
1202468 0.5479546666666666 1.2061683333333333
1207416 0.5471363333333332 1.2076586666666667
1212364 0.546947 1.208972333333333
1217312 0.5460953333333333 1.2101739999999999
1222260 0.5449029999999999 1.2110189999999998
1227208 0.544359 1.2125226666666666
1232156 0.5441523333333333 1.2136696666666666
1237104 0.5421809999999999 1.2149069999999997
1242052 0.5419959999999999 1.21604
1247000 0.5414986666666666 1.2172626666666666
1251948 0.5410193333333333 1.2183059999999997
1256896 0.5410226666666667 1.219963
1261844 0.540432 1.2208033333333335
1266792 0.5395433333333333 1.2213396666666667
1271740 0.538009 1.2231513333333333
1276688 0.53817 1.2240529999999998
1281636 0.537994 1.2260039999999999
1286584 0.537309 1.226983
1291532 0.5367596666666666 1.2278463333333332
1296480 0.5362706666666666 1.2298706666666666
1301428 0.5357236666666666 1.2301073333333332
1306376 0.5359689999999999 1.2310483333333333
1311324 0.5361546666666667 1.2327956666666666
1316272 0.5347256666666667 1.232422
1321220 0.5355586666666666 1.2348186666666665
1326168 0.5338433333333332 1.2366413333333335
1331116 0.5345116666666666 1.2370226666666666
1336064 0.5342853333333333 1.2376209999999999
1341012 0.5332859999999999 1.2387246666666667
1345960 0.5327149999999999 1.2388503333333332
1350908 0.532783 1.240408
1355856 0.5333883333333334 1.2418716666666665
1360804 0.5335993333333332 1.2421636666666667
1365752 0.533493 1.2426726666666665
1370700 0.5324976666666665 1.2445300000000001
1375648 0.5323216666666666 1.245108
1380596 0.5317573333333333 1.245618
1385544 0.5323513333333333 1.2464053333333331
1390492 0.5323789999999999 1.2475796666666668
1395440 0.532462 1.2478226666666665
1400388 0.5327719999999999 1.2492156666666667
1405336 0.532814 1.2502176666666664
1410284 0.5327953333333333 1.2508333333333332
1415232 0.5324546666666667 1.251976
1420180 0.53274 1.253439
1425128 0.532781 1.2535486666666666
1430076 0.5323973333333334 1.255481
1435024 0.5331713333333332 1.25495
1439972 0.5330509999999999 1.2560419999999999
1444920 0.5327333333333333 1.256951
1449868 0.5327773333333333 1.2580206666666665
1454816 0.5341213333333332 1.258820333333333
1459764 0.5338176666666665 1.2585773333333332
1464712 0.5341536666666666 1.2599049999999998
1469660 0.5341106666666666 1.2614703333333335
1474608 0.5345846666666666 1.26022
1479556 0.535245 1.2619003333333334
1484504 0.5346566666666666 1.2621126666666664
1489452 0.5346373333333332 1.2625829999999998
1494400 0.5357276666666666 1.2644043333333332
1499348 0.5358109999999999 1.2638299999999998
1504296 0.5361203333333333 1.2654676666666664
1509244 0.5367133333333334 1.2643046666666664
1514192 0.5370926666666667 1.2655636666666665
1519140 0.5367846666666666 1.266103
1524088 0.5372693333333333 1.2664943333333332
1529036 0.5380343333333333 1.2674596666666667
1533984 0.5388279999999999 1.2671173333333334
1538932 0.538855 1.2683933333333333
1543880 0.5397113333333334 1.2685259999999998
1548828 0.5402506666666667 1.2692013333333334
1553776 0.5404093333333333 1.2683043333333333
1558724 0.5413933333333333 1.2697033333333332
1563672 0.5416673333333333 1.2698029999999998
1568620 0.5416509999999999 1.2709579999999998
1573568 0.5427026666666667 1.270887333333333
1578516 0.5430893333333333 1.2708309999999998
1583464 0.5440173333333332 1.2721756666666666
1588412 0.550743 1.2785366666666667
1593360 0.5455586666666666 1.2720873333333333
1598308 0.5337126666666666 1.3047739999999999
1603256 0.5461313333333333 1.272687
1608204 0.5242523333333333 1.284652
1613152 0.5477393333333334 1.2729079999999997
1618100 0.5501533333333333 1.2739186666666666
1623048 0.54955 1.274152
1627996 0.5504936666666667 1.2747950000000001
1632944 0.551624 1.2737359999999998
1637892 0.5517273333333332 1.2742499999999999
1642840 0.5524466666666666 1.2746473333333332
1647788 0.5525813333333334 1.2754636666666666
1652736 0.5540029999999999 1.274176
1657684 0.555171 1.2747903333333332
1662632 0.5560013333333332 1.275464
1667580 0.5571513333333332 1.2751993333333334
1672528 0.5569386666666667 1.2751336666666666
1677476 0.5647366666666667 1.2864726666666666
1682424 0.5593363333333332 1.2757113333333332
1687372 0.559593 1.2750926666666667
1692320 0.5611056666666667 1.2756923333333332
1697268 0.5645846666666666 1.2768063333333333
1702216 0.5628513333333333 1.2754123333333331
1707164 0.5634173333333333 1.275451
1712112 0.5645739999999999 1.2743166666666665
1717060 0.565163 1.2750336666666666
1722008 0.5667303333333333 1.2741856666666664
1726956 0.5682373333333333 1.275316
1731904 0.568483 1.273844
1736852 0.5690689999999999 1.274271
1741800 0.5700326666666666 1.2740116666666668
1746748 0.5621816666666667 1.3057876666666666
1751696 0.5720383333333332 1.2736056666666666
1756644 0.5734503333333333 1.2738286666666667
1761592 0.5750926666666666 1.274098333333333
1766540 0.5677616666666667 1.285042
1771488 0.5766543333333334 1.2716133333333333
1776436 0.5772176666666666 1.2717593333333332
1781384 0.5790146666666667 1.2725606666666667
1786332 0.5791929999999998 1.2723716666666665
1791280 0.5813403333333332 1.2713556666666666
1796228 0.5824733333333333 1.2711986666666664
1801176 0.5824199999999999 1.2701543333333334
1806124 0.584167 1.270662
1811072 0.5857736666666666 1.2696706666666666
1816020 0.587167 1.2699326666666666
1820968 0.5873966666666666 1.2693166666666666
1825916 0.5893470000000001 1.2684093333333335
1830864 0.5900276666666666 1.2679003333333332
1835812 0.5981629999999999 1.2764236666666666
1840760 0.5940336666666666 1.2673043333333334
1845708 0.578066 1.279503333333333
1850656 0.5950683333333333 1.267264
1855604 0.596564 1.2652016666666666
1860552 0.5967626666666666 1.265501
1865500 0.5987463333333334 1.2649323333333333
1870448 0.5998039999999999 1.2642493333333333
1875396 0.6012183333333333 1.2627393333333334
1880344 0.6015553333333332 1.2624903333333333
1885292 0.6027073333333333 1.2619223333333331
1890240 0.604726 1.260754333333333
1895188 0.6059306666666666 1.2606813333333333
1900136 0.606943 1.2596859999999999
1905084 0.6087926666666665 1.260038
1910032 0.6092056666666666 1.2574926666666666
1914980 0.611204 1.2574793333333332
1919928 0.6116039999999999 1.256881
1924876 0.623999 1.262798
1929824 0.6140056666666667 1.2550400000000002
1934772 0.6076573333333333 1.2640016666666667
1939720 0.6161713333333334 1.2531113333333332
1944668 0.6184769999999999 1.2526356666666665
1949616 0.6191653333333333 1.2508696666666668
1954564 0.6213143333333333 1.2507413333333333
1959512 0.6222586666666666 1.2504483333333332
1964460 0.6238576666666666 1.2481803333333332
1969408 0.6255866666666666 1.247702333333333
1974356 0.6258796666666666 1.2471543333333335
1979304 0.6274663333333332 1.2462056666666665
1984252 0.6289176666666667 1.2446203333333332
1989200 0.62987 1.243601
1994148 0.630501 1.243098
1999096 0.632442 1.2414003333333332
2004044 0.633858 1.2407063333333332
2008992 0.6353723333333333 1.2393723333333333
2013940 0.6359496666666666 1.2384863333333334
2018888 0.6380133333333333 1.2379763333333331
2023836 0.638973 1.2349606666666666
2028784 0.639712 1.2336139999999998
2033732 0.6416643333333333 1.2341353333333331
2038680 0.6433553333333333 1.2324293333333332
2043628 0.6440663333333334 1.2309046666666665
2048576 0.6445513333333334 1.229527
2053524 0.6459820000000001 1.2290809999999999
2058472 0.6479283333333332 1.2281119999999999
2063420 0.6488036666666666 1.2272053333333333
2068368 0.649608 1.2252746666666667
2073316 0.6517573333333333 1.223978
2078264 0.651949 1.2226059999999999
2083212 0.654614 1.2205666666666666
2088160 0.6551049999999999 1.220527
2093108 0.6566000000000001 1.218661
2098056 0.6576626666666666 1.217345
2103004 0.6583066666666666 1.2154183333333333
2107952 0.6601926666666666 1.214229
2112900 0.6624193333333332 1.2133546666666666
2117848 0.6623523333333333 1.2111056666666666
2122796 0.664306 1.2108033333333332
2127744 0.6658406666666666 1.209076
2132692 0.666605 1.2084556666666666
2137640 0.6677456666666666 1.2065226666666666
2142588 0.6685383333333333 1.2053376666666666
2147536 0.6704809999999999 1.2044389999999998
2152484 0.6711926666666665 1.2017
2157432 0.6724633333333334 1.1997396666666664
2162380 0.6735056666666666 1.1987096666666668
2167328 0.674758 1.1971086666666668
2172276 0.6762113333333334 1.1956293333333332
2177224 0.6779316666666666 1.194323
2182172 0.6787159999999999 1.1932866666666666
2187120 0.6798813333333333 1.1905593333333333
2192068 0.6802126666666666 1.1893196666666666
2197016 0.6821406666666667 1.1880559999999998
2201964 0.6837346666666667 1.1860806666666668
2206912 0.6844183333333334 1.184425
2211860 0.6860399999999999 1.1828956666666666
2216808 0.6869149999999999 1.1809543333333332
2221756 0.6884586666666667 1.1799696666666666
2226704 0.6892496666666666 1.1773276666666668
2231652 0.6908746666666665 1.176558
2236600 0.691569 1.1748803333333333
2241548 0.6915966666666666 1.171903
2246496 0.6943406666666665 1.1712073333333333
2251444 0.6947023333333333 1.1687729999999998
2256392 0.6955096666666667 1.1668413333333334
2261340 0.6973943333333332 1.1655243333333332
2266288 0.698781 1.1640926666666667
2271236 0.698726 1.162297
2276184 0.700418 1.1605779999999997
2281132 0.7021833333333333 1.1594973333333334
2286080 0.7024113333333333 1.1572643333333332
2291028 0.7036926666666666 1.1553300000000002
2295976 0.704592 1.1527256666666665
2300924 0.7052813333333333 1.1514723333333334
2305872 0.7073066666666668 1.1500166666666667
2310820 0.7077399999999999 1.1480249999999999
2315768 0.7093903333333333 1.1459393333333332
2320716 0.7094716666666667 1.1440489999999999
2325664 0.711479 1.1429366666666665
2330612 0.7121526666666667 1.1404983333333334
2335560 0.712456 1.1384619999999999
2340508 0.7135496666666665 1.1367966666666665
2345456 0.7150336666666666 1.1343976666666666
2350404 0.7155313333333333 1.1335536666666668
2355352 0.71672 1.1314133333333334
2360300 0.717729 1.1288046666666665
2365248 0.7183409999999999 1.1268143333333334
2370196 0.7193706666666666 1.1257099999999998
2375144 0.7205329999999999 1.1233796666666667
2380092 0.720866 1.120959
