# HZ S RI R 50
10000 1.0212793333333332 0.09506933333333334
14948 1.342268 0.21313966666666664
19896 -1.4305743333333334 0.7715816666666666
24844 1.2758733333333332 0.3851636666666667
29792 1.2717596666666664 0.38846366666666665
34740 1.2708709999999999 0.38884566666666665
39688 1.2680123333333333 0.3909186666666667
44636 1.2621583333333333 0.3971546666666666
49584 1.2559283333333333 0.40524266666666664
54532 1.2513123333333334 0.414253
59480 1.2447096666666666 0.42169966666666664
64428 1.2384183333333332 0.43140366666666663
69376 1.2317873333333333 0.43905299999999997
74324 1.2258559999999998 0.4469376666666667
79272 1.2189696666666665 0.4535713333333333
84220 1.211462 0.45940566666666666
89168 1.2073399999999999 0.46639433333333324
94116 1.2022436666666665 0.473499
99064 1.1962786666666665 0.4800423333333333
104012 1.1915796666666667 0.4874086666666666
108960 1.187221 0.493639
113908 1.1814046666666664 0.500567
118856 1.1773303333333331 0.5076883333333333
123804 1.1718136666666665 0.5144486666666667
128752 1.1682086666666667 0.5210236666666667
133700 1.160822 0.536159
138648 1.1607779999999999 0.5348953333333333
143596 1.1533146666666665 0.5499733333333333
148544 1.149273 0.5488706666666667
153492 1.145052 0.5543053333333333
158440 1.1408556666666665 0.5610116666666667
163388 1.1398356666666665 0.6089156666666666
168336 1.131931 0.5738316666666666
173284 1.1144349999999998 0.6237926666666667
178232 1.1238233333333332 0.5858226666666666
183180 1.118398 0.5922843333333333
188128 1.1146886666666667 0.5979783333333333
193076 1.1096939999999997 0.6037123333333333
198024 1.1054393333333332 0.6101273333333332
202972 1.1011013333333333 0.6156836666666666
207920 1.096962 0.622343
212868 1.0926396666666665 0.627775
217816 1.088648 0.6337263333333333
222764 1.0841713333333334 0.638709
227712 1.0796883333333334 0.6452516666666666
232660 1.075772333333333 0.650606
237608 1.0710683333333333 0.656005
242556 1.0667843333333331 0.6614933333333333
247504 1.0626483333333332 0.6675603333333333
252452 1.0581953333333334 0.6725136666666667
257400 1.0545956666666667 0.6777916666666666
262348 1.0496116666666666 0.6832119999999999
267296 1.046043 0.6874806666666666
272244 1.042166 0.6936963333333332
277192 1.0377383333333334 0.6988749999999999
282140 1.0330083333333333 0.7031343333333333
287088 1.0291276666666667 0.7088263333333333
292036 1.0253573333333332 0.713227
296984 1.020581 0.7189059999999998
301932 1.0171133333333333 0.7233216666666666
306880 1.0127976666666667 0.7283249999999999
311828 1.0180643333333332 0.7062103333333334
316776 1.0046233333333334 0.7382876666666667
321724 0.9989783333333332 0.757212
326672 0.9960823333333333 0.7472016666666665
331620 0.9919786666666666 0.7523486666666666
336568 0.9876343333333333 0.7568809999999999
341516 0.9821169999999999 0.790418
346464 0.9802740000000001 0.7657369999999999
351412 0.9736886666666665 0.8062293333333332
356360 0.9723106666666667 0.7748999999999999
361308 0.9678439999999999 0.77928
366256 0.9641616666666667 0.7833966666666666
371204 0.9602833333333334 0.7888493333333333
376152 0.956426 0.7921826666666667
381100 0.9391683333333334 0.854313
386048 0.9480296666666668 0.8013003333333334
390996 0.9326106666666667 0.84156
395944 0.9408056666666665 0.8089426666666666
400892 0.9249543333333332 0.842335
405840 0.9333316666666667 0.8169323333333331
410788 0.929762 0.821452
415736 0.9252083333333332 0.8246916666666666
420684 0.9216409999999999 0.8293046666666666
425632 0.9180089999999999 0.8332289999999999
430580 0.9132793333333333 0.8370886666666666
435528 0.9104333333333333 0.8406883333333333
440476 0.9067639999999999 0.8448819999999999
445424 0.9027046666666667 0.8486466666666665
450372 0.8988773333333333 0.8530226666666666
455320 0.89599 0.856197
460268 0.8921766666666665 0.8594756666666666
465216 0.8882193333333334 0.8636963333333334
470164 0.8841766666666666 0.8678273333333333
475112 0.8815776666666666 0.8708466666666667
480060 0.877561 0.8810466666666665
485008 0.873585 0.8785813333333332
489956 0.870475 0.881265
494904 0.8663939999999999 0.8850189999999999
499852 0.8630683333333332 0.8886353333333332
504800 0.859661 0.8918523333333335
509748 0.8551366666666667 0.8942993333333332
514696 0.85189 0.897472
519644 0.8483903333333332 0.9006369999999999
524592 0.8448469999999999 0.9043093333333332
529540 0.8420379999999998 0.9073013333333333
534488 0.8382336666666667 0.9115466666666667
539436 0.8349143333333333 0.9145886666666666
544384 0.8316336666666666 0.9174373333333332
549332 0.8288476666666666 0.9213373333333333
554280 0.8250286666666666 0.9238736666666667
559228 0.8212569999999999 0.9268996666666667
564176 0.8185866666666667 0.930255
569124 0.814775 0.9332226666666666
574072 0.8120736666666667 0.9370946666666666
579020 0.8081339999999999 0.9391020000000001
583968 0.8056749999999999 0.9426406666666667
588916 0.8009603333333333 0.9460206666666666
593864 0.8000653333333332 0.9785393333333334
598812 0.7951276666666667 0.9523303333333333
603760 0.7927843333333333 0.9659883333333333
608708 0.789121 0.9581019999999999
613656 0.7856626666666666 0.960882
618604 0.7820989999999999 0.9634356666666666
623552 0.7757959999999999 0.9880459999999999
628500 0.7770113333333333 0.9695039999999999
633448 0.774098 0.9725219999999999
638396 0.7702113333333332 0.9745936666666666
643344 0.7673163333333333 0.9771963333333333
648292 0.7640756666666666 0.9800856666666666
653240 0.7812696666666665 1.0075649999999998
658188 0.7586843333333332 0.985698
663136 0.755071 0.9884636666666666
668084 0.7529436666666666 0.9913036666666667
673032 0.7495276666666666 0.9937713333333333
677980 0.7461180000000001 0.9964396666666666
682928 0.7435856666666667 0.9991036666666666
687876 0.7410353333333333 1.0022713333333333
692824 0.7374243333333333 1.0041983333333333
697772 0.7347953333333332 1.0069460000000001
702720 0.7322673333333333 1.0097086666666666
707668 0.7296553333333332 1.0122806666666666
712616 0.726537 1.0143596666666665
717564 0.7237993333333332 1.0175269999999998
722512 0.7231116666666667 1.0308506666666666
727460 0.7180276666666666 1.022499
732408 0.7149496666666666 1.0252046666666665
737356 0.7129853333333332 1.0266543333333333
742304 0.7106490000000001 1.0297596666666666
747252 0.7077463333333333 1.032095
752200 0.7043596666666666 1.0342056666666664
757148 0.7019003333333332 1.0366636666666666
762096 0.6808813333333332 1.0756953333333332
767044 0.6972289999999999 1.041106
771992 0.6749433333333333 1.0691433333333333
776940 0.6914303333333331 1.0469933333333332
781888 0.6901066666666666 1.0483843333333334
786836 0.687039 1.0508946666666665
791784 0.6838989999999999 1.0525816666666667
796732 0.6827496666666666 1.0546756666666666
801680 0.6794286666666667 1.0579646666666664
806628 0.6770033333333334 1.0599589999999997
811576 0.6746406666666666 1.0618233333333331
816524 0.672487 1.0643986666666665
821472 0.6696933333333333 1.066211
826420 0.6676396666666666 1.0682046666666667
831368 0.6648346666666666 1.0704956666666665
836316 0.6620676666666667 1.0730149999999998
841264 0.6600673333333333 1.0746093333333333
846212 0.6580723333333333 1.077242
851160 0.6555576666666667 1.0783493333333332
856108 0.6534783333333333 1.081754333333333
861056 0.6516793333333333 1.0839716666666668
866004 0.648742 1.0853599999999999
870952 0.647462 1.0877089999999998
875900 0.6453949999999999 1.0899046666666665
880848 0.6455469999999999 1.1011993333333332
885796 0.6408236666666666 1.093445
890744 0.6422076666666666 1.1110073333333332
895692 0.6368953333333334 1.0973549999999999
900640 0.633999 1.0995436666666665
905588 0.631775 1.1004666666666667
910536 0.627988 1.1191663333333333
915484 0.6286673333333332 1.1049226666666665
920432 0.619578 1.1304939999999999
925380 0.6242323333333333 1.1091576666666665
930328 0.6090589999999999 1.131745
935276 0.6207509999999999 1.1130526666666665
940224 0.6189359999999999 1.1146589999999998
945172 0.6162396666666666 1.1164543333333334
950120 0.59999 1.1534336666666667
955068 0.6134063333333333 1.1203349999999999
960016 0.6113066666666667 1.1228913333333335
964964 0.6096586666666666 1.1237879999999998
969912 0.6074333333333333 1.125667
974860 0.6053573333333333 1.1271133333333332
979808 0.6033706666666667 1.1286913333333333
984756 0.6015986666666666 1.131417
989704 0.600136 1.1329396666666665
994652 0.5992776666666666 1.134746
999600 0.597499 1.136221
1004548 0.5954469999999998 1.137926
1009496 0.5927439999999999 1.138616
1014444 0.5919576666666666 1.1406073333333333
1019392 0.5907636666666667 1.1427489999999998
1024340 0.5893673333333334 1.143316
1029288 0.5879066666666666 1.146173
1034236 0.5855636666666667 1.147787
1039184 0.5837683333333332 1.149536
1044132 0.5822213333333333 1.1505779999999999
1049080 0.582063 1.1534696666666666
1054028 0.5794336666666666 1.1540276666666665
1058976 0.5789353333333334 1.156204
1063924 0.5765743333333333 1.1575456666666666
1068872 0.5758316666666665 1.1584806666666667
1073820 0.574043 1.1603893333333333
1078768 0.573204 1.1623013333333332
1083716 0.5725533333333332 1.163608
1088664 0.570635 1.164901
1093612 0.569422 1.1670053333333332
1098560 0.568062 1.1690463333333332
1103508 0.57016 1.1781406666666667
1108456 0.5657803333333333 1.171403
1113404 0.5646116666666666 1.1733853333333333
1118352 0.562662 1.1741633333333334
1123300 0.5618313333333332 1.1895413333333333
1128248 0.5604776666666665 1.1773893333333332
1133196 0.5422193333333334 1.2096376666666666
1138144 0.5587876666666667 1.1804716666666666
1143092 0.5569729999999999 1.1824803333333334
1148040 0.5565386666666667 1.1834943333333332
1152988 0.5558016666666666 1.18512
1157936 0.5552203333333332 1.186444
1162884 0.5531603333333333 1.18722
1167832 0.5522886666666666 1.1880899999999999
1172780 0.5510073333333333 1.1896909999999998
1177728 0.5503579999999999 1.191768333333333
1182676 0.5499623333333333 1.1924796666666666
1187624 0.5497333333333333 1.1935589999999998
1192572 0.5479306666666666 1.195723
1197520 0.5472013333333333 1.1965466666666666
1202468 0.5461809999999999 1.1982153333333332
1207416 0.5455776666666666 1.2001006666666667
1212364 0.5452366666666666 1.2000380000000002
1217312 0.5440659999999999 1.2043176666666666
1222260 0.5509153333333333 1.2182456666666666
1227208 0.542404 1.2048023333333333
1232156 0.5458249999999999 1.2254403333333332
1237104 0.5412143333333332 1.2072913333333333
1242052 0.5309566666666666 1.2342893333333333
1247000 0.5396003333333332 1.2098839999999997
1251948 0.539962 1.2107379999999996
1256896 0.5392896666666667 1.2124156666666668
1261844 0.5385083333333333 1.2130396666666665
1266792 0.537906 1.214152
1271740 0.5368136666666666 1.2153
1276688 0.53599 1.216078
1281636 0.535685 1.217575
1286584 0.5350753333333333 1.2194669999999999
1291532 0.5353893333333333 1.2204646666666665
1296480 0.534092 1.2205509999999997
1301428 0.5342596666666666 1.2226006666666667
1306376 0.5336326666666666 1.2233293333333333
1311324 0.5333796666666666 1.2243123333333332
1316272 0.5334866666666667 1.2255113333333334
1321220 0.5329586666666666 1.2259843333333333
1326168 0.5324716666666667 1.2281486666666666
1331116 0.53894 1.2384119999999998
1336064 0.5318976666666666 1.2307516666666667
1341012 0.5348316666666666 1.2450436666666667
1345960 0.5309963333333334 1.2315583333333333
1350908 0.5272783333333333 1.245587
1355856 0.5217583333333333 1.246828
1360804 0.5309659999999999 1.235353
1365752 0.5303556666666667 1.2357096666666667
1370700 0.516077 1.2503466666666667
1375648 0.5304303333333333 1.2365453333333332
1380596 0.5303903333333333 1.2386879999999998
1385544 0.5300886666666667 1.2390783333333333
1390492 0.529745 1.2402553333333333
1395440 0.5291633333333332 1.2407583333333332
1400388 0.5291826666666666 1.2416413333333334
1405336 0.5286016666666666 1.2429153333333334
1410284 0.5300579999999999 1.243803
1415232 0.53021 1.2451573333333332
1420180 0.5301036666666668 1.2456536666666667
1425128 0.530225 1.2462443333333333
1430076 0.5220279999999999 1.2355646666666666
1435024 0.5301076666666666 1.2477426666666664
1439972 0.5151246666666666 1.2512296666666667
1444920 0.5302919999999999 1.2492526666666666
1449868 0.531179 1.2503236666666666
1454816 0.5301743333333333 1.2503296666666666
1459764 0.5315376666666667 1.2505996666666666
1464712 0.5304843333333333 1.2527503333333332
1469660 0.5309196666666667 1.2526073333333332
1474608 0.5309156666666667 1.2535046666666665
1479556 0.5315776666666667 1.2538349999999998
1484504 0.530944 1.2552899999999998
1489452 0.5320806666666666 1.2553619999999999
1494400 0.5317213333333333 1.256366
1499348 0.5336663333333332 1.2559209999999998
1504296 0.5334736666666666 1.256666
1509244 0.5332873333333333 1.2576640000000001
1514192 0.5335510000000001 1.2582833333333332
1519140 0.5337529999999999 1.2588073333333332
1524088 0.5338879999999999 1.259513
1529036 0.5344936666666666 1.2594699999999999
1533984 0.5348993333333333 1.2600873333333333
1538932 0.5349696666666666 1.2608783333333333
1543880 0.5360883333333333 1.260799
1548828 0.5363016666666667 1.26195
1553776 0.5374559999999999 1.2625783333333334
1558724 0.5376093333333333 1.2624926666666667
1563672 0.5379963333333333 1.2626233333333332
1568620 0.5384979999999999 1.2630086666666664
1573568 0.5393833333333333 1.263692
1578516 0.5391123333333333 1.2649653333333335
1583464 0.540429 1.264475
1588412 0.5499263333333333 1.273555
1593360 0.5424036666666666 1.2651313333333332
1598308 0.5420683333333334 1.2664026666666666
1603256 0.5424469999999999 1.2657006666666666
1608204 0.530122 1.2770503333333334
1613152 0.5438116666666666 1.2661703333333334
1618100 0.5445016666666667 1.266242
1623048 0.5455596666666667 1.266642
1627996 0.5468323333333333 1.2671126666666666
1632944 0.5468916666666667 1.2675073333333333
1637892 0.5682733333333333 1.2653013333333334
1642840 0.5491206666666667 1.2680233333333333
1647788 0.5489623333333333 1.2678326666666666
1652736 0.5494523333333333 1.2684333333333333
1657684 0.5502186666666666 1.2676743333333333
1662632 0.5516316666666665 1.2682103333333332
1667580 0.5512133333333333 1.2728106666666668
1672528 0.5532756666666667 1.2684753333333334
1677476 0.5416643333333333 1.2782376666666666
1682424 0.5544393333333333 1.269247
1687372 0.55585 1.2692513333333333
1692320 0.5562076666666667 1.2693296666666667
1697268 0.5575846666666666 1.268829
1702216 0.55874 1.2680273333333334
1707164 0.559178 1.2686956666666664
1712112 0.560433 1.2686946666666667
1717060 0.5610696666666666 1.2685963333333332
1722008 0.5616873333333332 1.2683919999999997
1726956 0.5624383333333333 1.267762
1731904 0.5629403333333333 1.2680683333333331
1736852 0.5644583333333333 1.2669766666666666
1741800 0.5661593333333333 1.2679066666666667
1746748 0.565649 1.2680213333333332
1751696 0.5675076666666666 1.2667229999999998
1756644 0.5601676666666666 1.2833403333333333
1761592 0.5698786666666666 1.266863
1766540 0.5709256666666667 1.2657676666666666
1771488 0.571923 1.266549
1776436 0.5728489999999999 1.2664366666666667
1781384 0.5742776666666667 1.2660586666666664
1786332 0.5757246666666666 1.2657913333333333
1791280 0.5767343333333332 1.2653006666666666
1796228 0.5769343333333332 1.2650786666666667
1801176 0.5790686666666667 1.2644803333333332
1806124 0.5814323333333333 1.2660399999999998
1811072 0.5800423333333332 1.264225
1816020 0.5903896666666666 1.2697913333333333
1820968 0.5823006666666666 1.2626686666666667
1825916 0.5834783333333333 1.2628709999999999
1830864 0.5849506666666666 1.2619453333333333
1835812 0.585899 1.2615679999999998
1840760 0.5863433333333332 1.2614273333333332
1845708 0.5885123333333333 1.26107
1850656 0.5900106666666667 1.2617596666666664
1855604 0.5904243333333332 1.2597623333333332
1860552 0.5910536666666666 1.2594966666666665
1865500 0.592865 1.2594806666666667
1870448 0.5940196666666666 1.2585913333333334
1875396 0.5954676666666666 1.2574073333333333
1880344 0.5969753333333332 1.257415
1885292 0.5973073333333333 1.2562946666666668
1890240 0.598719 1.256012
1895188 0.6016246666666666 1.2560079999999998
1900136 0.6019773333333333 1.2548796666666666
1905084 0.60249 1.253984
1910032 0.6028386666666666 1.252975333333333
1914980 0.5944389999999999 1.2636689999999997
1919928 0.6067653333333333 1.2520693333333333
1924876 0.6067673333333332 1.251297333333333
1929824 0.6088293333333332 1.249778
1934772 0.6104949999999999 1.2489299999999999
1939720 0.6120323333333333 1.24827
1944668 0.6125173333333334 1.2474596666666666
1949616 0.613218 1.246664
1954564 0.6151546666666667 1.2468983333333332
1959512 0.6165966666666667 1.2447896666666667
1964460 0.6176246666666666 1.2438386666666665
1969408 0.6187473333333333 1.243277
1974356 0.6195256666666666 1.2424956666666667
1979304 0.6215043333333333 1.2413193333333332
1984252 0.6224803333333333 1.2408543333333333
1989200 0.623184 1.2389063333333334
1994148 0.6240669999999999 1.2381069999999998
1999096 0.62639 1.236872
2004044 0.6269203333333333 1.2360766666666667
2008992 0.629832 1.2350786666666667
2013940 0.6347243333333332 1.2349956666666666
2018888 0.6315216666666666 1.231781
2023836 0.6331536666666666 1.231269333333333
2028784 0.6342776666666665 1.230063
2033732 0.6355386666666667 1.230067
2038680 0.6368663333333333 1.2294853333333333
2043628 0.6358763333333333 1.2320863333333334
2048576 0.6395599999999999 1.2261256666666667
2053524 0.6407406666666666 1.2248709999999998
2058472 0.641261 1.2248243333333333
2063420 0.6434966666666666 1.2228396666666665
2068368 0.6447396666666666 1.2223266666666666
2073316 0.6453933333333333 1.2203796666666666
2078264 0.6474006666666665 1.2189043333333331
2083212 0.6546259999999999 1.220716
2088160 0.6490779999999999 1.2158943333333332
2093108 0.6499526666666666 1.2151539999999998
2098056 0.6518743333333333 1.2138936666666666
2103004 0.6515239999999999 1.2194356666666666
2107952 0.6539903333333332 1.21115
2112900 0.6578253333333333 1.2109803333333333
2117848 0.656516 1.2084056666666667
2122796 0.657699 1.2074289999999999
2127744 0.659821 1.2062433333333333
2132692 0.660967 1.2047003333333333
2137640 0.6611533333333333 1.2030393333333333
2142588 0.663242 1.2103363333333332
2147536 0.6640453333333334 1.199720333333333
2152484 0.6655 1.1991823333333334
2157432 0.6671226666666668 1.1969066666666666
2162380 0.6672496666666667 1.1955053333333332
2167328 0.6680606666666666 1.1948376666666667
2172276 0.6708099999999999 1.1929206666666665
2177224 0.6715809999999999 1.1914346666666664
2182172 0.6825766666666666 1.1937946666666666
2187120 0.673329 1.1882113333333333
2192068 0.6751986666666665 1.187134333333333
2197016 0.6766126666666668 1.1846126666666668
2201964 0.6780476666666667 1.1836289999999998
2206912 0.6781953333333333 1.1818646666666668
2211860 0.6798203333333334 1.1798766666666665
2216808 0.6806673333333333 1.179722
2221756 0.6942936666666666 1.182083
2226704 0.682978 1.1759033333333333
2231652 0.6869156666666667 1.1780563333333331
2236600 0.6857790000000001 1.1715606666666667
2241548 0.6873403333333333 1.1706456666666665
2246496 0.687619 1.1687269999999998
2251444 0.6891369999999999 1.1671323333333332
2256392 0.690105 1.1648739999999997
2261340 0.6915676666666666 1.1641436666666667
2266288 0.6928743333333333 1.1621296666666665
2271236 0.6937789999999999 1.1607753333333335
2276184 0.6952266666666667 1.1582893333333333
2281132 0.6953936666666666 1.1569913333333333
2286080 0.6965119999999999 1.1553983333333333
2291028 0.7041930000000001 1.1581913333333334
2295976 0.6985836666666666 1.1515346666666666
2300924 0.6934973333333333 1.155328
2305872 0.7008396666666666 1.147883
2310820 0.7018393333333333 1.145932333333333
2315768 0.7035673333333332 1.14431
2320716 0.7068953333333333 1.1430483333333332
2325664 0.7047490000000001 1.141347
2330612 0.7065219999999999 1.138815
2335560 0.7069256666666666 1.137038
2340508 0.711239 1.1381876666666666
2345456 0.7084756666666667 1.1339263333333334
2350404 0.6920273333333333 1.1347076666666664
2355352 0.7116773333333333 1.129526
2360300 0.7113193333333332 1.1272203333333333
2365248 0.714016 1.1254193333333333
2370196 0.718428 1.1246323333333335
2375144 0.716569 1.1227916666666666
