# HZ S RI R 50
10000 0.8994676666666666 -0.04549
14948 1.3521303333333332 0.21267066666666667
19896 -0.8850899999999999 2.9737949999999995
24844 1.285381 0.39201766666666665
29792 1.2816489999999998 0.392435
34740 1.282674 0.392061
39688 1.275896333333333 0.3941549999999999
44636 1.2707656666666667 0.400796
49584 1.2637796666666665 0.4079016666666666
54532 1.259439 0.417783
59480 1.2540689999999999 0.427058
64428 1.246525 0.435379
69376 1.2395796666666665 0.44276766666666667
74324 1.233924 0.450084
79272 1.226823 0.45726066666666665
84220 1.2195799999999999 0.46445000000000003
89168 1.2148333333333334 0.470767
94116 1.2088736666666666 0.4765626666666667
99064 1.2047246666666667 0.48362466666666665
104012 1.1987349999999999 0.49115633333333336
108960 1.1941786666666667 0.497874
113908 1.1897663333333333 0.5050476666666667
118856 1.1838303333333333 0.511245
123804 1.1799296666666665 0.518891
128752 1.1750456666666667 0.524925
133700 1.170464333333333 0.531814
138648 1.1647913333333335 0.5432543333333333
143596 1.1614369999999998 0.5455856666666666
148544 1.1559446666666666 0.5531079999999999
153492 1.1524169999999998 0.5583766666666666
158440 1.1477519999999999 0.5652459999999999
163388 1.1432696666666664 0.5712223333333333
168336 1.1382233333333334 0.5783973333333333
173284 1.1345443333333334 0.5841413333333333
178232 1.1291306666666667 0.590235
183180 1.1251366666666667 0.5969886666666666
188128 1.1208113333333332 0.6022503333333332
193076 1.1161066666666666 0.6085666666666667
198024 1.1121476666666665 0.6150716666666667
202972 1.107895 0.6202273333333332
207920 1.1027226666666665 0.6265313333333333
212868 1.0989826666666667 0.6325423333333333
217816 1.0939933333333332 0.6383896666666666
222764 1.0901596666666666 0.643811
227712 1.085763 0.6501986666666666
232660 1.0818876666666668 0.6548563333333333
237608 1.077507 0.6604863333333333
242556 1.072007 0.6665479999999999
247504 1.0686273333333332 0.6716323333333333
252452 1.063831 0.6770839999999999
257400 1.0602139999999998 0.6825709999999999
262348 1.0557973333333333 0.6878153333333332
267296 1.0517286666666668 0.6930853333333333
272244 1.0473719999999997 0.698455
277192 1.04337 0.7033526666666666
282140 1.038778 0.70856
287088 1.0343493333333333 0.7143033333333333
292036 1.030978 0.7194520000000001
296984 1.0261403333333334 0.7233096666666667
301932 1.0222013333333333 0.7283186666666667
306880 1.0181366666666665 0.7331939999999999
311828 1.014389 0.7385113333333333
316776 1.009143 0.7434426666666667
321724 1.0052246666666667 0.7476083333333332
326672 1.0013689999999997 0.7523313333333334
331620 0.9972166666666666 0.757261
336568 0.9920403333333333 0.7617403333333332
341516 0.9889453333333332 0.76647
346464 0.9843099999999999 0.7710953333333332
351412 0.9807736666666667 0.7755893333333332
356360 0.9765756666666667 0.7801929999999999
361308 0.9726373333333332 0.7846193333333332
366256 0.9684900000000001 0.7885646666666666
371204 0.9644016666666666 0.79275
376152 0.9607976666666667 0.7970073333333333
381100 0.9566733333333334 0.8018063333333334
386048 0.953322 0.8059466666666666
390996 0.9499039999999999 0.8099696666666667
395944 0.9460569999999999 0.8147206666666666
400892 0.9413606666666665 0.8183313333333333
405840 0.9380923333333333 0.822741
410788 0.9340663333333332 0.8264756666666666
415736 0.9298306666666667 0.8308976666666666
420684 0.9261016666666666 0.8340586666666666
425632 0.9222036666666666 0.8386480000000001
430580 0.918573 0.842876
435528 0.9153956666666666 0.8464349999999998
440476 0.9112793333333333 0.8503636666666666
445424 0.9068496666666667 0.8538893333333333
450372 0.9032213333333333 0.8580653333333332
455320 0.8992973333333333 0.8621049999999999
460268 0.8957636666666666 0.8657
465216 0.8924033333333333 0.8690323333333333
470164 0.8888826666666666 0.8731019999999999
475112 0.8842473333333333 0.8760966666666665
480060 0.8817886666666667 0.8794723333333333
485008 0.877356 0.88385
489956 0.8740509999999999 0.8871273333333334
494904 0.8707323333333333 0.8911513333333333
499852 0.867244 0.8947713333333334
504800 0.8632299999999999 0.8978669999999999
509748 0.854729 0.9095413333333333
514696 0.8557589999999999 0.9033086666666668
519644 0.8525433333333333 0.90733
524592 0.8492923333333333 0.9103793333333333
529540 0.8451489999999999 0.9140106666666666
534488 0.842059 0.9165403333333333
539436 0.8387509999999999 0.9200686666666665
544384 0.8354779999999999 0.9233646666666666
549332 0.8317156666666667 0.9207206666666666
554280 0.8286836666666666 0.930167
559228 0.8250066666666666 0.9333263333333333
564176 0.8210826666666666 0.9366406666666667
569124 0.8186253333333333 0.9394876666666666
574072 0.8145993333333333 0.942615
579020 0.810939 0.9459719999999999
583968 0.8086016666666667 0.9480389999999999
588916 0.8054966666666666 0.9517849999999999
593864 0.8017193333333333 0.9546366666666666
598812 0.7988473333333334 0.9579389999999999
603760 0.7956063333333333 0.9610719999999999
608708 0.7922776666666667 0.963612
613656 0.7893026666666666 0.9671386666666666
618604 0.7865133333333333 0.9694919999999999
623552 0.7822743333333333 0.971602
628500 0.76491 1.0073506666666667
633448 0.7765839999999999 0.9777053333333333
638396 0.7734903333333333 0.9806679999999999
643344 0.7704216666666667 0.9837096666666666
648292 0.7668130000000001 0.9860849999999999
653240 0.7631253333333332 0.9882169999999999
658188 0.7607956666666666 0.992
663136 0.7581826666666667 0.9942863333333333
668084 0.7550283333333333 0.9963373333333332
673032 0.751574 1.0001879999999999
677980 0.7494753333333334 1.001936
682928 0.7466136666666665 1.0052603333333332
687876 0.7436336666666665 1.0075376666666664
692824 0.7409589999999999 1.0097943333333332
697772 0.7370776666666666 1.012951333333333
702720 0.7347723333333331 1.0146206666666666
707668 0.7322173333333334 1.0180493333333334
712616 0.7296976666666666 1.021063
717564 0.7265963333333333 1.0230716666666666
722512 0.7238653333333334 1.026444
727460 0.72043 1.0274699999999999
732408 0.7173663333333333 1.0308306666666667
737356 0.7151686666666667 1.0320446666666667
742304 0.7122996666666667 1.0349263333333332
747252 0.7099723333333334 1.0377423333333333
752200 0.706982 1.039869
757148 0.7042303333333333 1.0424986666666667
762096 0.7012463333333333 1.0452966666666668
767044 0.6993349999999998 1.047418
771992 0.6972246666666667 1.0497626666666666
776940 0.6941596666666667 1.0523469999999997
781888 0.6919863333333334 1.05434
786836 0.6888303333333333 1.0562026666666666
791784 0.6867666666666665 1.059042
796732 0.6837486666666666 1.0608463333333331
801680 0.681616 1.06307
806628 0.6790713333333334 1.0656683333333332
811576 0.6771223333333333 1.0683639999999999
816524 0.6743189999999999 1.0690033333333333
821472 0.6725123333333333 1.0714626666666665
826420 0.6694773333333333 1.074118
831368 0.6667763333333332 1.0765033333333334
836316 0.665065 1.0782553333333333
841264 0.6626303333333333 1.08001
846212 0.6602196666666666 1.0824146666666663
851160 0.6578226666666667 1.0848280000000001
856108 0.6557336666666665 1.0869703333333334
861056 0.6531903333333333 1.0894193333333333
866004 0.6521736666666667 1.090777
870952 0.6495076666666666 1.0934056666666665
875900 0.6472896666666667 1.0952473333333332
880848 0.6434766666666666 1.0964596666666666
885796 0.6423236666666666 1.099203
890744 0.6402996666666666 1.1014976666666665
895692 0.6385253333333333 1.1031176666666664
900640 0.6360056666666667 1.1051453333333332
905588 0.633196 1.1068293333333332
910536 0.6325553333333334 1.109277
915484 0.630198 1.1109580000000001
920432 0.6286463333333333 1.112563
925380 0.6262766666666666 1.114755
930328 0.623955 1.1164553333333331
935276 0.6222719999999999 1.1178029999999999
940224 0.6198009999999999 1.1202363333333332
945172 0.618357 1.122007
950120 0.6159116666666666 1.1234916666666668
955068 0.6149516666666666 1.1259299999999999
960016 0.6132059999999999 1.1271066666666665
964964 0.6109756666666666 1.1292199999999997
969912 0.6099933333333333 1.1315603333333333
974860 0.607749 1.1329756666666666
979808 0.6050073333333333 1.135216
984756 0.6033093333333333 1.1360986666666666
989704 0.601069 1.138804333333333
994652 0.600053 1.139481
999600 0.5983350000000001 1.1426596666666666
1004548 0.5967253333333333 1.1434143333333333
1009496 0.5956466666666667 1.1446653333333334
1014444 0.5945079999999999 1.1461540000000001
1019392 0.5919399999999999 1.1484496666666666
1024340 0.590473 1.1490416666666665
1029288 0.5886293333333332 1.1507173333333331
1034236 0.5874743333333333 1.152996
1039184 0.5858726666666666 1.1546963333333333
1044132 0.5840413333333333 1.1568336666666665
1049080 0.5829566666666667 1.157597
1054028 0.5815426666666667 1.1599503333333332
1058976 0.5798716666666667 1.1619519999999999
1063924 0.5780383333333333 1.1629273333333332
1068872 0.5772226666666667 1.1640289999999998
1073820 0.5757213333333333 1.1664733333333333
1078768 0.574246 1.1679259999999998
1083716 0.5733776666666667 1.169557
1088664 0.5718393333333334 1.171176
1093612 0.5707573333333333 1.1727953333333332
1098560 0.5692619999999999 1.1734390000000001
1103508 0.5682933333333333 1.175317
1108456 0.5669229999999998 1.1772903333333333
1113404 0.5653513333333333 1.1789869999999998
1118352 0.5643343333333333 1.1801949999999999
1123300 0.562797 1.1811106666666666
1128248 0.561526 1.182718
1133196 0.5605969999999999 1.184003
1138144 0.559237 1.1857646666666666
1143092 0.5585926666666666 1.1875153333333333
1148040 0.557318 1.1887946666666664
1152988 0.5559876666666665 1.189945
1157936 0.5556023333333333 1.1902873333333333
1162884 0.5541416666666668 1.1922566666666667
1167832 0.5550456666666667 1.1949519999999998
1172780 0.552346 1.1960429999999997
1177728 0.5511406666666666 1.1976846666666665
1182676 0.5510716666666666 1.1983069999999998
1187624 0.549928 1.2000526666666667
1192572 0.548932 1.200081
1197520 0.5486526666666667 1.201801
1202468 0.547381 1.2037003333333332
1207416 0.546897 1.2041036666666667
1212364 0.5462206666666667 1.2058743333333333
1217312 0.5453776666666666 1.2079436666666665
1222260 0.5444039999999999 1.208526
1227208 0.543472 1.209444
1232156 0.5428123333333332 1.2110196666666666
1237104 0.5415346666666666 1.2119533333333332
1242052 0.5412203333333333 1.2132453333333333
1247000 0.5415903333333333 1.2152116666666668
1251948 0.5402959999999999 1.2167576666666666
1256896 0.5400926666666666 1.2172933333333331
1261844 0.5385789999999999 1.2186636666666666
1266792 0.5378166666666666 1.21982
1271740 0.538553 1.2212319999999999
1276688 0.5376746666666666 1.222381
1281636 0.5367236666666666 1.223561333333333
1286584 0.5358863333333332 1.2235913333333333
1291532 0.535665 1.2260753333333332
1296480 0.5351386666666667 1.2268336666666668
1301428 0.5340996666666666 1.2279163333333332
1306376 0.5335906666666665 1.228712
1311324 0.5331856666666667 1.2305293333333331
1316272 0.5338746666666667 1.231351
1321220 0.5339226666666665 1.2312806666666667
1326168 0.5327876666666667 1.2327423333333334
1331116 0.5329293333333333 1.2350763333333332
1336064 0.5326219999999999 1.234634
1341012 0.5323903333333333 1.2357693333333333
1345960 0.5325466666666667 1.2372096666666665
1350908 0.5321616666666666 1.2377606666666667
1355856 0.531655 1.2391246666666667
1360804 0.5310889999999999 1.240384
1365752 0.5309916666666666 1.240503333333333
1370700 0.5302533333333332 1.2409719999999997
1375648 0.530177 1.2426473333333334
1380596 0.5306726666666666 1.2433383333333332
1385544 0.5296973333333332 1.244389
1390492 0.5294526666666667 1.2449336666666666
1395440 0.530559 1.246093
1400388 0.5306373333333333 1.247315
1405336 0.530125 1.2477563333333332
1410284 0.5300699999999999 1.2482383333333333
1415232 0.5303753333333333 1.248748
1420180 0.5300123333333333 1.2503623333333334
1425128 0.5305359999999999 1.2503539999999997
1430076 0.5303083333333333 1.250946
1435024 0.5302036666666666 1.25254
1439972 0.5305676666666665 1.2535239999999999
1444920 0.5301839999999999 1.2535896666666666
1449868 0.5308163333333333 1.2546833333333334
1454816 0.5309983333333332 1.2557133333333332
1459764 0.5313586666666665 1.2565279999999999
1464712 0.5314446666666666 1.2566013333333332
1469660 0.532021 1.2577033333333332
1474608 0.5313986666666667 1.2580399999999998
1479556 0.5312323333333333 1.2594703333333332
1484504 0.5317753333333333 1.2591846666666666
1489452 0.5332066666666666 1.260444
1494400 0.532324 1.2613616666666667
1499348 0.5329606666666666 1.261105
1504296 0.533457 1.2629086666666665
1509244 0.532705 1.2615823333333334
1514192 0.534638 1.2625069999999998
1519140 0.5348156666666666 1.263032
1524088 0.5345586666666666 1.2646883333333332
1529036 0.5354666666666665 1.2647106666666668
1533984 0.5355503333333332 1.2644873333333333
1538932 0.5356063333333333 1.26556
1543880 0.5413263333333332 1.270074333333333
1548828 0.5366359999999999 1.2656246666666666
1553776 0.5369723333333333 1.266341333333333
1558724 0.537291 1.2674503333333331
1563672 0.5379616666666667 1.2678399999999999
1568620 0.5392159999999999 1.2680853333333335
1573568 0.5391636666666666 1.2680283333333333
1578516 0.5397339999999999 1.2696839999999998
1583464 0.5403589999999999 1.2687693333333332
1588412 0.5415696666666667 1.2693066666666666
1593360 0.5415653333333333 1.2702716666666665
1598308 0.5421389999999999 1.2705246666666667
1603256 0.5426643333333333 1.2709569999999997
1608204 0.543194 1.2707556666666666
1613152 0.543122 1.2707996666666665
1618100 0.5446199999999999 1.2717496666666666
1623048 0.545045 1.2713696666666667
1627996 0.5457803333333333 1.2722496666666667
1632944 0.5477393333333334 1.2718846666666666
1637892 0.5478793333333334 1.272599
1642840 0.5485166666666665 1.2723483333333334
1647788 0.5492523333333332 1.2722463333333334
1652736 0.5496613333333333 1.27305
1657684 0.5503313333333333 1.2731616666666667
1662632 0.5517589999999999 1.2720596666666666
1667580 0.5526803333333332 1.2737323333333332
1672528 0.5525866666666667 1.272805
1677476 0.5551933333333333 1.2727336666666667
1682424 0.5549949999999999 1.2731369999999997
1687372 0.5563813333333332 1.2733066666666666
1692320 0.5570116666666667 1.2727116666666665
1697268 0.557782 1.272154
1702216 0.557588 1.2730296666666665
1707164 0.5593349999999999 1.2733076666666667
1712112 0.5608776666666666 1.2728166666666667
1717060 0.5605013333333333 1.2739223333333334
1722008 0.5618276666666666 1.272736
1726956 0.562614 1.2724923333333333
1731904 0.5640093333333334 1.272946333333333
1736852 0.565399 1.27243
1741800 0.565496 1.2721633333333333
1746748 0.5659296666666667 1.2722726666666666
1751696 0.567836 1.2724123333333333
1756644 0.5692653333333333 1.2717316666666667
1761592 0.5696733333333334 1.2708026666666667
1766540 0.5698533333333333 1.2722063333333333
1771488 0.5718179999999999 1.2710723333333331
1776436 0.5723816666666666 1.2710636666666666
1781384 0.5732636666666667 1.270889
1786332 0.5751649999999999 1.270718
1791280 0.5757966666666667 1.2696073333333333
1796228 0.576888 1.2697603333333334
1801176 0.5780153333333333 1.270678
1806124 0.5792283333333333 1.2690883333333334
1811072 0.5801339999999999 1.269343333333333
1816020 0.5813623333333333 1.2674576666666664
1820968 0.5830703333333334 1.2682863333333332
1825916 0.5844066666666666 1.268146
1830864 0.5844929999999999 1.2669916666666667
1835812 0.5861500000000001 1.2668589999999997
1840760 0.5873033333333333 1.265299
1845708 0.5883836666666666 1.266079
1850656 0.5891919999999999 1.265704
1855604 0.5905239999999999 1.2642703333333332
1860552 0.5924366666666666 1.264341
1865500 0.5935416666666666 1.2631206666666666
1870448 0.594521 1.2625883333333334
1875396 0.5951799999999999 1.2608053333333333
1880344 0.5954426666666667 1.2619783333333334
1885292 0.5967696666666666 1.260722
1890240 0.5986043333333333 1.2602553333333333
1895188 0.59942 1.2602286666666667
1900136 0.6009513333333333 1.2585056666666665
1905084 0.6022073333333333 1.257825
1910032 0.6036360000000001 1.2583853333333332
1914980 0.604606 1.256793
1919928 0.6052296666666666 1.25656
1924876 0.6078686666666666 1.2546576666666667
1929824 0.6081479999999999 1.2543706666666665
1934772 0.6099346666666665 1.2546053333333334
1939720 0.611084 1.253492
1944668 0.6124556666666666 1.2522626666666665
1949616 0.6137239999999999 1.2515133333333333
1954564 0.6139669999999999 1.2502546666666667
1959512 0.6162356666666666 1.2500556666666665
1964460 0.6173246666666667 1.2490439999999998
1969408 0.6185186666666667 1.2473343333333333
1974356 0.6188336666666667 1.2466136666666667
1979304 0.6210536666666666 1.246338333333333
1984252 0.6217856666666666 1.2444833333333334
1989200 0.6234076666666666 1.2437033333333334
1994148 0.6247659999999999 1.2434696666666665
1999096 0.6258823333333333 1.24221
2004044 0.6274626666666665 1.240629
2008992 0.6289579999999999 1.240994
2013940 0.6301473333333334 1.2387603333333332
2018888 0.6317956666666666 1.2376853333333333
2023836 0.6323646666666667 1.237094
2028784 0.6335946666666668 1.2351953333333332
2033732 0.6346703333333332 1.2345143333333333
2038680 0.6357333333333333 1.2326319999999997
2043628 0.6377606666666666 1.231663333333333
2048576 0.6383069999999998 1.2306513333333333
2053524 0.6404216666666667 1.229387
2058472 0.641732 1.227865
2063420 0.6419249999999999 1.2267853333333332
2068368 0.6433426666666666 1.22654
2073316 0.6449746666666666 1.2250689999999997
2078264 0.646452 1.223895
2083212 0.6476919999999999 1.2214466666666666
2088160 0.6484646666666666 1.2211736666666666
2093108 0.6497186666666667 1.2199499999999999
2098056 0.650528 1.2188276666666664
2103004 0.6524876666666667 1.2181456666666666
2107952 0.6539366666666666 1.2164066666666666
2112900 0.654806 1.2141123333333335
2117848 0.6562213333333333 1.2131846666666668
2122796 0.6581983333333332 1.2122379999999997
2127744 0.6582606666666666 1.2102049999999998
2132692 0.660204 1.2093226666666665
2137640 0.6616863333333333 1.207423333333333
2142588 0.6625336666666667 1.2073033333333332
2147536 0.6630646666666666 1.2058116666666665
2152484 0.6651706666666667 1.2039246666666665
2157432 0.6657683333333333 1.2024156666666665
2162380 0.6673333333333333 1.200102
2167328 0.6688686666666666 1.1992193333333332
2172276 0.669936 1.1979403333333334
2177224 0.6706856666666665 1.1952626666666666
2182172 0.6721996666666668 1.1943853333333332
2187120 0.6730003333333334 1.1936849999999999
2192068 0.674696 1.1920289999999998
2197016 0.6759973333333332 1.1903096666666668
2201964 0.6771243333333332 1.1888376666666665
2206912 0.6784619999999999 1.18637
2211860 0.679586 1.1856939999999998
2216808 0.6810326666666666 1.1837733333333333
2221756 0.681182 1.1820193333333333
2226704 0.6822143333333333 1.1811633333333333
2231652 0.6846133333333333 1.1788426666666667
2236600 0.6850513333333332 1.1761556666666666
2241548 0.6862406666666666 1.1763996666666667
2246496 0.6874086666666666 1.1745966666666665
2251444 0.6883529999999999 1.1717286666666666
2256392 0.6897696666666666 1.1706443333333332
2261340 0.6904260000000001 1.168734
2266288 0.6920206666666667 1.1672346666666666
2271236 0.693181 1.1649263333333333
2276184 0.693417 1.164024
2281132 0.6952726666666666 1.1618233333333334
2286080 0.696462 1.160123
2291028 0.6975526666666667 1.158429
2295976 0.698078 1.15661
2300924 0.698712 1.154467
2305872 0.7004453333333333 1.1528126666666667
2310820 0.7017663333333332 1.1510873333333334
2315768 0.7022116666666666 1.1492013333333333
2320716 0.702944 1.1473483333333334
2325664 0.7050896666666666 1.1459783333333333
2330612 0.7056279999999999 1.1436293333333332
2335560 0.7063409999999999 1.1418486666666665
2340508 0.7073763333333334 1.1406316666666667
2345456 0.7078723333333332 1.138529333333333
2350404 0.7093683333333332 1.1361536666666665
2355352 0.710207 1.13442
2360300 0.7116009999999999 1.1324806666666665
2365248 0.7126899999999999 1.1312913333333334
2370196 0.7131916666666667 1.1287203333333333
2375144 0.7146086666666666 1.1268946666666664
2380092 0.7155696666666667 1.1243210000000001
2385040 0.716755 1.12318
2389988 0.7168666666666665 1.1214126666666666
2394936 0.7186886666666666 1.1186426666666667
2399884 0.7183379999999999 1.117736
2404832 0.7205473333333332 1.115094
