# HZ S RI R 50
10000 1.1198819999999998 -0.09043399999999999
14948 1.3628669999999998 0.22260166666666664
19896 0.1800856666666667 1.1962843333333333
24844 1.3246066666666665 0.44326566666666667
29792 1.2860079999999998 0.39436799999999994
34740 1.2838973333333332 0.3936259999999999
39688 1.2806713333333333 0.39803566666666657
44636 1.2732963333333334 0.422297
49584 1.2713409999999998 0.413852
54532 1.2650546666666664 0.420485
59480 1.2573746666666665 0.4297146666666666
64428 1.2453103333333333 0.47383033333333335
69376 1.2445523333333333 0.44715
74324 1.219157 0.5284063333333333
79272 1.2321206666666664 0.46148799999999995
84220 1.2201389999999999 0.46348733333333325
89168 1.2205563333333331 0.47418899999999997
94116 1.214416 0.4807663333333333
99064 1.2089186666666667 0.4878453333333333
104012 1.2032466666666668 0.49451366666666663
108960 1.1993009999999997 0.5018396666666667
113908 1.1939366666666666 0.5089536666666667
118856 1.188566 0.5150950000000001
123804 1.1844789999999998 0.5220226666666667
128752 1.1794859999999998 0.5287089999999999
133700 1.1749093333333334 0.5357393333333333
138648 1.1709136666666664 0.5434876666666666
143596 1.1659866666666665 0.5494773333333333
148544 1.1612589999999998 0.5551956666666666
153492 1.1566839999999998 0.5627316666666666
158440 1.1520166666666667 0.5696103333333333
163388 1.1474913333333332 0.5748293333333333
168336 1.1430726666666664 0.5814626666666667
173284 1.13938 0.587947
178232 1.1342466666666666 0.5941033333333332
183180 1.1280396666666666 0.6170163333333334
188128 1.1253926666666667 0.6065203333333333
193076 1.1214253333333333 0.6133713333333334
198024 1.1162463333333332 0.6192213333333334
202972 1.111962333333333 0.625372
207920 1.1076166666666665 0.6308666666666667
212868 1.0978176666666668 0.6761783333333332
217816 1.093729 0.647541
222764 1.088577 0.688056
227712 1.0902603333333334 0.654539
232660 1.085341 0.6594793333333333
237608 1.0812616666666666 0.6649486666666666
242556 1.0771669999999998 0.6708306666666666
247504 1.0723463333333334 0.6764939999999999
252452 1.0689966666666666 0.6820413333333333
257400 1.0641383333333332 0.6870673333333333
262348 1.0593196666666667 0.6924453333333332
267296 1.0554923333333335 0.6979653333333333
272244 1.0511206666666666 0.7024549999999998
277192 1.04731 0.708053
282140 1.0422613333333333 0.7136403333333333
287088 1.0387773333333332 0.7187886666666667
292036 1.034022 0.7236309999999999
296984 1.0295826666666665 0.7284326666666666
301932 1.03045 0.728284
306880 1.017051 0.7430209999999999
311828 1.0211313333333332 0.738142
316776 1.0076646666666667 0.7606293333333333
321724 1.0134226666666666 0.7473833333333333
326672 1.0050659999999998 0.7569889999999999
331620 1.0012373333333333 0.7625889999999999
336568 1.0001943333333332 0.7623106666666667
341516 0.9908259999999999 0.7858796666666665
346464 0.9888003333333333 0.7684093333333333
351412 0.9815846666666667 0.8025819999999999
356360 0.9853036666666666 0.7733089999999999
361308 0.9754849999999999 0.7973346666666666
366256 0.9709896666666666 0.8086549999999999
371204 0.9652026666666667 0.8269723333333332
376152 0.9635319999999999 0.810437
381100 0.9531966666666666 0.8325003333333334
386048 0.9505926666666666 0.8298193333333332
390996 0.9491319999999999 0.85064
395944 0.953066 0.8225179999999999
400892 0.943341 0.8307366666666667
405840 0.945604 0.8309996666666667
410788 0.9368559999999999 0.8322573333333333
415736 0.9367766666666666 0.831367
420684 0.933759 0.8353493333333333
425632 0.929684 0.8396923333333333
430580 0.9171353333333334 0.8521289999999999
435528 0.9175023333333333 0.8517766666666665
440476 0.9138186666666666 0.8562970000000001
445424 0.9147246666666666 0.8555616666666666
450372 0.906148 0.863238
455320 0.9070786666666667 0.86303
460268 0.8980843333333333 0.870618
465216 0.899003 0.8706486666666666
470164 0.890944 0.8786806666666666
475112 0.8875216666666668 0.8822066666666666
480060 0.8836323333333334 0.8989223333333333
485008 0.879895 0.8894086666666667
489956 0.8769419999999999 0.9248103333333334
494904 0.8726996666666667 0.8964809999999999
499852 0.8703536666666667 0.9001863333333333
504800 0.865706 0.903518
509748 0.8501866666666666 0.9210173333333334
514696 0.864255 0.9061983333333333
519644 0.854551 0.9125763333333332
524592 0.8511673333333333 0.9157886666666666
529540 0.8477739999999999 0.9200583333333334
534488 0.8451476666666666 0.9227459999999998
539436 0.8412593333333334 0.9266989999999999
544384 0.8377773333333334 0.9298979999999999
549332 0.8332479999999999 0.9321079999999999
554280 0.8300863333333333 0.9362966666666666
559228 0.826933 0.939368
564176 0.8237233333333333 0.9424416666666666
569124 0.820083 0.9454493333333334
574072 0.8167476666666666 0.948016
579020 0.8133309999999999 0.9513353333333333
583968 0.8109419999999999 0.9552943333333334
588916 0.8074823333333333 0.9580503333333334
593864 0.8043253333333333 0.9613546666666666
598812 0.7998376666666666 0.9637873333333333
603760 0.7973036666666666 0.9664783333333333
608708 0.794152 0.968852
613656 0.7910919999999999 0.9724983333333334
618604 0.7881876666666666 0.9757926666666666
623552 0.7846426666666666 0.9789203333333332
628500 0.7817633333333334 0.9812779999999999
633448 0.7785343333333332 0.9842016666666666
638396 0.7752556666666666 0.9871226666666666
643344 0.771883 0.9901329999999999
648292 0.7687583333333332 0.9925446666666666
653240 0.7600573333333334 0.9983826666666666
658188 0.7632413333333332 0.997606
663136 0.7601496666666666 1.0008696666666665
668084 0.7567626666666666 1.0029783333333333
673032 0.7534506666666667 1.006588
677980 0.7514689999999999 1.008997
682928 0.7477 1.0113819999999998
687876 0.7443856666666666 1.014131
692824 0.7417633333333333 1.0159913333333332
697772 0.7397459999999999 1.0193666666666668
702720 0.7364249999999999 1.021977
707668 0.7338009999999999 1.0234163333333335
712616 0.7306736666666667 1.026803
717564 0.7276246666666666 1.0301913333333332
722512 0.7248323333333332 1.0317429999999999
727460 0.7223376666666665 1.0337686666666666
732408 0.7191056666666666 1.0363976666666668
737356 0.7163586666666666 1.0388716666666666
742304 0.7139226666666666 1.0415343333333333
747252 0.7111566666666667 1.0441193333333332
752200 0.7082996666666667 1.045929333333333
757148 0.7059179999999998 1.048873
762096 0.7043659999999999 1.0505636666666667
767044 0.701382 1.0538866666666666
771992 0.6978939999999999 1.0565626666666665
776940 0.6951413333333332 1.0579979999999998
781888 0.6925196666666666 1.0608899999999999
786836 0.6905009999999999 1.0624806666666666
791784 0.6884263333333333 1.064558
796732 0.6846686666666667 1.0670723333333332
801680 0.6826023333333333 1.068828
806628 0.6802619999999999 1.0727576666666665
811576 0.6784406666666666 1.0747526666666665
816524 0.6756146666666667 1.0752863333333331
821472 0.673288 1.078841
826420 0.6707943333333333 1.080672
831368 0.668137 1.0836153333333332
836316 0.6665583333333333 1.0856313333333332
841264 0.6636236666666666 1.087613
846212 0.6613726666666666 1.0894643333333334
851160 0.6592146666666666 1.0913853333333332
856108 0.657057 1.0936373333333331
861056 0.6549206666666667 1.0955756666666665
866004 0.6523113333333332 1.0977796666666666
870952 0.6501156666666666 1.099604
875900 0.647656 1.1019026666666667
880848 0.646099 1.103617
885796 0.6444523333333333 1.106158
890744 0.641976 1.1078069999999998
895692 0.6393256666666667 1.110039
900640 0.6375456666666667 1.111529
905588 0.6351716666666666 1.1139663333333332
910536 0.6333383333333332 1.1163103333333333
915484 0.631137 1.1180913333333333
920432 0.6288333333333334 1.1193043333333332
925380 0.6268466666666666 1.1209213333333334
930328 0.6256906666666666 1.1234536666666666
935276 0.62313 1.1252633333333333
940224 0.6204149999999999 1.126971333333333
945172 0.6193379999999999 1.1298659999999998
950120 0.6171659999999999 1.1309236666666667
955068 0.615059 1.132801333333333
960016 0.613793 1.1348086666666666
964964 0.6118959999999999 1.1364876666666666
969912 0.6108493333333334 1.1383746666666665
974860 0.608814 1.139117
979808 0.607227 1.1410513333333334
984756 0.6049119999999999 1.1435733333333333
989704 0.6034726666666667 1.145568
994652 0.6013649999999999 1.1478813333333333
999600 0.5998853333333334 1.1494883333333332
1004548 0.5981573333333332 1.1504993333333333
1009496 0.5966413333333334 1.150769
1014444 0.5946353333333333 1.1532813333333332
1019392 0.5922403333333334 1.1559536666666665
1024340 0.5913303333333333 1.1565756666666664
1029288 0.5896786666666667 1.1585786666666666
1034236 0.5843419999999999 1.1658373333333334
1039184 0.5877033333333332 1.162001
1044132 0.5852626666666666 1.1632660000000001
1049080 0.5841029999999999 1.1651713333333333
1054028 0.5814686666666666 1.166817
1058976 0.5809803333333333 1.1682039999999998
1063924 0.5796856666666665 1.1697756666666665
1068872 0.578128 1.171708
1073820 0.576342 1.1727599999999998
1078768 0.5684163333333333 1.172701
1083716 0.5740616666666667 1.1761589999999997
1088664 0.567013 1.1793806666666664
1093612 0.5698179999999999 1.1747706666666666
1098560 0.5700153333333333 1.1948856666666665
1103508 0.5643763333333333 1.188609
1108456 0.5687866666666666 1.2024916666666665
1113404 0.571175 1.183675
1118352 0.561359 1.206204
1123300 0.5782853333333332 1.2038733333333331
1128248 0.5453133333333333 1.2177146666666667
1133196 0.5671363333333332 1.189843
1138144 0.5555103333333333 1.1945713333333332
1143092 0.5657126666666666 1.1930253333333334
1148040 0.5536616666666666 1.1978
1152988 0.562371 1.196337
1157936 0.5514563333333333 1.2005646666666667
1162884 0.5608233333333332 1.1984533333333334
1167832 0.5502116666666668 1.2026126666666666
1172780 0.5587329999999999 1.2011513333333332
1177728 0.5468016666666666 1.2058896666666667
1182676 0.5566163333333334 1.2042173333333333
1187624 0.5453026666666666 1.2074386666666665
1192572 0.5546676666666666 1.20669
1197520 0.54365 1.2108736666666664
1202468 0.5529883333333334 1.2102816666666665
1207416 0.5508799999999999 1.2286283333333332
1212364 0.5430736666666666 1.21913
1217312 0.5511313333333333 1.226077
1222260 0.5455189999999999 1.2158803333333332
1227208 0.5450326666666666 1.2378303333333334
1232156 0.5441133333333333 1.218751
1237104 0.5433546666666667 1.21956
1242052 0.5427176666666665 1.2210293333333333
1247000 0.5414663333333334 1.2227966666666665
1251948 0.5412126666666667 1.22293
1256896 0.5408496666666667 1.2239876666666665
1261844 0.5405533333333334 1.2256399999999998
1266792 0.5400376666666666 1.2256813333333332
1271740 0.5387233333333333 1.22814
1276688 0.5378419999999999 1.2294376666666667
1281636 0.537982 1.2303503333333332
1286584 0.5370936666666666 1.231395
1291532 0.536791 1.2325016666666664
1296480 0.5365753333333333 1.2333506666666665
1301428 0.5366113333333333 1.2344779999999997
1306376 0.5355956666666667 1.2359589999999998
1311324 0.5353053333333333 1.2360856666666664
1316272 0.5393486666666667 1.2449149999999998
1321220 0.535002 1.2390299999999999
1326168 0.5323026666666666 1.2546743333333332
1331116 0.5337523333333333 1.240825
1336064 0.5315736666666666 1.2569869999999999
1341012 0.5341953333333334 1.2434880000000001
1345960 0.5277593333333332 1.2638326666666666
1350908 0.5326626666666666 1.2444496666666667
1355856 0.532897 1.2455223333333332
1360804 0.5322503333333333 1.247091333333333
1365752 0.5331366666666666 1.247353
1370700 0.5323523333333333 1.2491816666666664
1375648 0.5320833333333334 1.2497999999999998
1380596 0.5326206666666666 1.2504473333333332
1385544 0.5315663333333334 1.2509503333333334
1390492 0.5321943333333332 1.2522776666666666
1395440 0.5306983333333333 1.2534003333333334
1400388 0.5319866666666666 1.2544110000000002
1405336 0.5322193333333334 1.2545186666666668
1410284 0.5320036666666667 1.2554476666666665
1415232 0.5310273333333333 1.2567293333333334
1420180 0.5318423333333333 1.2583633333333333
1425128 0.5323406666666666 1.2590299999999999
1430076 0.5318343333333333 1.2586006666666667
1435024 0.5366173333333333 1.2655393333333333
1439972 0.5335123333333331 1.2600036666666665
1444920 0.5325396666666666 1.2610556666666666
1449868 0.531698 1.2614103333333333
1454816 0.5412529999999999 1.273067333333333
1459764 0.5334213333333333 1.2632356666666666
1464712 0.5388686666666667 1.2723183333333332
1469660 0.5331286666666666 1.2648383333333335
1474608 0.5392359999999999 1.2797203333333331
1479556 0.5337256666666665 1.2663613333333334
1484504 0.5334679999999999 1.2672213333333333
1489452 0.5341926666666668 1.2669833333333334
1494400 0.5351423333333333 1.2680633333333333
1499348 0.5346876666666667 1.267318333333333
1504296 0.5349539999999999 1.2689933333333334
1509244 0.5350326666666666 1.268815
1514192 0.535976 1.2696236666666667
1519140 0.5366776666666666 1.2702113333333334
1524088 0.5372043333333332 1.2711956666666666
1529036 0.536996 1.2714186666666667
1533984 0.523962 1.2832983333333332
1538932 0.537461 1.2731693333333332
1543880 0.5379409999999999 1.273081
1548828 0.539163 1.2731353333333333
1553776 0.5399016666666666 1.2736223333333332
1558724 0.5396363333333333 1.2732696666666667
1563672 0.5403603333333333 1.275052
1568620 0.5383113333333334 1.2732526666666666
1573568 0.5417176666666667 1.2748866666666665
1578516 0.5427373333333333 1.2753763333333334
1583464 0.5313399999999999 1.3153523333333332
1588412 0.5483753333333332 1.2757946666666666
1593360 0.532249 1.2898536666666667
1598308 0.5425996666666666 1.2809613333333334
1603256 0.541747 1.2807866666666667
1608204 0.5448109999999999 1.2781156666666664
1613152 0.546808 1.2778993333333333
1618100 0.5474549999999999 1.2777546666666666
1623048 0.529698 1.294051
1627996 0.5490593333333333 1.2779789999999998
1632944 0.5491376666666665 1.2794406666666664
1637892 0.549886 1.2795156666666667
1642840 0.554688 1.2821186666666666
1647788 0.5538096666666666 1.2809123333333332
1652736 0.5588009999999999 1.28545
1657684 0.5537103333333333 1.2796566666666664
1662632 0.5561796666666666 1.281329
1667580 0.5539703333333332 1.2798153333333333
1672528 0.5584066666666666 1.276591
1677476 0.5568126666666666 1.280619
1682424 0.557651 1.2798216666666664
1687372 0.5582626666666666 1.2791899999999998
1692320 0.5613929999999999 1.2772179999999997
1697268 0.5628963333333333 1.2757876666666665
1702216 0.56117 1.2803473333333333
1707164 0.562136 1.2793186666666665
1712112 0.56336 1.2801633333333333
1717060 0.5641666666666666 1.2787866666666665
1722008 0.55821 1.2931789999999999
1726956 0.5656053333333333 1.2791776666666665
1731904 0.5668056666666665 1.2780733333333332
1736852 0.5676156666666667 1.2791756666666665
1741800 0.5720926666666666 1.260948
1746748 0.5687373333333333 1.2791009999999998
1751696 0.5703416666666667 1.2786196666666667
1756644 0.5721156666666666 1.2777896666666666
1761592 0.5722526666666666 1.2781706666666666
1766540 0.5737266666666666 1.2772536666666667
1771488 0.574528 1.2777033333333332
1776436 0.5755403333333333 1.2776566666666664
1781384 0.5781243333333332 1.2788506666666666
1786332 0.5783763333333333 1.2762819999999997
1791280 0.5808186666666667 1.282592
1796228 0.5795196666666667 1.276159
1801176 0.5820356666666666 1.2756093333333334
1806124 0.5819946666666667 1.275806
1811072 0.5833156666666667 1.274795333333333
1816020 0.5835459999999999 1.2745976666666667
1820968 0.5853223333333333 1.274114
1825916 0.586497 1.2735013333333334
1830864 0.588803 1.2726373333333332
1835812 0.5888216666666666 1.2726016666666666
1840760 0.5897729999999999 1.2715786666666666
1845708 0.5915066666666666 1.2710423333333334
1850656 0.5966629999999999 1.2745126666666666
1855604 0.593045 1.2700116666666665
1860552 0.6040523333333332 1.2758893333333334
1865500 0.596098 1.2695326666666666
1870448 0.5968023333333333 1.2690409999999999
1875396 0.597938 1.2684956666666665
1880344 0.5996113333333334 1.267614
1885292 0.6002873333333333 1.2664533333333332
1890240 0.6016173333333332 1.2659816666666666
1895188 0.6020826666666667 1.2660473333333333
1900136 0.6043513333333334 1.2651483333333333
1905084 0.6052566666666667 1.2646806666666666
1910032 0.6067833333333332 1.2631109999999999
1914980 0.6077269999999999 1.263071333333333
1919928 0.6093923333333333 1.2616433333333332
1924876 0.6104756666666666 1.2613329999999998
1929824 0.6158406666666667 1.2626933333333332
1934772 0.6125749999999999 1.2592426666666665
1939720 0.621664 1.263522
1944668 0.6151273333333332 1.2584179999999998
1949616 0.6224559999999999 1.2638176666666667
1954564 0.6168573333333334 1.2565433333333333
1959512 0.6083339999999999 1.2628933333333334
1964460 0.620778 1.2541479999999998
1969408 0.6217936666666666 1.2539776666666667
1974356 0.623431 1.2520323333333334
1979304 0.6235966666666666 1.2510416666666666
1984252 0.6249716666666667 1.2505243333333333
1989200 0.6272363333333333 1.2491566666666665
1994148 0.6281613333333333 1.2483119999999999
1999096 0.6294106666666666 1.247514
2004044 0.6301643333333333 1.2463286666666664
2008992 0.6280276666666667 1.2450933333333332
2013940 0.6335493333333333 1.2432926666666666
2018888 0.6294536666666667 1.2436026666666664
2023836 0.6364996666666666 1.241445
2028784 0.6325646666666667 1.240858
2033732 0.639112 1.2393663333333333
2038680 0.6353449999999999 1.239376
2043628 0.6429303333333334 1.2378906666666667
2048576 0.6373103333333333 1.2368523333333332
2053524 0.6429246666666666 1.2349216666666667
2058472 0.6392246666666668 1.2343936666666666
2063420 0.6456493333333333 1.232482
2068368 0.6424273333333332 1.2315639999999999
2073316 0.6487233333333333 1.2287949999999999
2078264 0.6441233333333333 1.2295493333333334
2083212 0.651065 1.2276369999999999
2088160 0.6478633333333333 1.2263456666666666
2093108 0.6583289999999999 1.2238446666666667
2098056 0.650083 1.2242053333333334
2103004 0.6648313333333333 1.2236629999999997
2107952 0.6522613333333334 1.2211403333333333
2112900 0.6581589999999999 1.2188666666666665
2117848 0.6546019999999999 1.2177803333333332
2122796 0.6644943333333333 1.2203293333333332
2127744 0.6411309999999999 1.2282446666666667
2132692 0.6615496666666666 1.219157
2137640 0.6603046666666665 1.2126109999999999
2142588 0.6685353333333334 1.2177723333333332
2147536 0.6667350000000001 1.209798333333333
2152484 0.6689306666666666 1.2082206666666666
2157432 0.6699449999999999 1.2061036666666667
2162380 0.6702273333333333 1.205463
2167328 0.6722536666666665 1.2034136666666664
2172276 0.6725433333333333 1.2014093333333333
2177224 0.6737376666666666 1.2006703333333333
2182172 0.6746333333333332 1.1983266666666668
2187120 0.6768839999999999 1.1970776666666665
2192068 0.6770563333333333 1.1950903333333334
2197016 0.6792776666666667 1.1936643333333334
2201964 0.6798696666666666 1.1923953333333333
2206912 0.6814733333333332 1.1909766666666666
2211860 0.6823506666666665 1.1893663333333333
2216808 0.683652 1.1882709999999999
2221756 0.6842609999999999 1.18582
2226704 0.6858196666666665 1.184184
2231652 0.6865003333333333 1.1823919999999999
2236600 0.6882856666666666 1.1807999999999998
2241548 0.6934670000000001 1.1811936666666667
2246496 0.6906279999999999 1.1778923333333333
2251444 0.6987019999999999 1.1786673333333333
2256392 0.6926683333333333 1.173972
2261340 0.7004973333333333 1.177632
2266288 0.695537 1.1702646666666665
2271236 0.6967279999999999 1.1733283333333333
2276184 0.6972639999999999 1.1675393333333333
2281132 0.684847 1.1700303333333333
2286080 0.6990046666666667 1.1641863333333333
2291028 0.6999656666666666 1.1610683333333331
2295976 0.7020383333333333 1.1600076666666665
2300924 0.7027943333333333 1.1580966666666666
2305872 0.7027113333333334 1.1569743333333333
2310820 0.704459 1.1546553333333334
2315768 0.7045349999999999 1.1531083333333334
2320716 0.7061383333333332 1.1510623333333332
2325664 0.7078813333333334 1.1486199999999998
2330612 0.7089973333333333 1.1474603333333333
2335560 0.709148 1.1453536666666668
2340508 0.7109713333333334 1.142685333333333
2345456 0.7115486666666666 1.1421833333333333
2350404 0.7137766666666666 1.13974
2355352 0.713652 1.1368753333333332
2360300 0.714645 1.1364003333333335
2365248 0.7151836666666667 1.1334526666666667
2370196 0.7165123333333333 1.1324323333333333
